CITIFILE A.01.01
!Agilent Technologies,N5230C,MY48100142,A.08.04.10
!Agilent N5230C: A.08.04.10
!Format: LogMag/Angle
!Date: Thursday, August 13, 2020 14:55:43
NAME CH1_DATA
VAR Power MAG 801
DATA S11 DBANGLE
DATA S21 DBANGLE
DATA S12 DBANGLE
DATA S22 DBANGLE
VAR_LIST_BEGIN
-40
-39.975
-39.95
-39.925
-39.9
-39.875
-39.85
-39.825
-39.8
-39.775
-39.75
-39.725
-39.7
-39.675
-39.65
-39.625
-39.6
-39.575
-39.55
-39.525
-39.5
-39.475
-39.45
-39.425
-39.4
-39.375
-39.35
-39.325
-39.3
-39.275
-39.25
-39.225
-39.2
-39.175
-39.15
-39.125
-39.1
-39.075
-39.05
-39.025
-39
-38.975
-38.95
-38.925
-38.9
-38.875
-38.85
-38.825
-38.8
-38.775
-38.75
-38.725
-38.7
-38.675
-38.65
-38.625
-38.6
-38.575
-38.55
-38.525
-38.5
-38.475
-38.45
-38.425
-38.4
-38.375
-38.35
-38.325
-38.3
-38.275
-38.25
-38.225
-38.2
-38.175
-38.15
-38.125
-38.1
-38.075
-38.05
-38.025
-38
-37.975
-37.95
-37.925
-37.9
-37.875
-37.85
-37.825
-37.8
-37.775
-37.75
-37.725
-37.7
-37.675
-37.65
-37.625
-37.6
-37.575
-37.55
-37.525
-37.5
-37.475
-37.45
-37.425
-37.4
-37.375
-37.35
-37.325
-37.3
-37.275
-37.25
-37.225
-37.2
-37.175
-37.15
-37.125
-37.1
-37.075
-37.05
-37.025
-37
-36.975
-36.95
-36.925
-36.9
-36.875
-36.85
-36.825
-36.8
-36.775
-36.75
-36.725
-36.7
-36.675
-36.65
-36.625
-36.6
-36.575
-36.55
-36.525
-36.5
-36.475
-36.45
-36.425
-36.4
-36.375
-36.35
-36.325
-36.3
-36.275
-36.25
-36.225
-36.2
-36.175
-36.15
-36.125
-36.1
-36.075
-36.05
-36.025
-36
-35.975
-35.95
-35.925
-35.9
-35.875
-35.85
-35.825
-35.8
-35.775
-35.75
-35.725
-35.7
-35.675
-35.65
-35.625
-35.6
-35.575
-35.55
-35.525
-35.5
-35.475
-35.45
-35.425
-35.4
-35.375
-35.35
-35.325
-35.3
-35.275
-35.25
-35.225
-35.2
-35.175
-35.15
-35.125
-35.1
-35.075
-35.05
-35.025
-35
-34.975
-34.95
-34.925
-34.9
-34.875
-34.85
-34.825
-34.8
-34.775
-34.75
-34.725
-34.7
-34.675
-34.65
-34.625
-34.6
-34.575
-34.55
-34.525
-34.5
-34.475
-34.45
-34.425
-34.4
-34.375
-34.35
-34.325
-34.3
-34.275
-34.25
-34.225
-34.2
-34.175
-34.15
-34.125
-34.1
-34.075
-34.05
-34.025
-34
-33.975
-33.95
-33.925
-33.9
-33.875
-33.85
-33.825
-33.8
-33.775
-33.75
-33.725
-33.7
-33.675
-33.65
-33.625
-33.6
-33.575
-33.55
-33.525
-33.5
-33.475
-33.45
-33.425
-33.4
-33.375
-33.35
-33.325
-33.3
-33.275
-33.25
-33.225
-33.2
-33.175
-33.15
-33.125
-33.1
-33.075
-33.05
-33.025
-33
-32.975
-32.95
-32.925
-32.9
-32.875
-32.85
-32.825
-32.8
-32.775
-32.75
-32.725
-32.7
-32.675
-32.65
-32.625
-32.6
-32.575
-32.55
-32.525
-32.5
-32.475
-32.45
-32.425
-32.4
-32.375
-32.35
-32.325
-32.3
-32.275
-32.25
-32.225
-32.2
-32.175
-32.15
-32.125
-32.1
-32.075
-32.05
-32.025
-32
-31.975
-31.95
-31.925
-31.9
-31.875
-31.85
-31.825
-31.8
-31.775
-31.75
-31.725
-31.7
-31.675
-31.65
-31.625
-31.6
-31.575
-31.55
-31.525
-31.5
-31.475
-31.45
-31.425
-31.4
-31.375
-31.35
-31.325
-31.3
-31.275
-31.25
-31.225
-31.2
-31.175
-31.15
-31.125
-31.1
-31.075
-31.05
-31.025
-31
-30.975
-30.95
-30.925
-30.9
-30.875
-30.85
-30.825
-30.8
-30.775
-30.75
-30.725
-30.7
-30.675
-30.65
-30.625
-30.6
-30.575
-30.55
-30.525
-30.5
-30.475
-30.45
-30.425
-30.4
-30.375
-30.35
-30.325
-30.3
-30.275
-30.25
-30.225
-30.2
-30.175
-30.15
-30.125
-30.1
-30.075
-30.05
-30.025
-30
-29.975
-29.95
-29.925
-29.9
-29.875
-29.85
-29.825
-29.8
-29.775
-29.75
-29.725
-29.7
-29.675
-29.65
-29.625
-29.6
-29.575
-29.55
-29.525
-29.5
-29.475
-29.45
-29.425
-29.4
-29.375
-29.35
-29.325
-29.3
-29.275
-29.25
-29.225
-29.2
-29.175
-29.15
-29.125
-29.1
-29.075
-29.05
-29.025
-29
-28.975
-28.95
-28.925
-28.9
-28.875
-28.85
-28.825
-28.8
-28.775
-28.75
-28.725
-28.7
-28.675
-28.65
-28.625
-28.6
-28.575
-28.55
-28.525
-28.5
-28.475
-28.45
-28.425
-28.4
-28.375
-28.35
-28.325
-28.3
-28.275
-28.25
-28.225
-28.2
-28.175
-28.15
-28.125
-28.1
-28.075
-28.05
-28.025
-28
-27.975
-27.95
-27.925
-27.9
-27.875
-27.85
-27.825
-27.8
-27.775
-27.75
-27.725
-27.7
-27.675
-27.65
-27.625
-27.6
-27.575
-27.55
-27.525
-27.5
-27.475
-27.45
-27.425
-27.4
-27.375
-27.35
-27.325
-27.3
-27.275
-27.25
-27.225
-27.2
-27.175
-27.15
-27.125
-27.1
-27.075
-27.05
-27.025
-27
-26.975
-26.95
-26.925
-26.9
-26.875
-26.85
-26.825
-26.8
-26.775
-26.75
-26.725
-26.7
-26.675
-26.65
-26.625
-26.6
-26.575
-26.55
-26.525
-26.5
-26.475
-26.45
-26.425
-26.4
-26.375
-26.35
-26.325
-26.3
-26.275
-26.25
-26.225
-26.2
-26.175
-26.15
-26.125
-26.1
-26.075
-26.05
-26.025
-26
-25.975
-25.95
-25.925
-25.9
-25.875
-25.85
-25.825
-25.8
-25.775
-25.75
-25.725
-25.7
-25.675
-25.65
-25.625
-25.6
-25.575
-25.55
-25.525
-25.5
-25.475
-25.45
-25.425
-25.4
-25.375
-25.35
-25.325
-25.3
-25.275
-25.25
-25.225
-25.2
-25.175
-25.15
-25.125
-25.1
-25.075
-25.05
-25.025
-25
-24.975
-24.95
-24.925
-24.9
-24.875
-24.85
-24.825
-24.8
-24.775
-24.75
-24.725
-24.7
-24.675
-24.65
-24.625
-24.6
-24.575
-24.55
-24.525
-24.5
-24.475
-24.45
-24.425
-24.4
-24.375
-24.35
-24.325
-24.3
-24.275
-24.25
-24.225
-24.2
-24.175
-24.15
-24.125
-24.1
-24.075
-24.05
-24.025
-24
-23.975
-23.95
-23.925
-23.9
-23.875
-23.85
-23.825
-23.8
-23.775
-23.75
-23.725
-23.7
-23.675
-23.65
-23.625
-23.6
-23.575
-23.55
-23.525
-23.5
-23.475
-23.45
-23.425
-23.4
-23.375
-23.35
-23.325
-23.3
-23.275
-23.25
-23.225
-23.2
-23.175
-23.15
-23.125
-23.1
-23.075
-23.05
-23.025
-23
-22.975
-22.95
-22.925
-22.9
-22.875
-22.85
-22.825
-22.8
-22.775
-22.75
-22.725
-22.7
-22.675
-22.65
-22.625
-22.6
-22.575
-22.55
-22.525
-22.5
-22.475
-22.45
-22.425
-22.4
-22.375
-22.35
-22.325
-22.3
-22.275
-22.25
-22.225
-22.2
-22.175
-22.15
-22.125
-22.1
-22.075
-22.05
-22.025
-22
-21.975
-21.95
-21.925
-21.9
-21.875
-21.85
-21.825
-21.8
-21.775
-21.75
-21.725
-21.7
-21.675
-21.65
-21.625
-21.6
-21.575
-21.55
-21.525
-21.5
-21.475
-21.45
-21.425
-21.4
-21.375
-21.35
-21.325
-21.3
-21.275
-21.25
-21.225
-21.2
-21.175
-21.15
-21.125
-21.1
-21.075
-21.05
-21.025
-21
-20.975
-20.95
-20.925
-20.9
-20.875
-20.85
-20.825
-20.8
-20.775
-20.75
-20.725
-20.7
-20.675
-20.65
-20.625
-20.6
-20.575
-20.55
-20.525
-20.5
-20.475
-20.45
-20.425
-20.4
-20.375
-20.35
-20.325
-20.3
-20.275
-20.25
-20.225
-20.2
-20.175
-20.15
-20.125
-20.1
-20.075
-20.05
-20.025
-20
VAR_LIST_END
BEGIN
-15.326628,-160.85381
-15.313887,-158.2052
-15.155132,-157.44807
-15.229874,-159.38914
-15.083231,-159.27525
-15.052252,-160.20203
-14.79448,-161.80118
-14.820304,-159.01053
-14.885276,-160.42331
-15.252491,-158.53059
-15.251709,-159.42982
-15.124064,-157.73814
-15.344743,-157.93167
-15.147838,-159.54485
-15.267937,-158.91693
-14.979349,-161.24165
-14.922708,-158.79346
-14.934064,-158.76109
-14.837483,-158.79634
-15.150634,-159.07315
-15.255561,-157.23097
-14.994925,-159.49702
-15.438011,-158.75478
-15.029892,-159.91255
-15.254381,-159.76955
-14.965915,-157.63812
-15.260732,-157.58305
-14.568724,-158.86826
-15.102675,-159.0463
-15.422719,-159.99205
-14.917413,-157.34946
-15.201838,-157.66791
-15.074522,-159.50465
-14.945963,-159.24529
-14.899808,-158.70525
-15.183581,-162.65558
-15.457924,-158.51302
-14.894551,-156.81673
-14.762491,-158.18927
-15.5422,-159.12062
-15.025081,-158.17345
-15.257444,-158.93413
-15.172087,-161.00449
-14.892131,-157.60449
-15.207254,-161.3371
-14.994784,-158.64938
-15.051656,-159.43265
-14.906748,-160.1772
-15.253198,-157.13988
-14.81154,-160.46272
-15.441949,-160.00154
-14.922558,-159.72842
-15.162071,-159.58737
-14.809301,-157.04546
-14.93027,-159.68211
-15.252061,-157.5735
-14.914199,-159.09007
-15.375249,-160.00417
-15.022967,-159.65326
-15.081262,-156.62083
-15.156457,-158.94785
-14.901079,-158.13313
-15.174406,-157.25063
-14.711768,-158.34087
-15.063597,-157.12285
-14.762316,-160.1228
-15.245528,-160.23708
-15.020387,-159.5929
-14.848287,-156.04173
-14.81175,-159.44838
-14.98143,-159.72385
-15.16656,-160.43126
-15.104383,-157.64236
-14.88205,-157.48181
-15.147563,-160.51773
-15.020654,-159.62886
-15.076979,-158.95003
-15.152486,-159.64816
-15.209458,-159.65309
-15.065819,-159.53012
-15.000251,-162.49335
-14.851975,-158.71159
-15.029471,-158.98901
-15.186213,-160.23375
-15.270123,-160.80086
-14.766049,-157.18266
-14.976122,-158.11382
-14.624334,-160.24979
-15.079934,-159.85277
-15.31858,-159.22314
-14.693017,-159.00322
-14.847095,-158.42784
-15.244129,-157.30743
-15.076688,-159.09114
-15.007853,-159.83206
-14.82373,-157.70015
-14.881247,-160.18471
-15.209173,-159.10547
-15.228256,-158.89172
-15.219386,-157.29361
-14.952714,-160.0108
-15.208468,-159.57922
-15.306676,-161.14925
-14.882975,-157.90277
-14.709761,-158.97926
-14.823757,-158.91112
-15.308006,-157.46402
-14.860667,-157.87021
-15.327362,-159.17621
-15.022677,-158.39352
-15.183989,-161.02458
-15.145145,-160.36394
-15.198479,-159.57814
-15.173854,-159.15935
-14.951366,-159.61099
-15.174216,-159.52577
-14.902283,-160.95313
-14.864692,-160.28409
-15.069772,-158.51236
-15.150541,-159.41446
-14.909025,-158.40402
-14.929995,-156.7995
-15.270695,-158.32413
-15.018413,-158.67178
-14.965631,-155.97728
-15.061173,-157.20117
-15.016301,-158.6622
-15.016941,-158.86043
-15.154466,-158.87041
-15.16003,-160.77739
-15.116858,-159.01009
-15.03257,-157.62062
-15.131429,-158.87814
-15.103801,-159.15712
-15.137569,-160.70206
-15.110727,-159.6422
-15.463194,-157.17142
-15.159427,-160.12071
-15.086488,-158.41762
-15.065876,-157.46573
-15.519061,-160.16396
-15.078726,-158.8246
-14.972628,-158.74879
-15.145663,-161.07457
-15.327009,-158.97453
-14.646286,-158.93797
-15.388549,-160.17969
-15.135887,-160.39415
-15.268599,-159.39357
-15.172613,-159.41446
-15.100634,-159.25858
-15.207116,-157.0665
-15.17253,-159.76724
-15.228939,-158.52374
-15.174021,-156.91618
-15.519388,-158.70218
-15.007454,-161.36308
-15.028255,-158.2879
-15.237746,-160.53932
-15.119907,-158.56427
-14.895761,-158.46274
-14.967454,-159.43225
-15.171589,-160.59723
-15.082734,-159.48924
-14.73959,-160.97781
-15.01013,-156.5786
-15.102625,-158.61301
-15.288485,-158.78828
-14.898563,-158.23849
-15.054541,-158.9782
-15.143703,-159.29985
-15.088085,-160.58337
-14.807776,-158.32076
-15.238862,-157.65804
-15.26405,-159.81725
-15.01975,-158.03822
-15.055058,-158.28169
-15.026404,-159.54025
-14.89556,-159.87033
-15.240146,-158.17302
-15.249969,-158.39105
-14.933186,-159.16928
-14.934837,-158.66187
-15.095161,-158.16109
-15.188268,-159.57121
-15.017194,-160.127
-14.923454,-156.84509
-14.989126,-158.68059
-14.984371,-158.59148
-14.893258,-158.8318
-15.528864,-159.48985
-14.719482,-159.64774
-15.214952,-159.99887
-15.180533,-157.79861
-15.138577,-159.39432
-15.169385,-159.18968
-15.300737,-160.26443
-15.11692,-158.1595
-14.938148,-157.50931
-15.067484,-159.12762
-15.117578,-158.46162
-15.079168,-158.15173
-15.051766,-160.45201
-14.984472,-159.257
-14.966496,-159.15775
-15.024586,-159.89001
-14.793674,-159.91136
-15.081871,-157.97458
-15.171553,-159.13676
-15.087883,-159.20384
-15.264514,-156.24451
-15.15922,-157.05965
-15.084122,-160.0849
-14.946763,-159.58572
-15.20484,-159.13954
-15.022532,-158.4996
-15.246411,-158.61824
-15.005894,-158.70897
-15.068444,-159.51767
-15.053745,-159.97095
-14.956946,-158.27533
-15.073976,-158.1225
-14.971526,-161.05884
-14.916896,-158.71307
-14.916683,-158.29736
-14.979721,-158.11728
-14.989513,-160.2177
-14.911333,-157.83496
-14.875201,-160.22694
-15.159504,-158.43198
-14.881996,-158.86197
-15.127709,-158.10555
-15.199836,-158.41431
-14.883683,-158.82175
-14.872192,-157.37973
-15.086838,-161.04839
-15.171031,-159.35266
-14.917047,-159.43675
-15.124751,-157.59494
-15.16445,-158.50948
-15.038074,-158.28261
-15.224326,-160.24846
-15.076195,-159.87355
-15.148991,-158.50859
-15.097167,-160.50891
-15.294893,-160.05379
-14.800109,-159.73476
-15.0557,-160.39961
-15.13983,-159.77586
-15.154011,-158.25555
-14.821033,-158.73412
-15.31553,-159.19823
-14.867606,-159.31448
-15.059537,-159.17627
-15.136227,-158.52397
-14.96646,-160.26529
-14.674041,-158.31178
-15.161517,-159.56168
-15.076674,-159.44528
-14.783433,-158.97568
-15.007874,-158.88808
-15.118155,-159.32173
-15.06638,-157.70909
-14.77392,-158.7115
-15.079076,-160.0141
-15.043568,-159.35245
-14.979019,-158.90254
-15.205317,-158.69405
-15.124839,-159.08701
-15.009769,-158.82472
-14.934361,-157.8356
-15.117633,-158.47925
-15.065202,-159.84891
-15.056984,-158.18849
-15.091526,-159.98189
-14.930363,-159.6933
-15.174821,-157.99313
-15.192238,-159.31639
-15.238307,-158.63687
-14.975775,-159.88725
-15.02027,-158.48509
-14.989346,-158.30878
-15.061661,-158.22015
-14.913342,-157.79883
-15.208308,-159.49307
-15.027365,-158.90245
-14.977223,-157.97462
-15.054466,-158.31673
-15.150674,-158.04077
-15.18699,-159.39589
-15.20056,-158.78236
-15.062813,-159.37462
-14.782592,-159.90131
-15.09215,-158.9063
-15.021005,-159.46407
-15.068193,-160.33011
-15.162921,-159.65134
-15.233008,-158.37573
-14.92361,-158.22729
-14.956296,-159.39696
-15.103639,-159.81253
-15.348918,-160.86581
-15.035624,-159.37776
-15.076128,-158.5378
-15.046135,-159.38155
-15.041288,-159.27101
-14.976314,-158.84943
-15.178694,-158.07033
-15.169203,-158.98949
-15.023133,-160.60814
-14.841901,-159.55862
-14.900508,-158.70753
-15.026653,-158.86267
-15.013906,-159.68207
-15.051549,-160.39381
-14.775959,-159.27864
-15.053664,-159.95416
-14.921904,-158.36737
-14.957882,-159.15802
-15.006967,-158.72182
-15.002111,-159.45511
-15.137756,-159.41066
-15.270157,-159.43816
-15.008299,-158.96606
-14.857399,-158.8354
-14.972122,-158.68359
-14.878279,-160.67622
-14.959064,-158.14192
-15.052888,-158.82013
-15.113889,-158.53426
-15.143967,-159.16812
-15.333628,-159.23233
-15.174129,-158.345
-15.128262,-158.70937
-14.995795,-160.22592
-15.106662,-159.05452
-14.923154,-158.59842
-14.976047,-158.01125
-14.928979,-158.99414
-15.147289,-159.5078
-15.211588,-159.55246
-14.898003,-158.17384
-15.168324,-158.86055
-15.075152,-158.67223
-15.006748,-158.94533
-15.047846,-159.14661
-14.917435,-158.55661
-15.022489,-159.37431
-15.06916,-160.00708
-15.150972,-158.3553
-15.143431,-158.01552
-15.073634,-159.79202
-15.02803,-160.04105
-15.167588,-159.39566
-15.065828,-158.56325
-15.102708,-159.16377
-15.125768,-158.63007
-15.142751,-159.00267
-15.056885,-159.46016
-15.077802,-159.69797
-14.932067,-158.65517
-15.151814,-159.53448
-15.049585,-158.80656
-15.113636,-158.80057
-15.119708,-159.44585
-15.013747,-159.5426
-14.963027,-158.22891
-15.058478,-158.41866
-15.007508,-158.23383
-15.193176,-158.22209
-14.884136,-159.30655
-14.906269,-158.45364
-14.999419,-158.8526
-15.010574,-158.55968
-15.191714,-158.8494
-15.090123,-159.39073
-14.971282,-159.16328
-14.980408,-158.40474
-14.922969,-159.1024
-15.015735,-159.46548
-15.013119,-158.88951
-14.972956,-158.94432
-15.052703,-157.83768
-15.116592,-159.53912
-15.089074,-158.5121
-15.089838,-158.99997
-15.00561,-158.39276
-15.052827,-159.62851
-14.963601,-158.82716
-15.24217,-159.77655
-15.000793,-158.42439
-15.1398,-159.25084
-14.980484,-159.32077
-14.956691,-159.11136
-14.971661,-159.0601
-15.175461,-159.45964
-15.107306,-158.50047
-14.943268,-158.93692
-14.928231,-159.26894
-15.062215,-159.27905
-15.143234,-158.97649
-15.16503,-160.13443
-15.1943,-158.28252
-14.954789,-158.96649
-14.879405,-158.92607
-14.842237,-158.763
-15.074183,-159.29105
-15.11066,-159.54437
-15.0741,-159.93027
-15.089095,-158.3138
-15.013394,-159.86017
-14.998094,-158.97055
-15.004077,-159.27281
-15.121202,-158.25128
-15.11602,-158.90977
-15.104698,-159.00034
-15.164103,-158.54305
-14.93995,-157.87163
-15.107574,-158.62396
-14.981332,-158.53603
-15.139699,-158.58749
-15.140557,-158.83104
-15.063076,-159.05875
-14.976452,-159.05377
-15.096279,-158.95549
-14.970936,-159.24844
-15.015148,-159.23871
-15.001143,-158.39072
-15.021063,-159.34261
-15.040235,-157.46043
-15.153843,-159.96927
-15.113289,-158.81644
-15.055277,-158.1104
-15.107118,-159.47673
-15.106565,-159.59004
-15.038387,-158.1003
-14.973703,-159.39003
-14.944704,-159.41891
-15.057043,-157.77859
-15.021824,-158.96339
-15.022912,-158.74669
-15.116058,-159.65524
-14.998606,-158.95688
-15.042219,-158.85329
-15.10834,-159.0453
-15.048007,-158.60979
-15.146315,-158.03488
-15.044757,-158.14398
-15.039951,-158.83081
-15.123454,-159.67633
-15.02634,-159.00017
-14.93135,-158.63443
-15.025699,-159.23486
-14.952013,-159.00217
-15.022983,-159.6019
-14.98423,-159.37845
-14.923991,-159.88739
-15.153011,-158.30699
-15.006683,-159.41394
-14.979511,-159.65512
-15.029703,-159.03981
-15.040096,-158.73105
-15.090864,-159.14938
-15.090186,-158.92789
-14.932886,-158.49248
-15.148207,-159.03165
-14.968626,-159.10303
-15.046028,-160.21785
-15.028924,-158.50288
-15.06864,-159.3672
-15.047647,-159.2729
-15.032864,-159.04315
-15.006046,-158.96893
-15.126051,-159.41035
-15.016377,-158.94376
-15.024502,-158.51814
-14.910082,-159.26323
-15.114264,-159.37579
-15.029001,-158.6877
-14.948718,-159.16075
-14.947248,-159.55833
-15.03265,-159.28854
-15.153755,-159.50877
-15.06175,-158.78004
-15.207177,-159.26591
-15.089949,-159.01057
-15.030788,-159.19087
-15.049035,-159.06078
-14.969337,-159.37154
-14.904311,-158.24567
-15.153142,-158.90489
-14.983747,-158.37614
-14.973975,-158.74338
-15.082921,-159.42453
-14.977638,-159.04382
-15.004154,-159.33653
-15.074545,-158.35002
-14.977585,-157.78195
-15.046532,-158.60315
-14.987053,-158.25011
-15.068101,-158.21077
-15.002842,-158.80484
-15.106593,-159.30722
-15.018067,-159.18694
-15.06351,-159.25912
-15.006618,-159.17067
-14.993208,-158.59688
-14.972939,-158.55048
-15.101912,-158.55737
-15.044826,-159.3394
-15.133725,-159.29829
-15.009019,-158.86203
-15.154662,-159.49045
-14.93969,-159.20067
-14.882189,-159.21609
-14.891045,-158.75838
-15.022129,-159.1339
-15.009121,-158.6803
-14.951576,-159.14462
-15.089173,-158.74011
-14.986984,-159.2061
-14.981094,-158.87294
-15.033062,-158.10519
-15.065341,-159.54355
-15.055301,-158.27997
-15.113803,-159.97258
-15.101851,-159.73805
-15.064536,-158.64656
-15.011134,-158.47026
-14.987031,-159.02234
-15.074804,-158.71082
-15.07926,-159.08607
-15.095175,-158.73495
-15.007637,-158.8177
-15.109502,-158.72583
-14.978407,-158.69493
-15.042078,-158.53888
-15.056229,-159.22227
-15.087687,-158.86699
-15.02855,-158.81744
-15.136862,-159.04066
-15.06623,-158.5914
-15.130009,-158.75797
-15.047556,-158.94666
-15.080004,-159.16881
-15.186639,-158.56401
-15.104883,-158.60744
-14.984544,-159.06276
-14.988833,-158.68576
-15.046104,-158.92529
-15.145294,-158.90091
-14.991616,-158.98457
-15.002638,-158.52243
-15.028781,-158.85945
-14.960559,-158.14519
-15.130816,-159.50516
-15.03688,-158.47765
-15.047374,-159.32689
-15.046533,-159.08057
-15.083737,-158.92465
-15.072693,-158.75969
-14.992311,-158.23077
-15.030646,-159.21826
-15.108015,-159.44945
-15.070946,-158.89716
-15.013707,-159.27258
-15.089619,-159.14583
-15.085125,-158.80986
-15.123986,-158.7762
-15.061383,-158.69475
-15.078533,-159.33083
-15.016006,-158.94402
-15.069159,-159.1796
-15.092472,-159.45146
-14.997133,-158.5938
-14.961541,-159.13522
