CITIFILE A.01.01
!Agilent Technologies,N5230C,MY48100142,A.08.04.10
!Agilent N5230C: A.08.04.10
!Format: LogMag/Angle
!Date: Monday, August 03, 2020 10:13:12
NAME CH1_DATA
VAR Power MAG 801
DATA S11 DBANGLE
DATA S21 DBANGLE
DATA S12 DBANGLE
DATA S22 DBANGLE
VAR_LIST_BEGIN
-40
-39.975
-39.95
-39.925
-39.9
-39.875
-39.85
-39.825
-39.8
-39.775
-39.75
-39.725
-39.7
-39.675
-39.65
-39.625
-39.6
-39.575
-39.55
-39.525
-39.5
-39.475
-39.45
-39.425
-39.4
-39.375
-39.35
-39.325
-39.3
-39.275
-39.25
-39.225
-39.2
-39.175
-39.15
-39.125
-39.1
-39.075
-39.05
-39.025
-39
-38.975
-38.95
-38.925
-38.9
-38.875
-38.85
-38.825
-38.8
-38.775
-38.75
-38.725
-38.7
-38.675
-38.65
-38.625
-38.6
-38.575
-38.55
-38.525
-38.5
-38.475
-38.45
-38.425
-38.4
-38.375
-38.35
-38.325
-38.3
-38.275
-38.25
-38.225
-38.2
-38.175
-38.15
-38.125
-38.1
-38.075
-38.05
-38.025
-38
-37.975
-37.95
-37.925
-37.9
-37.875
-37.85
-37.825
-37.8
-37.775
-37.75
-37.725
-37.7
-37.675
-37.65
-37.625
-37.6
-37.575
-37.55
-37.525
-37.5
-37.475
-37.45
-37.425
-37.4
-37.375
-37.35
-37.325
-37.3
-37.275
-37.25
-37.225
-37.2
-37.175
-37.15
-37.125
-37.1
-37.075
-37.05
-37.025
-37
-36.975
-36.95
-36.925
-36.9
-36.875
-36.85
-36.825
-36.8
-36.775
-36.75
-36.725
-36.7
-36.675
-36.65
-36.625
-36.6
-36.575
-36.55
-36.525
-36.5
-36.475
-36.45
-36.425
-36.4
-36.375
-36.35
-36.325
-36.3
-36.275
-36.25
-36.225
-36.2
-36.175
-36.15
-36.125
-36.1
-36.075
-36.05
-36.025
-36
-35.975
-35.95
-35.925
-35.9
-35.875
-35.85
-35.825
-35.8
-35.775
-35.75
-35.725
-35.7
-35.675
-35.65
-35.625
-35.6
-35.575
-35.55
-35.525
-35.5
-35.475
-35.45
-35.425
-35.4
-35.375
-35.35
-35.325
-35.3
-35.275
-35.25
-35.225
-35.2
-35.175
-35.15
-35.125
-35.1
-35.075
-35.05
-35.025
-35
-34.975
-34.95
-34.925
-34.9
-34.875
-34.85
-34.825
-34.8
-34.775
-34.75
-34.725
-34.7
-34.675
-34.65
-34.625
-34.6
-34.575
-34.55
-34.525
-34.5
-34.475
-34.45
-34.425
-34.4
-34.375
-34.35
-34.325
-34.3
-34.275
-34.25
-34.225
-34.2
-34.175
-34.15
-34.125
-34.1
-34.075
-34.05
-34.025
-34
-33.975
-33.95
-33.925
-33.9
-33.875
-33.85
-33.825
-33.8
-33.775
-33.75
-33.725
-33.7
-33.675
-33.65
-33.625
-33.6
-33.575
-33.55
-33.525
-33.5
-33.475
-33.45
-33.425
-33.4
-33.375
-33.35
-33.325
-33.3
-33.275
-33.25
-33.225
-33.2
-33.175
-33.15
-33.125
-33.1
-33.075
-33.05
-33.025
-33
-32.975
-32.95
-32.925
-32.9
-32.875
-32.85
-32.825
-32.8
-32.775
-32.75
-32.725
-32.7
-32.675
-32.65
-32.625
-32.6
-32.575
-32.55
-32.525
-32.5
-32.475
-32.45
-32.425
-32.4
-32.375
-32.35
-32.325
-32.3
-32.275
-32.25
-32.225
-32.2
-32.175
-32.15
-32.125
-32.1
-32.075
-32.05
-32.025
-32
-31.975
-31.95
-31.925
-31.9
-31.875
-31.85
-31.825
-31.8
-31.775
-31.75
-31.725
-31.7
-31.675
-31.65
-31.625
-31.6
-31.575
-31.55
-31.525
-31.5
-31.475
-31.45
-31.425
-31.4
-31.375
-31.35
-31.325
-31.3
-31.275
-31.25
-31.225
-31.2
-31.175
-31.15
-31.125
-31.1
-31.075
-31.05
-31.025
-31
-30.975
-30.95
-30.925
-30.9
-30.875
-30.85
-30.825
-30.8
-30.775
-30.75
-30.725
-30.7
-30.675
-30.65
-30.625
-30.6
-30.575
-30.55
-30.525
-30.5
-30.475
-30.45
-30.425
-30.4
-30.375
-30.35
-30.325
-30.3
-30.275
-30.25
-30.225
-30.2
-30.175
-30.15
-30.125
-30.1
-30.075
-30.05
-30.025
-30
-29.975
-29.95
-29.925
-29.9
-29.875
-29.85
-29.825
-29.8
-29.775
-29.75
-29.725
-29.7
-29.675
-29.65
-29.625
-29.6
-29.575
-29.55
-29.525
-29.5
-29.475
-29.45
-29.425
-29.4
-29.375
-29.35
-29.325
-29.3
-29.275
-29.25
-29.225
-29.2
-29.175
-29.15
-29.125
-29.1
-29.075
-29.05
-29.025
-29
-28.975
-28.95
-28.925
-28.9
-28.875
-28.85
-28.825
-28.8
-28.775
-28.75
-28.725
-28.7
-28.675
-28.65
-28.625
-28.6
-28.575
-28.55
-28.525
-28.5
-28.475
-28.45
-28.425
-28.4
-28.375
-28.35
-28.325
-28.3
-28.275
-28.25
-28.225
-28.2
-28.175
-28.15
-28.125
-28.1
-28.075
-28.05
-28.025
-28
-27.975
-27.95
-27.925
-27.9
-27.875
-27.85
-27.825
-27.8
-27.775
-27.75
-27.725
-27.7
-27.675
-27.65
-27.625
-27.6
-27.575
-27.55
-27.525
-27.5
-27.475
-27.45
-27.425
-27.4
-27.375
-27.35
-27.325
-27.3
-27.275
-27.25
-27.225
-27.2
-27.175
-27.15
-27.125
-27.1
-27.075
-27.05
-27.025
-27
-26.975
-26.95
-26.925
-26.9
-26.875
-26.85
-26.825
-26.8
-26.775
-26.75
-26.725
-26.7
-26.675
-26.65
-26.625
-26.6
-26.575
-26.55
-26.525
-26.5
-26.475
-26.45
-26.425
-26.4
-26.375
-26.35
-26.325
-26.3
-26.275
-26.25
-26.225
-26.2
-26.175
-26.15
-26.125
-26.1
-26.075
-26.05
-26.025
-26
-25.975
-25.95
-25.925
-25.9
-25.875
-25.85
-25.825
-25.8
-25.775
-25.75
-25.725
-25.7
-25.675
-25.65
-25.625
-25.6
-25.575
-25.55
-25.525
-25.5
-25.475
-25.45
-25.425
-25.4
-25.375
-25.35
-25.325
-25.3
-25.275
-25.25
-25.225
-25.2
-25.175
-25.15
-25.125
-25.1
-25.075
-25.05
-25.025
-25
-24.975
-24.95
-24.925
-24.9
-24.875
-24.85
-24.825
-24.8
-24.775
-24.75
-24.725
-24.7
-24.675
-24.65
-24.625
-24.6
-24.575
-24.55
-24.525
-24.5
-24.475
-24.45
-24.425
-24.4
-24.375
-24.35
-24.325
-24.3
-24.275
-24.25
-24.225
-24.2
-24.175
-24.15
-24.125
-24.1
-24.075
-24.05
-24.025
-24
-23.975
-23.95
-23.925
-23.9
-23.875
-23.85
-23.825
-23.8
-23.775
-23.75
-23.725
-23.7
-23.675
-23.65
-23.625
-23.6
-23.575
-23.55
-23.525
-23.5
-23.475
-23.45
-23.425
-23.4
-23.375
-23.35
-23.325
-23.3
-23.275
-23.25
-23.225
-23.2
-23.175
-23.15
-23.125
-23.1
-23.075
-23.05
-23.025
-23
-22.975
-22.95
-22.925
-22.9
-22.875
-22.85
-22.825
-22.8
-22.775
-22.75
-22.725
-22.7
-22.675
-22.65
-22.625
-22.6
-22.575
-22.55
-22.525
-22.5
-22.475
-22.45
-22.425
-22.4
-22.375
-22.35
-22.325
-22.3
-22.275
-22.25
-22.225
-22.2
-22.175
-22.15
-22.125
-22.1
-22.075
-22.05
-22.025
-22
-21.975
-21.95
-21.925
-21.9
-21.875
-21.85
-21.825
-21.8
-21.775
-21.75
-21.725
-21.7
-21.675
-21.65
-21.625
-21.6
-21.575
-21.55
-21.525
-21.5
-21.475
-21.45
-21.425
-21.4
-21.375
-21.35
-21.325
-21.3
-21.275
-21.25
-21.225
-21.2
-21.175
-21.15
-21.125
-21.1
-21.075
-21.05
-21.025
-21
-20.975
-20.95
-20.925
-20.9
-20.875
-20.85
-20.825
-20.8
-20.775
-20.75
-20.725
-20.7
-20.675
-20.65
-20.625
-20.6
-20.575
-20.55
-20.525
-20.5
-20.475
-20.45
-20.425
-20.4
-20.375
-20.35
-20.325
-20.3
-20.275
-20.25
-20.225
-20.2
-20.175
-20.15
-20.125
-20.1
-20.075
-20.05
-20.025
-20
VAR_LIST_END
BEGIN
-15.606413,-161.50526
-15.356952,-159.26678
-15.634193,-161.75613
-15.206119,-157.72087
-15.477612,-160.06027
-15.280842,-160.64163
-15.047194,-159.32724
-14.871131,-162.85941
-15.05269,-156.59886
-15.377501,-162.40825
-15.043697,-159.96017
-14.538135,-160.5309
-15.45774,-159.90948
-15.444492,-158.53462
-15.056143,-157.52898
-14.084188,-160.13493
-15.127973,-156.5574
-16.069801,-155.70004
-15.276671,-160.89621
-15.27706,-162.9792
-15.36367,-159.35631
-14.707356,-159.38449
-15.705291,-157.48474
-15.448493,-160.31714
-15.568051,-159.32982
-15.703848,-160.09746
-15.453155,-159.17612
-14.493573,-158.98155
-15.132299,-159.30757
-15.424586,-160.1265
-15.407216,-157.07701
-15.065448,-160.01888
-15.143132,-162.35233
-15.142598,-156.72896
-15.357108,-157.94281
-15.291218,-159.00783
-15.480991,-156.22617
-14.74623,-161.42415
-15.199715,-161.08479
-15.10431,-162.69086
-14.9596,-159.88585
-15.249375,-156.53641
-14.650404,-162.48067
-14.897735,-157.74786
-14.596019,-158.93217
-15.025331,-165.11539
-14.976057,-156.87198
-15.393729,-160.01254
-15.46069,-162.68463
-14.733552,-154.79382
-14.59661,-159.99596
-14.879427,-159.22301
-15.344402,-157.15976
-15.130714,-158.89388
-15.101492,-160.99283
-15.507174,-162.80779
-15.590175,-160.06921
-15.566276,-154.18306
-15.47405,-157.56511
-14.95724,-163.72264
-15.666642,-163.58496
-15.193078,-159.84219
-15.009167,-154.95367
-15.387831,-163.67387
-15.067063,-163.45097
-15.411747,-162.66684
-15.150286,-158.74086
-15.295351,-160.17581
-14.764626,-161.2767
-15.048152,-160.2937
-15.348509,-154.44727
-14.935013,-159.72533
-15.261817,-159.11646
-15.291357,-159.69411
-15.223686,-161.5482
-15.312733,-158.22578
-15.399023,-163.56557
-15.371028,-159.20589
-14.883922,-154.47826
-15.39075,-160.84789
-15.356496,-163.12587
-14.837354,-157.66637
-15.471201,-156.97261
-14.920261,-160.85936
-15.211858,-162.54187
-14.888306,-159.18845
-15.373674,-159.88278
-15.910269,-161.8345
-15.719793,-156.82518
-15.203614,-161.66818
-15.327291,-158.29646
-15.115965,-159.64363
-15.097104,-159.79166
-15.105073,-154.87355
-15.691745,-162.9288
-15.257642,-158.24532
-14.916201,-162.48898
-14.788816,-159.71141
-14.861481,-160.83441
-15.079762,-159.64499
-14.796023,-161.17807
-15.580485,-161.43938
-15.339615,-161.00612
-15.030526,-159.90422
-15.068843,-161.73225
-15.131404,-161.26131
-15.179082,-158.74208
-15.576646,-163.05289
-14.882592,-160.6949
-15.515626,-159.71971
-15.55157,-157.77762
-15.385802,-162.32228
-15.697861,-159.54803
-14.791599,-160.66078
-15.45828,-160.78281
-15.544432,-158.88521
-14.867784,-159.71329
-14.792906,-161.72102
-15.037316,-157.73071
-14.786848,-159.23145
-15.268313,-157.99763
-14.860941,-163.93777
-15.068543,-155.7798
-14.962625,-161.52301
-15.240238,-159.85106
-15.197554,-157.52921
-15.424107,-157.62732
-14.975197,-158.26945
-15.409395,-159.85847
-15.446074,-160.6772
-15.282165,-161.29369
-15.045714,-160.27258
-14.834453,-161.3943
-14.980373,-159.73161
-15.079641,-160.7428
-14.96016,-158.39488
-14.885222,-162.95227
-14.802165,-158.96211
-15.357691,-158.91084
-15.140186,-159.64442
-15.048433,-158.10493
-15.004375,-159.52904
-14.925781,-160.23074
-15.2602,-162.8082
-15.658073,-162.26048
-15.386191,-159.98268
-14.716344,-158.58919
-15.1141,-159.11436
-14.910184,-162.96951
-15.254968,-162.98227
-15.42529,-160.73688
-14.767098,-162.94151
-15.531648,-162.58121
-14.818983,-163.66309
-15.057391,-161.84502
-15.295894,-161.02579
-14.932886,-161.67009
-15.476525,-158.70695
-14.936706,-162.32458
-15.047745,-159.31425
-14.96951,-162.17114
-15.511106,-163.01874
-15.051788,-159.29984
-14.645064,-159.80693
-14.930975,-159.11867
-14.554173,-159.81964
-15.094275,-164.1615
-15.032191,-159.14447
-14.588929,-160.98653
-14.808261,-164.22357
-14.983964,-162.00272
-15.685731,-156.73334
-14.98593,-160.45831
-15.236895,-161.10951
-14.867681,-159.04767
-14.814302,-158.19849
-14.932848,-156.72075
-14.960712,-160.25745
-14.940014,-158.46935
-15.405937,-160.75812
-15.114856,-157.69722
-14.9051,-160.04764
-15.549347,-160.99963
-15.062728,-164.41606
-14.930978,-159.50415
-15.267807,-157.30394
-14.997462,-160.54773
-15.43583,-161.33295
-15.216397,-162.67151
-15.091208,-160.36501
-15.129474,-161.60674
-15.300597,-158.40062
-15.727761,-162.53085
-15.4751,-159.76105
-14.951981,-158.89587
-14.902152,-160.22011
-15.611773,-158.22025
-15.455706,-159.95168
-14.956834,-161.28484
-15.15498,-156.81242
-15.399236,-159.26355
-14.964497,-160.52257
-15.037377,-160.76422
-15.086842,-157.53722
-15.17556,-158.01976
-15.029922,-161.09142
-14.980456,-160.13397
-15.041697,-159.01315
-15.180905,-160.17282
-15.300214,-159.51633
-15.411698,-159.57924
-14.877735,-158.04256
-15.23834,-163.29533
-14.897491,-159.28748
-15.162102,-162.59334
-14.811411,-159.75751
-14.876109,-161.44164
-15.100564,-158.14688
-14.785545,-159.11897
-14.826962,-159.87955
-15.501141,-160.21921
-15.176038,-161.4978
-15.218987,-157.88342
-15.490412,-160.7336
-14.863684,-157.3158
-14.828623,-158.41888
-14.93678,-157.65887
-15.022943,-157.58961
-14.994968,-159.69653
-15.194779,-161.72308
-14.840063,-161.44174
-15.466523,-160.12515
-14.650935,-161.03687
-14.995878,-162.72838
-14.968821,-162.26868
-15.106632,-161.98051
-15.291492,-161.71584
-14.983021,-161.20628
-15.282968,-159.68826
-15.098611,-161.03806
-15.049445,-158.09575
-14.907701,-160.2135
-15.429902,-160.39366
-15.042085,-159.71666
-15.087572,-160.03017
-14.837878,-160.07071
-15.245536,-161.95268
-15.238818,-160.50467
-14.937627,-160.13611
-15.24195,-159.37654
-14.766008,-160.77832
-15.319306,-159.69382
-15.257368,-160.10033
-14.690666,-160.08365
-15.072206,-158.29393
-14.85969,-160.10867
-15.150155,-161.27448
-15.121301,-161.00885
-15.321888,-161.71834
-15.256434,-161.05759
-14.955449,-160.0741
-15.060629,-161.59335
-15.10462,-160.83566
-14.901587,-159.79771
-15.285516,-162.27687
-14.878762,-160.89919
-15.189438,-161.30136
-15.102221,-156.58768
-15.283529,-159.91055
-15.059229,-162.85164
-15.223787,-159.15514
-14.999094,-160.57721
-15.335976,-159.66338
-15.14151,-159.73767
-15.173564,-158.17838
-15.06252,-160.60603
-15.400538,-161.81189
-14.90881,-161.16576
-14.985366,-159.87067
-15.159103,-160.92064
-14.949336,-161.55968
-15.137342,-160.06772
-15.040987,-159.91219
-15.209675,-159.06334
-14.902197,-159.40459
-14.667766,-160.44106
-14.950305,-162.96127
-15.006518,-160.28406
-15.032221,-159.8515
-15.186142,-159.65359
-15.031416,-158.51251
-15.203512,-161.1595
-14.853415,-159.60535
-15.237503,-158.20749
-15.399755,-161.11844
-14.911723,-160.68704
-15.138401,-158.05016
-15.138314,-160.24098
-15.078639,-159.74995
-15.168865,-158.0918
-15.077843,-160.39034
-15.117789,-161.2148
-15.053648,-160.2244
-15.265049,-159.19362
-15.356443,-160.34563
-14.864139,-159.42723
-15.341825,-158.73711
-15.231228,-160.52737
-15.224015,-158.75023
-15.18996,-160.39444
-15.066468,-161.89716
-14.925625,-162.6364
-14.971052,-160.80359
-15.043738,-159.96097
-15.154948,-161.18442
-15.3979,-157.60309
-14.916566,-162.05905
-15.029928,-160.2368
-15.052146,-159.77924
-14.726626,-161.15059
-15.042904,-160.40945
-15.314142,-160.49074
-14.929058,-159.75026
-15.316397,-160.42398
-15.122639,-160.1053
-15.190165,-160.41028
-15.190144,-158.60062
-15.166306,-159.68994
-15.143641,-158.77164
-15.229728,-160.60149
-15.171157,-159.82506
-15.264302,-159.24464
-15.341608,-160.91039
-15.109862,-160.53091
-15.021493,-160.32358
-15.305231,-159.53123
-14.954403,-160.04073
-15.340289,-161.56659
-15.012703,-159.19435
-15.396342,-160.02319
-15.090884,-159.43391
-14.986811,-160.28009
-15.108941,-158.78084
-14.996012,-159.96796
-14.98987,-160.33337
-15.142413,-161.51535
-15.417106,-162.14296
-15.059032,-160.55673
-15.285836,-160.373
-14.852356,-160.81433
-15.388266,-159.42923
-15.483406,-161.62019
-15.195877,-161.16208
-15.221122,-159.6601
-15.142622,-159.82462
-15.259946,-160.05554
-15.03871,-158.23952
-15.036718,-158.43546
-14.974479,-159.79976
-15.066424,-158.36902
-15.115168,-160.26364
-14.875093,-160.33147
-15.195221,-158.81662
-15.230066,-159.75084
-15.249729,-160.56624
-15.001598,-160.26555
-14.982152,-161.64653
-15.382502,-161.10989
-15.22441,-161.0309
-15.432326,-158.11406
-15.193239,-160.94817
-15.123358,-159.89363
-15.102389,-158.77888
-15.195762,-160.94214
-15.035864,-160.81743
-15.141251,-160.30547
-15.089805,-158.62634
-15.001885,-158.01939
-15.134388,-161.41428
-15.123276,-158.84492
-15.125411,-159.40483
-15.043604,-160.80376
-15.109718,-160.23845
-15.105803,-159.86732
-14.979817,-159.68134
-15.136939,-160.1946
-15.281182,-158.70599
-14.990275,-160.21027
-15.1322,-159.54688
-15.209356,-160.68611
-15.037278,-159.88872
-15.301126,-159.89384
-14.84793,-157.96104
-15.144516,-159.45143
-14.996685,-158.12897
-14.810048,-159.5873
-15.110865,-159.16728
-15.355943,-159.6833
-14.927245,-159.80415
-15.161742,-162.32477
-15.05642,-159.15454
-14.789453,-160.82605
-14.924988,-159.08302
-14.940506,-160.87373
-14.828944,-160.75786
-14.89397,-160.25662
-14.89327,-161.07329
-15.098985,-160.97055
-14.986651,-161.03276
-15.178687,-160.35361
-15.18903,-161.99249
-14.856013,-159.4305
-15.26449,-159.32304
-14.934582,-159.82405
-15.159802,-159.87288
-15.057966,-159.1821
-15.030437,-160.01535
-15.331972,-160.32643
-15.114622,-160.42595
-15.208323,-160.00699
-15.243552,-158.54713
-15.343645,-160.69301
-15.097428,-159.8643
-15.071133,-162.28122
-14.957513,-159.92978
-14.979692,-159.25095
-15.039281,-159.84178
-14.931662,-159.93835
-14.932879,-160.62801
-15.153778,-158.44162
-14.977975,-158.7468
-15.067494,-159.95959
-14.911393,-160.15663
-14.993636,-160.43404
-15.041977,-159.62247
-15.030246,-160.09038
-15.009751,-159.12662
-15.1335,-161.08345
-15.184788,-160.87817
-15.297732,-160.67459
-15.108237,-160.49818
-15.172257,-160.26581
-15.156692,-161.33226
-15.161223,-160.00371
-15.137927,-160.0612
-15.297768,-162.00734
-14.980163,-159.66789
-15.216846,-159.81755
-15.068686,-159.4268
-14.976902,-160.7972
-15.238473,-159.88791
-15.159812,-159.28525
-14.972173,-160.7028
-15.277585,-160.17947
-15.151867,-159.93452
-15.205051,-158.41043
-15.174966,-159.62839
-14.949374,-160.21649
-15.123341,-159.12135
-15.058619,-160.94217
-15.265261,-160.84949
-15.094537,-159.95599
-15.171261,-160.64677
-15.056471,-161.0293
-14.812982,-160.20766
-14.975961,-159.80896
-15.190502,-159.86072
-15.24942,-159.94505
-15.266389,-160.53281
-15.121085,-159.36415
-15.02343,-159.76935
-15.172473,-160.61014
-15.184193,-159.04025
-15.306893,-160.88329
-15.155124,-159.76904
-14.959336,-160.50537
-15.059419,-160.30362
-15.131195,-160.16985
-15.198135,-161.16795
-15.205848,-160.76057
-14.970513,-160.7076
-15.166835,-160.16882
-15.066122,-160.12465
-15.187957,-161.04147
-15.118898,-158.86087
-14.968793,-160.30597
-15.127038,-160.27924
-15.085084,-161.07353
-15.025924,-160.55661
-15.131869,-158.96432
-15.268943,-160.43858
-15.076447,-160.25107
-15.092677,-160.48695
-15.132134,-159.10115
-14.950502,-158.91376
-15.114242,-159.83658
-15.140462,-161.16011
-15.13037,-159.93832
-15.091157,-159.83359
-15.276962,-159.72441
-14.935726,-160.19669
-15.008501,-160.06769
-15.273387,-158.80641
-15.014387,-159.71297
-15.058303,-159.78818
-15.164294,-159.41029
-15.116501,-160.63358
-15.04639,-160.75528
-15.052107,-160.40352
-15.159389,-160.2812
-15.106555,-160.41772
-15.123943,-159.63521
-15.139566,-160.55641
-15.120462,-158.98528
-14.933039,-160.93872
-14.924395,-160.12109
-15.280004,-160.99525
-15.112035,-160.45532
-15.070102,-160.95175
-15.051432,-161.0862
-14.942404,-160.47662
-14.913594,-159.74277
-14.971402,-160.07437
-15.27851,-160.98468
-15.091786,-160.39159
-15.181952,-159.9837
-14.859944,-160.01541
-15.183465,-159.90936
-15.051722,-159.82922
-14.967579,-161.19374
-15.129223,-159.09444
-14.887707,-160.06271
-15.148859,-160.16565
-15.166694,-160.10007
-15.20785,-160.62683
-15.277688,-159.1382
-15.120071,-160.64233
-15.000799,-161.2397
-15.127747,-160.54509
-15.232865,-159.31755
-15.125396,-158.56711
-15.055019,-160.25473
-15.14641,-159.2666
-14.949899,-160.1669
-14.997495,-160.54135
-14.90386,-159.99814
-15.092914,-161.5764
-15.152714,-160.40822
-15.223601,-160.84641
-15.240974,-160.17166
-15.04255,-159.80507
-15.185835,-159.90825
-15.062182,-159.24886
-15.040532,-160.63907
-15.204569,-160.41286
-15.209561,-161.14374
-14.998239,-159.70305
-15.122246,-159.70442
-15.01913,-160.55858
-15.043307,-160.5258
-15.041562,-160.11974
-15.068475,-159.7662
-15.050014,-159.84068
-15.047161,-160.23849
-14.827719,-161.10428
-15.060172,-159.42302
-15.172538,-160.21379
-15.155255,-160.64662
-15.09407,-159.46329
-15.26058,-160.75516
-14.953603,-160.22981
-15.096638,-159.66971
-15.007607,-161.33087
-15.160759,-160.68739
-15.00251,-159.78696
-15.148647,-159.85852
