CITIFILE A.01.01
!Agilent Technologies,N5230C,MY48100142,A.08.04.10
!Agilent N5230C: A.08.04.10
!Format: LogMag/Angle
!Date: Friday, August 07, 2020 13:05:35
NAME CH1_DATA
VAR Power MAG 801
DATA S11 DBANGLE
DATA S21 DBANGLE
DATA S12 DBANGLE
DATA S22 DBANGLE
VAR_LIST_BEGIN
-40
-39.975
-39.95
-39.925
-39.9
-39.875
-39.85
-39.825
-39.8
-39.775
-39.75
-39.725
-39.7
-39.675
-39.65
-39.625
-39.6
-39.575
-39.55
-39.525
-39.5
-39.475
-39.45
-39.425
-39.4
-39.375
-39.35
-39.325
-39.3
-39.275
-39.25
-39.225
-39.2
-39.175
-39.15
-39.125
-39.1
-39.075
-39.05
-39.025
-39
-38.975
-38.95
-38.925
-38.9
-38.875
-38.85
-38.825
-38.8
-38.775
-38.75
-38.725
-38.7
-38.675
-38.65
-38.625
-38.6
-38.575
-38.55
-38.525
-38.5
-38.475
-38.45
-38.425
-38.4
-38.375
-38.35
-38.325
-38.3
-38.275
-38.25
-38.225
-38.2
-38.175
-38.15
-38.125
-38.1
-38.075
-38.05
-38.025
-38
-37.975
-37.95
-37.925
-37.9
-37.875
-37.85
-37.825
-37.8
-37.775
-37.75
-37.725
-37.7
-37.675
-37.65
-37.625
-37.6
-37.575
-37.55
-37.525
-37.5
-37.475
-37.45
-37.425
-37.4
-37.375
-37.35
-37.325
-37.3
-37.275
-37.25
-37.225
-37.2
-37.175
-37.15
-37.125
-37.1
-37.075
-37.05
-37.025
-37
-36.975
-36.95
-36.925
-36.9
-36.875
-36.85
-36.825
-36.8
-36.775
-36.75
-36.725
-36.7
-36.675
-36.65
-36.625
-36.6
-36.575
-36.55
-36.525
-36.5
-36.475
-36.45
-36.425
-36.4
-36.375
-36.35
-36.325
-36.3
-36.275
-36.25
-36.225
-36.2
-36.175
-36.15
-36.125
-36.1
-36.075
-36.05
-36.025
-36
-35.975
-35.95
-35.925
-35.9
-35.875
-35.85
-35.825
-35.8
-35.775
-35.75
-35.725
-35.7
-35.675
-35.65
-35.625
-35.6
-35.575
-35.55
-35.525
-35.5
-35.475
-35.45
-35.425
-35.4
-35.375
-35.35
-35.325
-35.3
-35.275
-35.25
-35.225
-35.2
-35.175
-35.15
-35.125
-35.1
-35.075
-35.05
-35.025
-35
-34.975
-34.95
-34.925
-34.9
-34.875
-34.85
-34.825
-34.8
-34.775
-34.75
-34.725
-34.7
-34.675
-34.65
-34.625
-34.6
-34.575
-34.55
-34.525
-34.5
-34.475
-34.45
-34.425
-34.4
-34.375
-34.35
-34.325
-34.3
-34.275
-34.25
-34.225
-34.2
-34.175
-34.15
-34.125
-34.1
-34.075
-34.05
-34.025
-34
-33.975
-33.95
-33.925
-33.9
-33.875
-33.85
-33.825
-33.8
-33.775
-33.75
-33.725
-33.7
-33.675
-33.65
-33.625
-33.6
-33.575
-33.55
-33.525
-33.5
-33.475
-33.45
-33.425
-33.4
-33.375
-33.35
-33.325
-33.3
-33.275
-33.25
-33.225
-33.2
-33.175
-33.15
-33.125
-33.1
-33.075
-33.05
-33.025
-33
-32.975
-32.95
-32.925
-32.9
-32.875
-32.85
-32.825
-32.8
-32.775
-32.75
-32.725
-32.7
-32.675
-32.65
-32.625
-32.6
-32.575
-32.55
-32.525
-32.5
-32.475
-32.45
-32.425
-32.4
-32.375
-32.35
-32.325
-32.3
-32.275
-32.25
-32.225
-32.2
-32.175
-32.15
-32.125
-32.1
-32.075
-32.05
-32.025
-32
-31.975
-31.95
-31.925
-31.9
-31.875
-31.85
-31.825
-31.8
-31.775
-31.75
-31.725
-31.7
-31.675
-31.65
-31.625
-31.6
-31.575
-31.55
-31.525
-31.5
-31.475
-31.45
-31.425
-31.4
-31.375
-31.35
-31.325
-31.3
-31.275
-31.25
-31.225
-31.2
-31.175
-31.15
-31.125
-31.1
-31.075
-31.05
-31.025
-31
-30.975
-30.95
-30.925
-30.9
-30.875
-30.85
-30.825
-30.8
-30.775
-30.75
-30.725
-30.7
-30.675
-30.65
-30.625
-30.6
-30.575
-30.55
-30.525
-30.5
-30.475
-30.45
-30.425
-30.4
-30.375
-30.35
-30.325
-30.3
-30.275
-30.25
-30.225
-30.2
-30.175
-30.15
-30.125
-30.1
-30.075
-30.05
-30.025
-30
-29.975
-29.95
-29.925
-29.9
-29.875
-29.85
-29.825
-29.8
-29.775
-29.75
-29.725
-29.7
-29.675
-29.65
-29.625
-29.6
-29.575
-29.55
-29.525
-29.5
-29.475
-29.45
-29.425
-29.4
-29.375
-29.35
-29.325
-29.3
-29.275
-29.25
-29.225
-29.2
-29.175
-29.15
-29.125
-29.1
-29.075
-29.05
-29.025
-29
-28.975
-28.95
-28.925
-28.9
-28.875
-28.85
-28.825
-28.8
-28.775
-28.75
-28.725
-28.7
-28.675
-28.65
-28.625
-28.6
-28.575
-28.55
-28.525
-28.5
-28.475
-28.45
-28.425
-28.4
-28.375
-28.35
-28.325
-28.3
-28.275
-28.25
-28.225
-28.2
-28.175
-28.15
-28.125
-28.1
-28.075
-28.05
-28.025
-28
-27.975
-27.95
-27.925
-27.9
-27.875
-27.85
-27.825
-27.8
-27.775
-27.75
-27.725
-27.7
-27.675
-27.65
-27.625
-27.6
-27.575
-27.55
-27.525
-27.5
-27.475
-27.45
-27.425
-27.4
-27.375
-27.35
-27.325
-27.3
-27.275
-27.25
-27.225
-27.2
-27.175
-27.15
-27.125
-27.1
-27.075
-27.05
-27.025
-27
-26.975
-26.95
-26.925
-26.9
-26.875
-26.85
-26.825
-26.8
-26.775
-26.75
-26.725
-26.7
-26.675
-26.65
-26.625
-26.6
-26.575
-26.55
-26.525
-26.5
-26.475
-26.45
-26.425
-26.4
-26.375
-26.35
-26.325
-26.3
-26.275
-26.25
-26.225
-26.2
-26.175
-26.15
-26.125
-26.1
-26.075
-26.05
-26.025
-26
-25.975
-25.95
-25.925
-25.9
-25.875
-25.85
-25.825
-25.8
-25.775
-25.75
-25.725
-25.7
-25.675
-25.65
-25.625
-25.6
-25.575
-25.55
-25.525
-25.5
-25.475
-25.45
-25.425
-25.4
-25.375
-25.35
-25.325
-25.3
-25.275
-25.25
-25.225
-25.2
-25.175
-25.15
-25.125
-25.1
-25.075
-25.05
-25.025
-25
-24.975
-24.95
-24.925
-24.9
-24.875
-24.85
-24.825
-24.8
-24.775
-24.75
-24.725
-24.7
-24.675
-24.65
-24.625
-24.6
-24.575
-24.55
-24.525
-24.5
-24.475
-24.45
-24.425
-24.4
-24.375
-24.35
-24.325
-24.3
-24.275
-24.25
-24.225
-24.2
-24.175
-24.15
-24.125
-24.1
-24.075
-24.05
-24.025
-24
-23.975
-23.95
-23.925
-23.9
-23.875
-23.85
-23.825
-23.8
-23.775
-23.75
-23.725
-23.7
-23.675
-23.65
-23.625
-23.6
-23.575
-23.55
-23.525
-23.5
-23.475
-23.45
-23.425
-23.4
-23.375
-23.35
-23.325
-23.3
-23.275
-23.25
-23.225
-23.2
-23.175
-23.15
-23.125
-23.1
-23.075
-23.05
-23.025
-23
-22.975
-22.95
-22.925
-22.9
-22.875
-22.85
-22.825
-22.8
-22.775
-22.75
-22.725
-22.7
-22.675
-22.65
-22.625
-22.6
-22.575
-22.55
-22.525
-22.5
-22.475
-22.45
-22.425
-22.4
-22.375
-22.35
-22.325
-22.3
-22.275
-22.25
-22.225
-22.2
-22.175
-22.15
-22.125
-22.1
-22.075
-22.05
-22.025
-22
-21.975
-21.95
-21.925
-21.9
-21.875
-21.85
-21.825
-21.8
-21.775
-21.75
-21.725
-21.7
-21.675
-21.65
-21.625
-21.6
-21.575
-21.55
-21.525
-21.5
-21.475
-21.45
-21.425
-21.4
-21.375
-21.35
-21.325
-21.3
-21.275
-21.25
-21.225
-21.2
-21.175
-21.15
-21.125
-21.1
-21.075
-21.05
-21.025
-21
-20.975
-20.95
-20.925
-20.9
-20.875
-20.85
-20.825
-20.8
-20.775
-20.75
-20.725
-20.7
-20.675
-20.65
-20.625
-20.6
-20.575
-20.55
-20.525
-20.5
-20.475
-20.45
-20.425
-20.4
-20.375
-20.35
-20.325
-20.3
-20.275
-20.25
-20.225
-20.2
-20.175
-20.15
-20.125
-20.1
-20.075
-20.05
-20.025
-20
VAR_LIST_END
BEGIN
-14.501204,-159.68002
-15.181126,-163.36176
-14.121199,-156.22124
-14.44568,-155.98839
-14.260223,-151.06808
-15.416287,-161.13387
-14.551527,-161.04492
-14.844803,-151.26285
-15.512575,-159.81108
-14.528287,-161.06357
-15.417109,-162.58623
-14.582327,-151.59605
-15.905337,-159.74689
-14.723516,-154.28886
-15.157401,-151.37958
-14.903111,-156.7813
-15.155596,-153.65677
-14.336788,-151.83873
-14.718502,-154.90308
-15.138904,-154.27916
-16.31658,-152.15361
-13.740701,-155.3165
-16.093472,-158.74106
-14.690887,-165.29231
-14.552687,-164.09932
-15.528776,-159.21436
-14.55279,-167.85011
-15.746567,-156.19792
-14.180278,-165.71541
-16.032482,-152.31638
-14.191338,-157.35542
-15.425244,-160.68233
-15.147823,-165.80357
-15.807219,-163.10992
-15.159394,-159.92323
-13.675234,-161.71115
-15.408628,-167.5372
-15.112427,-161.01056
-14.679494,-154.32109
-14.891598,-164.91324
-15.135022,-159.50745
-15.181859,-166.26768
-15.806851,-155.75493
-15.326256,-163.54865
-15.478159,-160.59843
-15.193675,-161.75165
-15.481144,-163.87076
-14.166346,-155.02464
-13.717044,-158.17758
-15.352864,-157.61412
-15.718599,-158.05145
-14.594067,-159.04851
-15.31817,-155.83928
-14.451131,-156.42899
-14.171523,-157.74355
-14.569761,-158.31239
-14.622902,-165.51836
-14.758328,-156.58208
-15.836632,-158.3817
-15.879099,-168.97778
-14.774261,-155.86058
-14.317717,-164.88
-15.520786,-153.14336
-15.41569,-160.82629
-14.921502,-161.23372
-15.795264,-159.29913
-15.407125,-163.19969
-14.365952,-160.80696
-14.469328,-159.8205
-15.512684,-159.49825
-14.818728,-160.18895
-14.722304,-164.16832
-16.016443,-159.74947
-15.508883,-167.58971
-15.5226,-157.8271
-14.654025,-155.2113
-14.598206,-160.90524
-15.499738,-154.82834
-14.403823,-158.7238
-14.29181,-164.10667
-14.799727,-151.70575
-14.53652,-154.83397
-14.736762,-155.52606
-15.382448,-154.5495
-16.433884,-163.61014
-15.559684,-158.00801
-14.586432,-159.41417
-14.872176,-153.84071
-15.046636,-157.76112
-15.141273,-161.89806
-14.791466,-162.40367
-15.565781,-155.44588
-14.153399,-156.26849
-14.833286,-160.68411
-15.131427,-158.15056
-15.236835,-154.86938
-14.24993,-158.97516
-14.431362,-156.89154
-14.444302,-157.06
-15.484555,-158.49521
-14.775214,-158.72647
-15.272209,-163.70029
-15.418958,-162.43176
-15.649669,-164.74274
-14.643007,-158.85077
-14.625823,-161.20091
-14.73466,-159.7475
-15.575886,-154.57083
-15.430354,-157.60234
-14.487949,-161.78328
-14.604968,-158.84628
-14.656804,-160.14545
-14.598754,-156.06885
-15.676853,-159.03004
-14.378089,-158.94115
-15.011123,-157.58928
-15.020546,-156.95058
-14.923517,-161.66252
-15.028422,-157.99107
-14.621685,-159.60201
-15.714086,-165.90907
-14.139602,-163.54184
-15.296032,-168.74622
-14.803905,-157.21407
-14.567142,-161.09631
-14.80781,-158.44606
-15.062635,-161.22095
-15.116531,-156.31818
-15.263899,-163.83043
-15.370089,-161.51979
-15.361424,-160.67477
-15.177527,-157.0312
-14.90216,-159.73538
-14.73601,-155.12077
-14.218729,-164.16049
-14.65536,-162.04524
-15.634547,-160.31953
-14.969036,-157.38802
-15.289875,-158.51865
-14.358808,-155.49875
-15.241008,-159.73918
-15.321005,-163.17331
-14.3602,-162.94669
-14.883969,-157.8743
-15.209109,-160.65747
-14.60905,-155.11412
-15.359504,-162.99597
-15.218012,-161.94638
-15.529927,-157.92661
-15.832386,-158.1286
-15.148505,-155.26839
-14.894763,-156.84595
-14.728694,-162.26276
-14.743396,-158.62169
-15.047079,-160.70406
-15.37467,-160.32799
-14.649201,-154.27487
-15.414179,-156.50208
-15.322898,-156.69026
-15.097344,-159.91811
-15.201138,-157.09552
-15.977563,-163.69795
-14.331841,-154.35638
-15.104242,-156.89314
-15.112024,-161.6129
-14.391851,-163.91866
-14.410979,-156.89026
-14.881403,-157.55202
-14.39004,-159.27142
-14.858987,-158.14494
-14.643094,-159.25505
-15.459113,-155.35316
-14.444703,-160.38095
-15.223847,-160.29428
-15.282518,-157.83931
-15.794825,-158.84035
-15.005356,-161.70744
-15.460312,-165.94531
-13.929565,-158.29337
-14.540852,-161.10872
-14.637164,-159.9677
-15.073881,-158.20525
-14.730231,-158.46695
-15.440783,-157.15013
-14.991763,-167.67677
-15.255277,-163.73088
-14.994073,-162.86125
-15.244887,-157.54449
-15.224663,-160.7988
-14.255084,-156.67426
-14.557998,-159.67093
-15.418652,-159.62642
-14.489563,-161.07857
-14.199009,-161.23849
-14.391986,-159.84584
-14.517406,-159.6698
-14.683278,-158.17982
-14.566382,-161.0271
-14.735865,-158.78931
-15.722569,-158.05975
-15.254429,-159.62469
-14.875969,-158.87648
-14.763081,-162.64348
-14.755458,-154.48285
-14.902548,-158.29793
-14.743627,-160.70815
-14.201292,-156.54547
-15.129652,-159.55658
-14.531034,-156.41333
-14.460161,-159.68179
-15.1361,-157.18571
-14.093958,-160.30429
-14.850299,-156.71509
-15.28223,-160.2477
-14.773952,-158.08899
-14.871608,-155.60831
-15.698218,-160.67099
-15.343148,-159.28746
-15.55125,-161.54675
-15.464808,-162.67482
-14.429959,-161.0645
-15.523502,-162.24153
-13.965111,-160.50204
-14.665588,-155.02612
-14.151656,-160.62787
-14.417965,-159.47607
-14.445549,-163.31792
-14.309748,-158.97304
-14.687905,-159.97057
-15.451023,-157.57083
-14.715337,-157.2364
-14.630852,-158.41553
-14.865805,-160.32184
-15.140597,-159.64323
-14.79492,-160.18053
-15.203696,-160.62357
-15.597544,-161.87323
-15.258136,-162.90851
-15.035805,-161.19872
-15.125759,-156.82425
-14.156934,-160.09792
-15.180941,-160.64325
-16.156002,-158.73897
-15.098781,-161.35837
-15.475778,-158.75719
-15.014188,-162.13245
-15.403277,-154.05032
-14.904817,-158.32317
-14.879184,-161.26793
-15.05376,-163.71642
-14.819548,-160.3311
-14.576356,-164.1494
-14.629849,-153.18846
-15.287292,-159.19894
-15.343513,-161.5798
-15.128558,-159.58066
-15.256776,-159.00179
-15.198646,-165.30835
-14.670639,-158.1026
-15.616683,-161.05937
-15.379265,-157.43941
-15.591902,-157.36472
-14.608062,-165.10425
-14.685642,-158.39131
-14.347926,-160.46982
-15.120416,-164.85875
-14.846202,-158.89182
-14.296956,-157.82552
-14.84811,-161.08798
-15.291788,-158.42805
-14.597161,-158.43768
-15.107153,-156.15192
-14.903229,-158.91458
-14.61121,-157.56947
-15.572377,-162.85573
-14.216832,-161.36839
-15.750812,-159.02661
-15.265607,-159.10226
-15.321875,-164.65187
-14.616201,-159.59651
-14.666131,-160.88794
-15.035015,-161.3179
-15.627771,-159.9951
-15.079576,-159.45844
-14.906689,-159.6619
-15.230853,-157.12149
-15.068439,-161.9861
-15.418737,-157.48663
-15.406464,-159.98376
-15.099051,-158.34496
-14.888567,-160.96059
-14.886764,-159.63127
-15.315349,-159.76758
-14.928061,-161.57291
-15.336339,-160.91931
-14.748742,-162.96126
-15.728543,-159.73701
-15.00798,-160.35127
-15.021996,-164.19316
-15.387655,-158.52017
-14.911828,-159.99916
-15.470106,-158.09224
-15.128549,-158.29272
-15.07354,-161.9138
-15.345991,-163.7123
-14.320126,-160.6824
-14.510344,-154.46257
-15.179038,-155.27113
-15.09528,-158.72992
-14.875379,-158.78546
-14.886386,-158.326
-15.1434,-155.63478
-14.515976,-164.74675
-14.269156,-159.99571
-15.083119,-159.95372
-14.549017,-159.62836
-15.463432,-162.09988
-15.155213,-162.30434
-14.983679,-161.81479
-15.400983,-159.55656
-14.324468,-162.799
-15.060228,-161.71654
-15.204178,-160.10512
-14.856006,-153.64122
-14.7234,-158.42192
-15.129351,-158.40147
-14.604771,-160.84055
-15.056625,-157.74355
-15.457632,-164.68153
-14.462726,-159.82687
-15.270548,-160.57492
-15.171357,-159.76765
-14.918034,-160.36443
-15.417378,-159.23245
-14.645429,-158.65341
-14.592457,-157.74176
-14.603316,-162.00658
-15.053578,-162.10519
-14.492485,-159.49471
-14.113831,-158.33656
-14.623113,-160.5881
-15.095823,-157.91473
-15.271518,-158.32219
-14.736269,-159.75978
-14.85003,-160.07201
-14.636779,-162.29526
-15.319761,-158.77182
-15.114901,-158.73143
-14.952446,-159.64207
-14.895932,-160.77589
-15.43529,-158.69177
-15.091028,-159.44699
-14.894442,-159.38828
-15.135422,-158.45975
-14.989301,-158.17027
-14.941039,-157.81465
-15.095771,-154.90749
-14.964376,-163.26828
-14.944548,-159.48772
-15.337198,-161.48523
-14.096065,-159.12193
-15.105304,-158.95372
-14.754114,-157.44388
-15.444501,-158.34044
-14.707163,-162.26711
-15.206569,-159.85716
-14.847576,-157.29239
-14.782693,-161.06485
-14.890042,-161.12053
-14.814015,-160.24277
-14.791513,-158.65698
-15.33852,-159.32237
-14.952789,-161.80858
-14.692916,-161.76653
-15.03745,-156.94028
-15.325313,-156.72215
-14.715965,-155.85312
-15.238566,-161.46149
-15.03521,-160.69109
-15.300858,-157.62469
-14.593026,-160.98834
-14.904381,-159.02644
-14.745394,-161.38199
-14.759938,-158.44252
-15.125278,-160.26645
-15.0721,-160.14584
-14.978758,-156.8419
-14.818383,-159.40434
-14.617047,-158.60251
-14.87472,-160.76199
-15.188474,-156.94548
-14.657708,-159.51125
-14.696107,-157.90485
-15.14673,-159.54906
-15.031863,-156.73267
-14.688754,-158.22173
-15.161153,-158.49229
-14.682579,-157.88744
-15.15629,-160.87447
-15.116321,-162.10406
-14.616939,-160.59886
-14.689168,-162.07205
-14.786038,-156.99739
-15.13217,-161.09074
-15.084423,-162.35881
-15.479404,-158.67137
-14.97485,-158.01257
-15.152665,-158.57394
-15.128498,-159.61299
-15.185572,-156.39426
-14.839353,-158.80496
-15.210306,-162.11234
-15.041083,-157.19144
-14.914716,-159.33266
-15.100627,-162.26433
-14.393959,-161.18903
-15.16532,-162.10574
-15.505691,-158.3607
-15.292224,-159.78619
-15.181471,-157.56433
-14.992026,-160.54555
-14.747196,-159.40359
-14.93008,-163.06519
-14.780704,-157.20764
-14.699181,-160.50996
-14.940362,-161.2973
-15.105114,-162.40117
-15.186849,-157.81477
-14.841166,-160.15636
-15.30863,-161.71935
-15.198454,-157.1284
-15.542782,-161.2157
-15.104185,-160.43907
-15.129376,-158.67412
-15.10735,-160.84567
-14.917253,-158.36467
-15.0488,-160.14491
-15.04211,-158.86209
-14.710517,-159.2247
-15.237304,-159.00317
-14.943316,-159.48651
-14.683043,-161.38751
-14.956587,-158.99706
-14.743599,-161.28613
-14.878319,-159.94031
-14.89457,-159.07498
-14.911947,-158.21179
-15.13974,-162.2299
-14.556212,-162.40469
-14.837171,-157.72922
-15.405019,-159.49403
-14.709743,-160.093
-15.184495,-160.01906
-14.843917,-155.57568
-15.147767,-158.01439
-15.180465,-159.94283
-14.693985,-161.89771
-15.229902,-159.16786
-15.225981,-160.06706
-15.092667,-156.73065
-15.118093,-159.25374
-14.913661,-155.0981
-15.319788,-157.81715
-14.916887,-160.79727
-14.976606,-159.38609
-15.180792,-159.08966
-14.769939,-159.59798
-14.554199,-159.40439
-15.048183,-159.17731
-15.16288,-156.68858
-14.720271,-158.84552
-15.176309,-157.92107
-14.986376,-162.06708
-15.096857,-158.75978
-14.958211,-157.48726
-15.098788,-159.3364
-15.230348,-161.22237
-15.11173,-160.26331
-14.940238,-159.82407
-15.305185,-159.01674
-14.849443,-158.52513
-15.10727,-161.13898
-15.096364,-159.20245
-15.2998,-161.50047
-15.374796,-161.68748
-15.011486,-158.22166
-14.871848,-159.82491
-14.903474,-159.00047
-15.087794,-158.51221
-14.754208,-159.17278
-14.991865,-158.95305
-14.845475,-157.2881
-15.081763,-160.48224
-14.930384,-160.41559
-15.374255,-160.90816
-15.307831,-159.71239
-14.906289,-159.38853
-14.944124,-161.60789
-15.098182,-159.66779
-14.913855,-158.99907
-14.806115,-160.51097
-14.788733,-158.8327
-14.65789,-160.72157
-14.766244,-160.13342
-15.068122,-160.17061
-14.918597,-158.01755
-14.797631,-157.65089
-15.396596,-157.66769
-14.705383,-159.37462
-14.964892,-160.2684
-15.157557,-159.31299
-15.072695,-159.97707
-14.950694,-161.30428
-15.188807,-160.41934
-15.128851,-160.52078
-15.121367,-158.82883
-14.9961,-159.34993
-15.092882,-158.2191
-14.98556,-160.3889
-15.172609,-160.57381
-15.28118,-159.22031
-14.972717,-160.84673
-15.15482,-157.97223
-15.115116,-159.71336
-15.311715,-160.67966
-15.255469,-159.36954
-15.021001,-158.30386
-15.141303,-159.83939
-14.656252,-157.40695
-14.833536,-161.46735
-15.026225,-158.30418
-15.016094,-160.47995
-14.84953,-161.60155
-14.948437,-160.94991
-14.938835,-160.07408
-14.961287,-158.65457
-14.996085,-158.63228
-14.881369,-158.88377
-15.378399,-159.59978
-15.014903,-160.58516
-14.6475,-159.59692
-14.955556,-158.88707
-15.130235,-161.0067
-15.078302,-158.63678
-15.189906,-158.82605
-15.008592,-160.44972
-14.858298,-159.23254
-14.894575,-159.93604
-14.945226,-161.10152
-15.066621,-159.4299
-15.28313,-159.95461
-14.770602,-160.68231
-14.870122,-158.62009
-14.964707,-160.16896
-14.890279,-157.62074
-14.79665,-159.64401
-14.829161,-159.64508
-14.69549,-158.05977
-14.969664,-159.73766
-15.087322,-158.98923
-14.889857,-162.80235
-14.747466,-160.71988
-15.227343,-158.06888
-15.135023,-159.64943
-15.141152,-159.8723
-15.002812,-156.98337
-14.856884,-160.46683
-14.90763,-159.50975
-15.022529,-158.25627
-14.983138,-158.98781
-14.910307,-159.99139
-15.034901,-160.19554
-14.779054,-161.0862
-14.947501,-160.49532
-15.173149,-158.94827
-15.094358,-162.16112
