CITIFILE A.01.01
!Agilent Technologies,N5230C,MY48100142,A.08.04.10
!Agilent N5230C: A.08.04.10
!Format: LogMag/Angle
!Date: Friday, July 24, 2020 15:48:28
NAME CH1_DATA
VAR Power MAG 801
DATA S11 DBANGLE
DATA S21 DBANGLE
DATA S12 DBANGLE
DATA S22 DBANGLE
VAR_LIST_BEGIN
-40
-39.975
-39.95
-39.925
-39.9
-39.875
-39.85
-39.825
-39.8
-39.775
-39.75
-39.725
-39.7
-39.675
-39.65
-39.625
-39.6
-39.575
-39.55
-39.525
-39.5
-39.475
-39.45
-39.425
-39.4
-39.375
-39.35
-39.325
-39.3
-39.275
-39.25
-39.225
-39.2
-39.175
-39.15
-39.125
-39.1
-39.075
-39.05
-39.025
-39
-38.975
-38.95
-38.925
-38.9
-38.875
-38.85
-38.825
-38.8
-38.775
-38.75
-38.725
-38.7
-38.675
-38.65
-38.625
-38.6
-38.575
-38.55
-38.525
-38.5
-38.475
-38.45
-38.425
-38.4
-38.375
-38.35
-38.325
-38.3
-38.275
-38.25
-38.225
-38.2
-38.175
-38.15
-38.125
-38.1
-38.075
-38.05
-38.025
-38
-37.975
-37.95
-37.925
-37.9
-37.875
-37.85
-37.825
-37.8
-37.775
-37.75
-37.725
-37.7
-37.675
-37.65
-37.625
-37.6
-37.575
-37.55
-37.525
-37.5
-37.475
-37.45
-37.425
-37.4
-37.375
-37.35
-37.325
-37.3
-37.275
-37.25
-37.225
-37.2
-37.175
-37.15
-37.125
-37.1
-37.075
-37.05
-37.025
-37
-36.975
-36.95
-36.925
-36.9
-36.875
-36.85
-36.825
-36.8
-36.775
-36.75
-36.725
-36.7
-36.675
-36.65
-36.625
-36.6
-36.575
-36.55
-36.525
-36.5
-36.475
-36.45
-36.425
-36.4
-36.375
-36.35
-36.325
-36.3
-36.275
-36.25
-36.225
-36.2
-36.175
-36.15
-36.125
-36.1
-36.075
-36.05
-36.025
-36
-35.975
-35.95
-35.925
-35.9
-35.875
-35.85
-35.825
-35.8
-35.775
-35.75
-35.725
-35.7
-35.675
-35.65
-35.625
-35.6
-35.575
-35.55
-35.525
-35.5
-35.475
-35.45
-35.425
-35.4
-35.375
-35.35
-35.325
-35.3
-35.275
-35.25
-35.225
-35.2
-35.175
-35.15
-35.125
-35.1
-35.075
-35.05
-35.025
-35
-34.975
-34.95
-34.925
-34.9
-34.875
-34.85
-34.825
-34.8
-34.775
-34.75
-34.725
-34.7
-34.675
-34.65
-34.625
-34.6
-34.575
-34.55
-34.525
-34.5
-34.475
-34.45
-34.425
-34.4
-34.375
-34.35
-34.325
-34.3
-34.275
-34.25
-34.225
-34.2
-34.175
-34.15
-34.125
-34.1
-34.075
-34.05
-34.025
-34
-33.975
-33.95
-33.925
-33.9
-33.875
-33.85
-33.825
-33.8
-33.775
-33.75
-33.725
-33.7
-33.675
-33.65
-33.625
-33.6
-33.575
-33.55
-33.525
-33.5
-33.475
-33.45
-33.425
-33.4
-33.375
-33.35
-33.325
-33.3
-33.275
-33.25
-33.225
-33.2
-33.175
-33.15
-33.125
-33.1
-33.075
-33.05
-33.025
-33
-32.975
-32.95
-32.925
-32.9
-32.875
-32.85
-32.825
-32.8
-32.775
-32.75
-32.725
-32.7
-32.675
-32.65
-32.625
-32.6
-32.575
-32.55
-32.525
-32.5
-32.475
-32.45
-32.425
-32.4
-32.375
-32.35
-32.325
-32.3
-32.275
-32.25
-32.225
-32.2
-32.175
-32.15
-32.125
-32.1
-32.075
-32.05
-32.025
-32
-31.975
-31.95
-31.925
-31.9
-31.875
-31.85
-31.825
-31.8
-31.775
-31.75
-31.725
-31.7
-31.675
-31.65
-31.625
-31.6
-31.575
-31.55
-31.525
-31.5
-31.475
-31.45
-31.425
-31.4
-31.375
-31.35
-31.325
-31.3
-31.275
-31.25
-31.225
-31.2
-31.175
-31.15
-31.125
-31.1
-31.075
-31.05
-31.025
-31
-30.975
-30.95
-30.925
-30.9
-30.875
-30.85
-30.825
-30.8
-30.775
-30.75
-30.725
-30.7
-30.675
-30.65
-30.625
-30.6
-30.575
-30.55
-30.525
-30.5
-30.475
-30.45
-30.425
-30.4
-30.375
-30.35
-30.325
-30.3
-30.275
-30.25
-30.225
-30.2
-30.175
-30.15
-30.125
-30.1
-30.075
-30.05
-30.025
-30
-29.975
-29.95
-29.925
-29.9
-29.875
-29.85
-29.825
-29.8
-29.775
-29.75
-29.725
-29.7
-29.675
-29.65
-29.625
-29.6
-29.575
-29.55
-29.525
-29.5
-29.475
-29.45
-29.425
-29.4
-29.375
-29.35
-29.325
-29.3
-29.275
-29.25
-29.225
-29.2
-29.175
-29.15
-29.125
-29.1
-29.075
-29.05
-29.025
-29
-28.975
-28.95
-28.925
-28.9
-28.875
-28.85
-28.825
-28.8
-28.775
-28.75
-28.725
-28.7
-28.675
-28.65
-28.625
-28.6
-28.575
-28.55
-28.525
-28.5
-28.475
-28.45
-28.425
-28.4
-28.375
-28.35
-28.325
-28.3
-28.275
-28.25
-28.225
-28.2
-28.175
-28.15
-28.125
-28.1
-28.075
-28.05
-28.025
-28
-27.975
-27.95
-27.925
-27.9
-27.875
-27.85
-27.825
-27.8
-27.775
-27.75
-27.725
-27.7
-27.675
-27.65
-27.625
-27.6
-27.575
-27.55
-27.525
-27.5
-27.475
-27.45
-27.425
-27.4
-27.375
-27.35
-27.325
-27.3
-27.275
-27.25
-27.225
-27.2
-27.175
-27.15
-27.125
-27.1
-27.075
-27.05
-27.025
-27
-26.975
-26.95
-26.925
-26.9
-26.875
-26.85
-26.825
-26.8
-26.775
-26.75
-26.725
-26.7
-26.675
-26.65
-26.625
-26.6
-26.575
-26.55
-26.525
-26.5
-26.475
-26.45
-26.425
-26.4
-26.375
-26.35
-26.325
-26.3
-26.275
-26.25
-26.225
-26.2
-26.175
-26.15
-26.125
-26.1
-26.075
-26.05
-26.025
-26
-25.975
-25.95
-25.925
-25.9
-25.875
-25.85
-25.825
-25.8
-25.775
-25.75
-25.725
-25.7
-25.675
-25.65
-25.625
-25.6
-25.575
-25.55
-25.525
-25.5
-25.475
-25.45
-25.425
-25.4
-25.375
-25.35
-25.325
-25.3
-25.275
-25.25
-25.225
-25.2
-25.175
-25.15
-25.125
-25.1
-25.075
-25.05
-25.025
-25
-24.975
-24.95
-24.925
-24.9
-24.875
-24.85
-24.825
-24.8
-24.775
-24.75
-24.725
-24.7
-24.675
-24.65
-24.625
-24.6
-24.575
-24.55
-24.525
-24.5
-24.475
-24.45
-24.425
-24.4
-24.375
-24.35
-24.325
-24.3
-24.275
-24.25
-24.225
-24.2
-24.175
-24.15
-24.125
-24.1
-24.075
-24.05
-24.025
-24
-23.975
-23.95
-23.925
-23.9
-23.875
-23.85
-23.825
-23.8
-23.775
-23.75
-23.725
-23.7
-23.675
-23.65
-23.625
-23.6
-23.575
-23.55
-23.525
-23.5
-23.475
-23.45
-23.425
-23.4
-23.375
-23.35
-23.325
-23.3
-23.275
-23.25
-23.225
-23.2
-23.175
-23.15
-23.125
-23.1
-23.075
-23.05
-23.025
-23
-22.975
-22.95
-22.925
-22.9
-22.875
-22.85
-22.825
-22.8
-22.775
-22.75
-22.725
-22.7
-22.675
-22.65
-22.625
-22.6
-22.575
-22.55
-22.525
-22.5
-22.475
-22.45
-22.425
-22.4
-22.375
-22.35
-22.325
-22.3
-22.275
-22.25
-22.225
-22.2
-22.175
-22.15
-22.125
-22.1
-22.075
-22.05
-22.025
-22
-21.975
-21.95
-21.925
-21.9
-21.875
-21.85
-21.825
-21.8
-21.775
-21.75
-21.725
-21.7
-21.675
-21.65
-21.625
-21.6
-21.575
-21.55
-21.525
-21.5
-21.475
-21.45
-21.425
-21.4
-21.375
-21.35
-21.325
-21.3
-21.275
-21.25
-21.225
-21.2
-21.175
-21.15
-21.125
-21.1
-21.075
-21.05
-21.025
-21
-20.975
-20.95
-20.925
-20.9
-20.875
-20.85
-20.825
-20.8
-20.775
-20.75
-20.725
-20.7
-20.675
-20.65
-20.625
-20.6
-20.575
-20.55
-20.525
-20.5
-20.475
-20.45
-20.425
-20.4
-20.375
-20.35
-20.325
-20.3
-20.275
-20.25
-20.225
-20.2
-20.175
-20.15
-20.125
-20.1
-20.075
-20.05
-20.025
-20
VAR_LIST_END
BEGIN
-16.090973,-152.00185
-13.834559,-143.67796
-15.590771,-140.4175
-15.50942,-143.13019
-13.358087,-149.39545
-13.303422,-142.81778
-13.896496,-143.24403
-14.424241,-144.11201
-13.617346,-137.0527
-14.198456,-145.06166
-13.947732,-153.26083
-14.079207,-140.44547
-13.580822,-143.15709
-15.514394,-140.66403
-14.283361,-162.39349
-14.959743,-145.54266
-13.793553,-140.54097
-13.235651,-145.37897
-14.19731,-143.45145
-15.061505,-153.98715
-14.791411,-141.91553
-13.871322,-153.01173
-15.444266,-138.08672
-15.664918,-137.32983
-14.768602,-144.71951
-15.821503,-150.18402
-13.671776,-155.01338
-14.717987,-145.8187
-14.060738,-154.40121
-13.346486,-143.82344
-14.356956,-141.59827
-14.740956,-151.71512
-13.635952,-134.50241
-14.625162,-130.63512
-15.097673,-142.34483
-15.049249,-144.4382
-15.080265,-144.15166
-14.323996,-144.54575
-15.242525,-155.79216
-13.3846,-148.88867
-14.018416,-146.95627
-15.210855,-137.82858
-13.214663,-161.86183
-13.799192,-144.73248
-15.2211,-146.0101
-14.455062,-149.56416
-14.991823,-143.5181
-14.208501,-147.36456
-14.635799,-151.42343
-14.739482,-144.39253
-14.487031,-147.94958
-14.240265,-142.55225
-15.100945,-157.26701
-14.584166,-147.34471
-15.555468,-144.58276
-15.262469,-142.59448
-15.073659,-144.57651
-14.725479,-137.82315
-14.520149,-138.17253
-14.964032,-147.60283
-16.729424,-141.71552
-14.218764,-141.11765
-16.564169,-141.91049
-15.130519,-142.82166
-14.340391,-141.08572
-15.655983,-142.97615
-15.73723,-136.8246
-13.364796,-141.94656
-14.347516,-145.3656
-15.19067,-139.79805
-14.355529,-137.35472
-14.356218,-139.71715
-14.840646,-147.06999
-14.260242,-139.48311
-14.845522,-152.65778
-15.157937,-145.21132
-15.44676,-141.70418
-16.067595,-143.77504
-13.850584,-145.12401
-15.725932,-145.29283
-14.692997,-144.03416
-14.14766,-139.38901
-14.151108,-139.21371
-13.979259,-139.87807
-14.260616,-139.28209
-14.324429,-151.01053
-14.162369,-137.97849
-14.398414,-139.89758
-15.25421,-143.04959
-15.510144,-146.72635
-14.896427,-144.03093
-15.549932,-141.48474
-15.71491,-140.09836
-15.269395,-138.71808
-14.708169,-144.65549
-13.342068,-139.50728
-14.344892,-143.00623
-14.731596,-148.75063
-14.977858,-150.22716
-15.330371,-138.63255
-14.859849,-151.65039
-15.332829,-150.35774
-15.449601,-140.91464
-17.011118,-140.54198
-14.810961,-135.91147
-13.919164,-140.31186
-15.376359,-146.00105
-14.185401,-141.92558
-16.162413,-146.16856
-14.621098,-150.9474
-13.720237,-154.09407
-14.533902,-144.9805
-15.058579,-140.84064
-13.86468,-144.66309
-14.485222,-146.42175
-14.320197,-148.26788
-14.517316,-147.83138
-14.136148,-143.57054
-14.791968,-137.75221
-13.642019,-142.04779
-14.645571,-141.98674
-15.201706,-141.58025
-14.417841,-136.38577
-14.890944,-135.81169
-14.018275,-141.0957
-14.063341,-143.66231
-14.888288,-146.7428
-16.467083,-141.4418
-14.550448,-153.35896
-14.908584,-144.5331
-14.547016,-145.57985
-14.168105,-145.09618
-15.362572,-141.04099
-14.509563,-146.72531
-16.939344,-139.95404
-14.419267,-152.30391
-14.730943,-144.25281
-14.314919,-141.45177
-15.195745,-143.37006
-13.967176,-145.29515
-14.136712,-144.87538
-14.193291,-143.88174
-15.074803,-136.55176
-15.701784,-141.7439
-14.223414,-146.63005
-13.346743,-141.96968
-14.816184,-143.6964
-16.393915,-143.12982
-13.977955,-153.70302
-14.345517,-146.66243
-14.848467,-145.74928
-14.486881,-142.02577
-14.516319,-142.33418
-13.102294,-143.17557
-14.445173,-137.68129
-14.849347,-149.13431
-15.253349,-149.09966
-15.097727,-142.53795
-16.745232,-145.40685
-14.745657,-148.09964
-15.100618,-145.80804
-14.636386,-152.28009
-14.278543,-146.80318
-15.620453,-139.24918
-15.063343,-141.1378
-14.615341,-141.49252
-15.083275,-144.37048
-14.923518,-141.4299
-13.934873,-144.3326
-14.693111,-145.63077
-15.564373,-139.91649
-14.761727,-145.871
-15.012996,-148.26099
-14.805346,-143.52515
-14.904406,-142.64409
-15.162535,-143.60812
-14.248049,-149.20992
-14.820024,-147.97003
-15.684933,-142.62755
-15.124342,-149.76399
-14.229482,-143.12704
-14.916583,-141.24948
-15.318137,-139.6505
-14.64945,-148.75772
-14.381996,-140.63881
-15.554609,-137.58588
-14.179162,-137.83141
-14.716264,-140.39859
-14.73776,-146.17677
-15.080159,-141.07004
-13.946809,-143.77074
-14.103211,-143.77478
-14.449621,-147.68042
-14.703963,-143.66592
-14.6982,-153.84329
-14.996813,-146.56871
-15.580685,-143.23
-14.179398,-149.54442
-14.645825,-152.09631
-13.944322,-144.59476
-15.138974,-144.14305
-14.727803,-142.507
-13.713733,-147.99593
-15.067481,-146.89201
-15.072501,-140.81467
-14.002128,-148.62352
-14.792703,-138.02208
-14.69537,-145.44286
-14.250054,-140.06543
-15.284589,-142.93109
-15.160551,-145.01018
-15.396338,-142.90617
-15.355701,-143.26288
-15.633091,-145.35535
-14.734239,-144.80998
-14.910752,-143.61816
-14.333652,-146.43671
-16.112129,-148.64198
-13.957397,-137.63217
-14.880991,-144.00494
-15.244728,-143.72968
-14.132568,-144.55998
-14.321294,-143.15349
-14.350224,-150.79585
-14.487357,-140.03671
-14.820271,-146.14247
-14.548197,-148.63861
-14.342251,-140.69823
-14.393406,-144.52573
-14.519181,-139.80241
-14.930923,-141.26013
-14.205097,-142.21205
-14.187007,-144.24619
-13.757741,-147.36308
-15.083355,-137.79233
-14.317487,-149.55321
-14.451592,-139.12614
-15.798708,-141.60719
-14.844357,-148.27708
-15.179685,-138.99359
-15.040996,-145.45035
-14.503635,-145.01208
-13.350835,-144.34108
-14.496015,-149.63733
-14.959521,-146.2115
-14.818977,-144.74797
-15.326516,-139.43193
-14.835268,-147.62097
-14.604609,-148.16699
-13.998595,-146.73375
-15.07073,-148.1839
-14.178286,-150.15889
-13.933197,-144.23631
-15.094681,-140.74945
-13.087271,-139.87296
-13.932273,-139.16154
-15.197567,-147.51775
-14.83811,-142.27042
-14.230885,-141.27022
-14.962584,-147.42719
-13.900023,-143.41911
-14.346856,-146.81041
-15.522033,-145.45836
-14.672614,-147.46454
-14.867606,-142.24799
-15.40726,-144.64467
-14.654806,-144.88152
-14.469513,-141.95255
-14.959637,-141.67073
-14.142994,-142.23489
-15.204035,-145.66179
-14.288793,-143.85902
-15.417423,-142.53978
-15.00089,-149.1156
-14.261896,-145.03914
-15.388666,-148.76262
-15.306174,-139.58466
-14.646287,-145.20973
-14.405857,-148.80246
-14.29668,-144.91483
-14.756579,-145.96353
-14.483105,-145.0565
-15.261671,-139.77716
-14.992908,-147.47142
-14.704734,-147.57199
-14.412909,-144.60048
-14.470572,-140.30164
-15.191553,-144.51567
-14.780347,-144.50591
-14.698546,-145.15694
-15.191675,-142.67488
-14.551036,-139.87537
-14.18712,-144.6718
-14.543977,-145.17657
-14.733248,-149.50992
-15.60405,-145.69781
-14.258829,-148.5005
-14.598809,-144.69006
-14.500867,-139.98357
-14.230112,-144.97096
-15.420994,-145.70496
-15.182944,-148.54442
-15.403331,-144.6028
-14.153657,-143.18053
-15.189254,-143.14862
-14.650187,-148.53365
-14.992401,-151.09045
-14.432501,-142.8455
-14.27814,-144.77231
-15.288314,-144.89015
-15.037897,-141.3698
-14.845273,-142.29225
-13.684729,-145.10226
-14.076528,-140.55124
-13.829342,-147.98152
-14.726424,-140.11038
-14.462246,-146.70059
-14.51928,-145.13995
-14.144124,-146.42487
-14.271437,-140.59079
-13.975182,-145.1452
-15.429996,-146.83934
-14.74801,-145.56987
-15.263724,-140.42848
-14.344799,-139.84502
-14.683262,-140.96761
-14.715554,-139.4245
-14.013003,-141.69052
-14.818496,-140.26913
-14.2091,-144.28905
-14.168784,-141.74925
-15.168217,-143.89996
-14.617146,-146.79346
-14.677726,-142.65958
-14.415114,-142.67302
-14.023866,-145.68216
-14.289289,-143.39745
-14.277511,-143.1244
-14.675718,-140.50294
-14.895916,-145.2028
-14.462404,-141.23703
-15.051006,-144.75481
-14.353919,-143.0994
-15.085663,-147.38104
-14.882184,-146.8992
-15.096207,-145.40385
-14.224307,-144.58818
-14.716249,-147.71136
-14.689494,-148.42894
-13.819574,-144.68633
-14.464571,-144.08321
-14.675299,-144.18864
-15.011974,-143.45575
-14.365653,-144.91743
-14.204563,-148.65137
-14.347492,-149.96216
-14.294717,-147.61607
-13.877387,-147.30421
-14.637025,-144.91312
-14.521558,-143.17865
-14.897508,-140.80627
-14.48821,-147.40225
-14.434646,-140.05576
-15.080523,-147.29539
-14.652889,-142.18552
-14.192674,-145.46373
-14.836997,-144.27722
-14.096953,-141.96588
-14.647953,-143.7148
-14.014721,-144.36403
-14.185191,-145.5475
-14.720532,-141.06342
-14.409103,-140.34396
-14.515207,-137.55698
-14.790294,-144.67148
-14.431216,-149.13803
-14.885163,-144.53986
-14.518102,-148.82826
-14.904994,-141.85881
-14.371912,-147.4724
-14.903633,-145.4055
-14.697511,-145.91165
-14.213717,-143.20761
-15.321877,-144.41129
-14.96329,-144.14708
-14.725282,-147.98451
-14.305704,-146.28647
-15.116112,-142.85304
-14.22071,-145.48218
-15.096326,-142.79878
-14.522068,-144.56686
-14.764713,-145.2885
-14.679153,-144.8623
-14.258252,-139.89987
-14.937303,-145.34914
-14.847725,-143.97023
-15.227128,-148.53485
-14.617928,-145.60977
-14.646334,-147.83698
-14.863501,-145.07729
-15.356318,-144.09639
-14.696941,-142.53166
-14.925977,-147.82021
-15.248705,-147.27303
-14.766486,-141.15598
-15.33085,-142.06445
-14.135809,-141.64313
-14.436098,-144.62027
-15.308205,-145.713
-14.631639,-146.24442
-14.376035,-143.51083
-14.496229,-144.6989
-14.140033,-147.19801
-14.63745,-144.14841
-15.068013,-149.70425
-15.030039,-145.84673
-14.642817,-149.56697
-14.528468,-145.0258
-15.099957,-143.29568
-14.203687,-144.04929
-14.48251,-142.13983
-14.422872,-142.67735
-14.499701,-145.43471
-14.782383,-142.23665
-14.772106,-146.96193
-14.485826,-144.27463
-14.432458,-140.92705
-14.928836,-141.88452
-15.026959,-144.26266
-14.129779,-146.14407
-15.096127,-144.51123
-14.630305,-143.46336
-14.404237,-144.34259
-14.739392,-148.11816
-14.954434,-143.33583
-15.022473,-144.3036
-14.243882,-145.13393
-14.285837,-145.06192
-15.046221,-143.18147
-14.947431,-141.91483
-14.356267,-142.86964
-14.417707,-143.58781
-14.950104,-141.82748
-14.772269,-146.8219
-14.356919,-143.52299
-14.699361,-142.37999
-14.78038,-145.02739
-14.748918,-144.39746
-13.990496,-145.41057
-14.325489,-141.7722
-14.618527,-143.8
-14.908514,-143.59206
-14.672186,-144.21486
-14.984726,-145.3203
-14.618463,-145.70731
-14.687601,-144.26076
-14.453035,-145.228
-14.47884,-144.75165
-14.377588,-146.56973
-14.468309,-145.08081
-15.116966,-144.93672
-14.712517,-145.01337
-14.652287,-145.78621
-14.479821,-145.59691
-14.855415,-147.15024
-14.12562,-145.28604
-15.040408,-144.54251
-14.374893,-145.0768
-14.442357,-146.20042
-14.710955,-143.56404
-14.847828,-142.84486
-14.934354,-143.3687
-14.56284,-144.88005
-15.267423,-144.16196
-14.515627,-144.57547
-14.867253,-143.3598
-14.320278,-141.36555
-14.464643,-145.57217
-14.496619,-144.96574
-14.327941,-145.07751
-14.615512,-143.40947
-14.061748,-144.03412
-14.89693,-142.49225
-14.580317,-144.50935
-14.48184,-146.71883
-15.524018,-145.22816
-15.114614,-142.68094
-14.908956,-145.31989
-14.726412,-143.61136
-14.264526,-144.57281
-14.543769,-141.47072
-14.679924,-142.33354
-14.876366,-146.4032
-14.42258,-143.50983
-14.562999,-142.41489
-14.449707,-143.49413
-14.634293,-141.81802
-14.609609,-146.95428
-14.41803,-144.26974
-15.0796,-145.94659
-14.610821,-142.49306
-14.685135,-143.9267
-14.284587,-143.50264
-14.698404,-143.8632
-14.705173,-145.55132
-14.620644,-142.40546
-14.545356,-142.90195
-14.566695,-145.77493
-14.637433,-144.28815
-14.427918,-144.33951
-14.523713,-144.14027
-14.715107,-145.1875
-14.790699,-142.23366
-14.688289,-144.09288
-14.578231,-144.22476
-14.455425,-145.99817
-14.619618,-143.29622
-14.768293,-144.7166
-14.592949,-142.85808
-14.350324,-143.80946
-14.973386,-145.05797
-14.593537,-144.84245
-14.594337,-145.46379
-14.680434,-142.83752
-14.578552,-146.96024
-14.816444,-144.8158
-14.55787,-143.39851
-14.868237,-143.02406
-14.569695,-145.71385
-14.904761,-144.45741
-14.616132,-143.60429
-14.520296,-145.16286
-15.239756,-145.38686
-14.414964,-145.23459
-14.448082,-147.01134
-14.854826,-144.3419
-14.726086,-143.04881
-14.889529,-143.17867
-14.415719,-143.0885
-14.89535,-141.36633
-14.490559,-144.56673
-14.552154,-144.99844
-14.649472,-145.76355
-14.640838,-143.49324
-14.55988,-143.13843
-14.490608,-144.55058
-14.570437,-144.86584
-14.515077,-144.75949
-14.697469,-144.17995
-14.985895,-145.07887
-15.127627,-144.96019
-14.214609,-144.3582
-14.828421,-142.17986
-14.562908,-144.01355
-14.523466,-143.51131
-14.68739,-146.42102
-14.569174,-148.13226
-14.918482,-145.1619
-14.278883,-142.87573
-14.499915,-144.40837
-14.52677,-143.65404
-14.61912,-145.28717
-14.67361,-143.99025
-14.623814,-144.63133
-14.431124,-143.06566
-14.849932,-142.84265
-14.603024,-141.7766
-14.967528,-146.08263
-14.673183,-144.97
-14.920783,-145.90642
-14.279585,-142.43594
-14.80321,-142.75227
-14.684846,-144.63675
-14.793799,-143.18262
-14.461092,-144.50732
-14.371009,-142.66689
