CITIFILE A.01.01
!Agilent Technologies,N5230C,MY48100142,A.08.04.10
!Agilent N5230C: A.08.04.10
!Format: LogMag/Angle
!Date: Monday, August 31, 2020 15:38:29
NAME CH1_DATA
VAR Power MAG 801
DATA S11 DBANGLE
DATA S21 DBANGLE
DATA S12 DBANGLE
DATA S22 DBANGLE
VAR_LIST_BEGIN
-40
-39.975
-39.95
-39.925
-39.9
-39.875
-39.85
-39.825
-39.8
-39.775
-39.75
-39.725
-39.7
-39.675
-39.65
-39.625
-39.6
-39.575
-39.55
-39.525
-39.5
-39.475
-39.45
-39.425
-39.4
-39.375
-39.35
-39.325
-39.3
-39.275
-39.25
-39.225
-39.2
-39.175
-39.15
-39.125
-39.1
-39.075
-39.05
-39.025
-39
-38.975
-38.95
-38.925
-38.9
-38.875
-38.85
-38.825
-38.8
-38.775
-38.75
-38.725
-38.7
-38.675
-38.65
-38.625
-38.6
-38.575
-38.55
-38.525
-38.5
-38.475
-38.45
-38.425
-38.4
-38.375
-38.35
-38.325
-38.3
-38.275
-38.25
-38.225
-38.2
-38.175
-38.15
-38.125
-38.1
-38.075
-38.05
-38.025
-38
-37.975
-37.95
-37.925
-37.9
-37.875
-37.85
-37.825
-37.8
-37.775
-37.75
-37.725
-37.7
-37.675
-37.65
-37.625
-37.6
-37.575
-37.55
-37.525
-37.5
-37.475
-37.45
-37.425
-37.4
-37.375
-37.35
-37.325
-37.3
-37.275
-37.25
-37.225
-37.2
-37.175
-37.15
-37.125
-37.1
-37.075
-37.05
-37.025
-37
-36.975
-36.95
-36.925
-36.9
-36.875
-36.85
-36.825
-36.8
-36.775
-36.75
-36.725
-36.7
-36.675
-36.65
-36.625
-36.6
-36.575
-36.55
-36.525
-36.5
-36.475
-36.45
-36.425
-36.4
-36.375
-36.35
-36.325
-36.3
-36.275
-36.25
-36.225
-36.2
-36.175
-36.15
-36.125
-36.1
-36.075
-36.05
-36.025
-36
-35.975
-35.95
-35.925
-35.9
-35.875
-35.85
-35.825
-35.8
-35.775
-35.75
-35.725
-35.7
-35.675
-35.65
-35.625
-35.6
-35.575
-35.55
-35.525
-35.5
-35.475
-35.45
-35.425
-35.4
-35.375
-35.35
-35.325
-35.3
-35.275
-35.25
-35.225
-35.2
-35.175
-35.15
-35.125
-35.1
-35.075
-35.05
-35.025
-35
-34.975
-34.95
-34.925
-34.9
-34.875
-34.85
-34.825
-34.8
-34.775
-34.75
-34.725
-34.7
-34.675
-34.65
-34.625
-34.6
-34.575
-34.55
-34.525
-34.5
-34.475
-34.45
-34.425
-34.4
-34.375
-34.35
-34.325
-34.3
-34.275
-34.25
-34.225
-34.2
-34.175
-34.15
-34.125
-34.1
-34.075
-34.05
-34.025
-34
-33.975
-33.95
-33.925
-33.9
-33.875
-33.85
-33.825
-33.8
-33.775
-33.75
-33.725
-33.7
-33.675
-33.65
-33.625
-33.6
-33.575
-33.55
-33.525
-33.5
-33.475
-33.45
-33.425
-33.4
-33.375
-33.35
-33.325
-33.3
-33.275
-33.25
-33.225
-33.2
-33.175
-33.15
-33.125
-33.1
-33.075
-33.05
-33.025
-33
-32.975
-32.95
-32.925
-32.9
-32.875
-32.85
-32.825
-32.8
-32.775
-32.75
-32.725
-32.7
-32.675
-32.65
-32.625
-32.6
-32.575
-32.55
-32.525
-32.5
-32.475
-32.45
-32.425
-32.4
-32.375
-32.35
-32.325
-32.3
-32.275
-32.25
-32.225
-32.2
-32.175
-32.15
-32.125
-32.1
-32.075
-32.05
-32.025
-32
-31.975
-31.95
-31.925
-31.9
-31.875
-31.85
-31.825
-31.8
-31.775
-31.75
-31.725
-31.7
-31.675
-31.65
-31.625
-31.6
-31.575
-31.55
-31.525
-31.5
-31.475
-31.45
-31.425
-31.4
-31.375
-31.35
-31.325
-31.3
-31.275
-31.25
-31.225
-31.2
-31.175
-31.15
-31.125
-31.1
-31.075
-31.05
-31.025
-31
-30.975
-30.95
-30.925
-30.9
-30.875
-30.85
-30.825
-30.8
-30.775
-30.75
-30.725
-30.7
-30.675
-30.65
-30.625
-30.6
-30.575
-30.55
-30.525
-30.5
-30.475
-30.45
-30.425
-30.4
-30.375
-30.35
-30.325
-30.3
-30.275
-30.25
-30.225
-30.2
-30.175
-30.15
-30.125
-30.1
-30.075
-30.05
-30.025
-30
-29.975
-29.95
-29.925
-29.9
-29.875
-29.85
-29.825
-29.8
-29.775
-29.75
-29.725
-29.7
-29.675
-29.65
-29.625
-29.6
-29.575
-29.55
-29.525
-29.5
-29.475
-29.45
-29.425
-29.4
-29.375
-29.35
-29.325
-29.3
-29.275
-29.25
-29.225
-29.2
-29.175
-29.15
-29.125
-29.1
-29.075
-29.05
-29.025
-29
-28.975
-28.95
-28.925
-28.9
-28.875
-28.85
-28.825
-28.8
-28.775
-28.75
-28.725
-28.7
-28.675
-28.65
-28.625
-28.6
-28.575
-28.55
-28.525
-28.5
-28.475
-28.45
-28.425
-28.4
-28.375
-28.35
-28.325
-28.3
-28.275
-28.25
-28.225
-28.2
-28.175
-28.15
-28.125
-28.1
-28.075
-28.05
-28.025
-28
-27.975
-27.95
-27.925
-27.9
-27.875
-27.85
-27.825
-27.8
-27.775
-27.75
-27.725
-27.7
-27.675
-27.65
-27.625
-27.6
-27.575
-27.55
-27.525
-27.5
-27.475
-27.45
-27.425
-27.4
-27.375
-27.35
-27.325
-27.3
-27.275
-27.25
-27.225
-27.2
-27.175
-27.15
-27.125
-27.1
-27.075
-27.05
-27.025
-27
-26.975
-26.95
-26.925
-26.9
-26.875
-26.85
-26.825
-26.8
-26.775
-26.75
-26.725
-26.7
-26.675
-26.65
-26.625
-26.6
-26.575
-26.55
-26.525
-26.5
-26.475
-26.45
-26.425
-26.4
-26.375
-26.35
-26.325
-26.3
-26.275
-26.25
-26.225
-26.2
-26.175
-26.15
-26.125
-26.1
-26.075
-26.05
-26.025
-26
-25.975
-25.95
-25.925
-25.9
-25.875
-25.85
-25.825
-25.8
-25.775
-25.75
-25.725
-25.7
-25.675
-25.65
-25.625
-25.6
-25.575
-25.55
-25.525
-25.5
-25.475
-25.45
-25.425
-25.4
-25.375
-25.35
-25.325
-25.3
-25.275
-25.25
-25.225
-25.2
-25.175
-25.15
-25.125
-25.1
-25.075
-25.05
-25.025
-25
-24.975
-24.95
-24.925
-24.9
-24.875
-24.85
-24.825
-24.8
-24.775
-24.75
-24.725
-24.7
-24.675
-24.65
-24.625
-24.6
-24.575
-24.55
-24.525
-24.5
-24.475
-24.45
-24.425
-24.4
-24.375
-24.35
-24.325
-24.3
-24.275
-24.25
-24.225
-24.2
-24.175
-24.15
-24.125
-24.1
-24.075
-24.05
-24.025
-24
-23.975
-23.95
-23.925
-23.9
-23.875
-23.85
-23.825
-23.8
-23.775
-23.75
-23.725
-23.7
-23.675
-23.65
-23.625
-23.6
-23.575
-23.55
-23.525
-23.5
-23.475
-23.45
-23.425
-23.4
-23.375
-23.35
-23.325
-23.3
-23.275
-23.25
-23.225
-23.2
-23.175
-23.15
-23.125
-23.1
-23.075
-23.05
-23.025
-23
-22.975
-22.95
-22.925
-22.9
-22.875
-22.85
-22.825
-22.8
-22.775
-22.75
-22.725
-22.7
-22.675
-22.65
-22.625
-22.6
-22.575
-22.55
-22.525
-22.5
-22.475
-22.45
-22.425
-22.4
-22.375
-22.35
-22.325
-22.3
-22.275
-22.25
-22.225
-22.2
-22.175
-22.15
-22.125
-22.1
-22.075
-22.05
-22.025
-22
-21.975
-21.95
-21.925
-21.9
-21.875
-21.85
-21.825
-21.8
-21.775
-21.75
-21.725
-21.7
-21.675
-21.65
-21.625
-21.6
-21.575
-21.55
-21.525
-21.5
-21.475
-21.45
-21.425
-21.4
-21.375
-21.35
-21.325
-21.3
-21.275
-21.25
-21.225
-21.2
-21.175
-21.15
-21.125
-21.1
-21.075
-21.05
-21.025
-21
-20.975
-20.95
-20.925
-20.9
-20.875
-20.85
-20.825
-20.8
-20.775
-20.75
-20.725
-20.7
-20.675
-20.65
-20.625
-20.6
-20.575
-20.55
-20.525
-20.5
-20.475
-20.45
-20.425
-20.4
-20.375
-20.35
-20.325
-20.3
-20.275
-20.25
-20.225
-20.2
-20.175
-20.15
-20.125
-20.1
-20.075
-20.05
-20.025
-20
VAR_LIST_END
BEGIN
-15.182676,-154.89224
-14.754315,-165.62752
-15.513332,-158.2487
-15.903449,-155.96278
-15.075698,-156.53026
-14.59179,-162.00749
-14.190692,-163.33311
-15.571522,-156.90044
-14.753468,-160.47649
-14.81057,-162.65025
-15.791337,-158.41132
-15.438687,-160.84308
-14.664988,-154.93712
-15.151141,-159.03647
-14.987865,-159.92638
-15.655178,-161.23714
-14.4899,-163.63673
-15.449871,-157.02908
-14.899251,-153.42453
-15.187428,-161.33038
-14.909266,-158.08826
-15.139137,-159.8801
-15.177287,-158.75841
-15.01986,-156.17589
-14.592334,-158.45633
-14.9311,-155.86299
-14.668157,-157.92746
-15.501797,-154.30902
-14.843863,-156.43529
-15.137181,-160.75981
-14.445046,-151.77435
-15.124872,-161.11414
-14.016289,-158.16998
-15.208189,-155.82881
-14.546159,-161.2959
-15.83503,-159.11844
-15.353089,-160.27528
-15.082019,-157.28902
-15.334815,-162.46507
-15.430866,-156.448
-15.514605,-158.82294
-14.788816,-159.44412
-15.494939,-162.33047
-15.277604,-157.2251
-14.988193,-158.37851
-15.500068,-156.76996
-14.976431,-160.50432
-15.255657,-160.58113
-14.868192,-155.77956
-14.759062,-160.04214
-15.334874,-157.77551
-14.40276,-155.36044
-14.861443,-154.2771
-14.878759,-156.2377
-14.845346,-157.69952
-15.298643,-156.43764
-15.314663,-156.51305
-14.965455,-159.19644
-14.431896,-157.10835
-15.793461,-159.57404
-15.401041,-158.79086
-14.660888,-163.29669
-15.550155,-158.73369
-14.711934,-156.63307
-15.300649,-158.38341
-14.794054,-161.93547
-15.162843,-157.28659
-14.92023,-159.10312
-14.872477,-163.51736
-15.532489,-158.63274
-15.145957,-158.56934
-14.783154,-159.61478
-15.121181,-160.21046
-14.353019,-154.70378
-15.002125,-157.99307
-15.329851,-162.78015
-15.38336,-160.43861
-15.24369,-158.72902
-15.141158,-156.22429
-15.086326,-158.10905
-15.609008,-154.29686
-14.744439,-159.09384
-15.440901,-159.42548
-15.929637,-155.29172
-15.222779,-154.99983
-15.159707,-160.5153
-15.194388,-156.14444
-15.038915,-159.03955
-14.867397,-157.92021
-15.031949,-165.66797
-15.180947,-157.27367
-14.446877,-160.29256
-15.062455,-158.7475
-15.082914,-156.57127
-14.577506,-158.34695
-15.190897,-155.95692
-14.879375,-157.32445
-14.924152,-157.60271
-15.35941,-158.72435
-15.680041,-157.36159
-14.953597,-160.39847
-14.875813,-162.33455
-15.02804,-160.4519
-14.965361,-156.16039
-15.622843,-159.38036
-14.566582,-159.90379
-15.084632,-161.79524
-14.791067,-159.21292
-15.488366,-161.2554
-14.802752,-158.31064
-15.52859,-159.89336
-15.343324,-159.05199
-15.385031,-153.22733
-15.224813,-155.41904
-15.509122,-157.23634
-15.024293,-160.01053
-14.33104,-158.74319
-14.936666,-155.20515
-14.955667,-160.49835
-14.955066,-158.06483
-15.139941,-158.70293
-14.825401,-156.96875
-15.601145,-156.74998
-14.874016,-160.50896
-14.471153,-161.2168
-15.543554,-151.84088
-15.481219,-160.66577
-14.754915,-161.29419
-15.244039,-157.98091
-14.511394,-160.83881
-15.194393,-158.03262
-14.766252,-158.19008
-14.947617,-161.72462
-14.495419,-159.49818
-14.525318,-158.64442
-15.000229,-158.6705
-15.177869,-160.60556
-14.930655,-162.26595
-15.641818,-161.24455
-14.938566,-157.6499
-15.490289,-156.66788
-15.373067,-156.32208
-15.393679,-158.94214
-14.894387,-156.25623
-14.610063,-162.49643
-14.236125,-157.15787
-15.481048,-164.98347
-15.149922,-158.66772
-14.541995,-156.89378
-15.071757,-157.88734
-14.913836,-162.17661
-15.631399,-158.25215
-15.298107,-155.36542
-14.851746,-157.90875
-15.116967,-155.73639
-15.410749,-158.9839
-15.174257,-158.56195
-14.988017,-157.95848
-14.807883,-160.12141
-14.826237,-157.82457
-14.996535,-160.49922
-14.757387,-157.83412
-15.325593,-154.75294
-15.190804,-158.04715
-15.073336,-157.52827
-15.469045,-161.21072
-15.48808,-157.7083
-14.820092,-159.96561
-14.780137,-159.84923
-14.817753,-160.75394
-15.166155,-160.37769
-14.441498,-158.87386
-14.411155,-161.53876
-15.110078,-161.08815
-15.594693,-157.58133
-14.798914,-160.32489
-14.551007,-157.04335
-15.021779,-161.73595
-15.709154,-161.8349
-14.870059,-157.54355
-15.00385,-161.88057
-15.454588,-160.84401
-15.045554,-155.7049
-14.796031,-160.61243
-14.969199,-160.92421
-15.567028,-157.96663
-14.913415,-156.75522
-15.03893,-160.15607
-14.570224,-162.21797
-15.059153,-158.55495
-15.109798,-153.26517
-15.010498,-160.39809
-14.656234,-157.88301
-15.120991,-156.85242
-14.776169,-160.17
-15.020663,-161.47867
-15.122004,-162.07088
-14.947228,-158.8931
-15.105038,-159.72188
-14.461798,-160.56636
-14.858193,-161.08916
-15.032386,-158.96371
-15.24825,-158.33444
-15.348392,-157.71095
-15.435487,-161.89377
-15.044116,-159.19579
-14.862544,-158.42101
-14.847357,-158.11015
-14.976356,-159.65361
-14.920392,-156.37888
-15.107077,-157.88666
-14.899393,-156.81351
-15.425498,-155.09988
-14.818224,-159.36696
-15.053664,-155.67902
-14.995016,-158.7507
-14.919092,-161.34113
-15.347671,-157.35373
-15.032062,-157.56853
-14.999668,-160.39246
-15.030867,-155.17419
-14.941129,-157.8261
-15.459737,-159.26808
-14.774913,-158.74606
-15.135181,-155.10446
-15.491759,-160.26848
-14.799744,-158.96216
-15.01137,-159.57423
-15.120671,-160.58217
-14.759115,-158.87386
-15.165117,-156.36554
-15.417506,-158.41304
-14.807914,-159.19246
-15.10893,-157.43851
-14.620284,-161.27992
-14.625939,-159.24086
-14.989743,-161.90224
-15.093896,-155.67613
-14.969094,-159.06464
-15.214199,-159.45432
-15.399819,-158.10033
-15.246501,-155.89476
-14.668782,-158.22797
-15.565776,-156.45667
-15.449336,-161.95929
-14.86447,-159.47133
-15.061331,-156.1897
-14.962072,-158.88329
-15.328691,-158.08856
-15.036309,-159.44987
-15.227817,-160.67711
-14.953918,-158.93459
-14.851947,-160.93466
-15.094608,-160.57185
-15.459344,-156.6465
-14.9856,-157.81764
-14.95396,-157.7915
-14.745657,-162.03697
-15.280307,-155.77315
-15.116712,-159.69479
-14.899973,-159.23846
-15.024067,-158.76624
-14.992236,-158.28522
-15.175056,-159.37906
-14.851253,-157.76088
-14.838649,-157.81151
-14.83047,-159.50443
-14.663302,-156.32669
-14.786837,-159.13559
-15.420831,-159.86644
-15.153882,-156.71353
-15.227387,-160.22551
-15.047199,-158.56377
-14.976851,-157.47945
-15.058458,-155.86603
-15.143835,-159.32721
-15.294538,-161.51079
-15.009177,-158.75433
-14.820001,-158.31697
-14.801883,-157.5441
-15.04126,-157.31526
-15.080285,-158.62332
-15.134308,-159.10039
-15.115083,-157.87706
-15.114758,-154.70409
-15.032596,-159.30405
-15.242679,-161.73145
-15.10345,-160.76212
-15.35094,-159.45712
-14.925928,-160.08406
-15.238185,-158.66125
-14.887308,-158.70126
-14.757824,-162.44275
-14.998644,-157.63095
-15.060089,-161.85312
-15.124246,-158.91934
-14.769994,-159.99443
-14.911481,-159.02641
-14.613288,-158.16753
-14.731042,-161.15425
-15.117098,-158.57306
-14.980104,-161.27563
-15.247622,-159.59619
-15.268649,-160.36902
-15.103069,-159.54753
-14.841136,-158.77565
-14.918548,-158.0304
-14.656165,-159.4131
-14.633124,-161.26022
-14.999167,-159.72267
-15.085258,-158.20752
-14.982219,-158.09941
-14.943694,-161.65793
-14.860624,-161.88165
-14.659824,-158.7431
-15.053812,-159.39142
-15.239457,-159.10194
-14.977833,-157.485
-15.060472,-158.96104
-15.59832,-155.85495
-15.240738,-156.93593
-15.278208,-159.97614
-15.087123,-160.64345
-15.205317,-159.44882
-14.983891,-159.65462
-15.02093,-155.75537
-14.941203,-158.00758
-15.068945,-158.70726
-14.837574,-157.96939
-15.078186,-158.93909
-15.205812,-158.87271
-15.082345,-159.04726
-15.362097,-158.75534
-15.092193,-159.95068
-14.983963,-159.57428
-15.125216,-160.56032
-14.840568,-155.57761
-15.351842,-158.60693
-14.976603,-156.576
-14.797727,-157.11403
-14.945882,-158.45001
-15.245507,-159.74355
-15.176932,-157.97279
-14.833877,-158.0907
-15.127206,-158.81511
-14.888406,-160.50726
-15.441011,-161.13141
-14.9873,-158.88919
-15.281867,-159.64001
-15.071553,-159.60493
-14.930614,-157.2009
-15.273957,-157.52242
-14.98658,-156.36598
-15.102467,-159.11458
-15.280574,-157.46202
-15.052759,-158.01129
-15.103883,-160.16022
-15.166333,-156.4561
-15.240218,-158.44058
-15.096974,-159.10631
-15.03372,-158.51976
-15.175405,-157.57544
-15.034096,-159.52695
-15.049665,-159.59514
-15.020196,-159.97748
-15.15592,-160.06831
-14.820724,-157.97316
-15.113488,-158.85556
-15.056761,-157.00209
-14.726966,-157.54474
-15.014983,-160.16316
-14.794637,-158.13939
-14.833264,-156.05573
-14.765535,-160.69952
-14.788035,-158.90598
-15.090195,-158.42839
-15.093864,-157.94759
-15.274697,-160.09483
-15.09479,-159.20097
-15.049784,-160.51367
-15.165261,-157.25266
-14.981408,-156.54752
-14.950536,-157.80678
-14.810823,-158.58736
-14.843082,-158.58994
-15.138899,-158.39474
-14.799479,-157.74451
-15.175857,-159.44334
-15.159168,-159.86272
-15.027335,-157.3167
-15.179967,-158.44043
-14.929036,-157.2449
-15.039972,-159.21086
-14.940507,-158.13463
-15.224436,-159.76886
-14.847987,-159.91362
-14.948833,-157.57523
-14.803469,-157.36066
-14.893978,-158.05241
-15.007436,-159.16664
-14.760588,-158.29489
-15.015114,-158.03464
-15.090649,-159.9917
-15.006483,-158.55724
-14.866525,-157.29277
-15.180406,-159.01863
-14.798432,-159.54201
-15.127645,-158.80826
-14.85975,-158.99593
-15.197624,-159.80388
-14.974315,-159.80563
-15.227437,-159.68019
-15.037363,-158.67563
-15.158189,-158.05981
-15.301771,-160.59212
-15.042552,-158.61142
-15.065987,-156.65271
-14.981528,-160.1825
-15.336466,-159.51572
-15.240023,-160.64949
-14.925823,-158.39656
-15.188519,-157.84798
-15.174908,-160.15993
-14.922595,-159.17067
-15.069178,-157.81476
-14.983974,-158.5117
-15.007805,-159.10825
-14.900918,-156.8268
-15.172693,-159.07796
-15.102212,-158.91011
-15.234589,-159.48831
-14.931933,-160.60568
-15.231933,-160.43079
-14.917282,-157.07741
-15.165761,-157.1104
-15.18862,-159.37872
-14.982417,-159.63855
-14.868143,-159.00009
-15.02441,-159.4769
-14.8123,-158.59232
-15.077617,-159.12367
-14.968552,-158.85191
-15.04425,-157.52522
-14.817224,-159.29298
-15.127464,-159.62592
-15.162471,-158.91725
-15.054014,-159.63321
-14.961028,-159.24838
-14.779392,-159.50142
-15.027822,-159.00443
-15.085748,-158.95723
-14.921944,-159.33505
-15.030596,-158.24367
-14.965958,-157.45319
-14.962028,-160.33551
-15.084074,-159.03671
-14.998926,-158.45578
-15.004034,-158.6171
-15.059888,-156.74698
-14.971608,-157.92679
-15.012569,-158.09515
-15.092387,-158.38635
-14.8728,-158.73041
-15.368904,-159.20976
-15.044331,-158.41768
-15.026166,-160.68506
-14.806731,-159.22418
-15.034106,-159.76184
-15.162456,-157.78279
-15.064965,-158.81853
-15.043411,-160.17859
-15.042914,-159.26338
-15.188309,-158.75526
-14.92028,-159.03337
-15.350314,-159.16472
-15.050984,-158.58116
-14.921774,-158.71652
-14.949215,-159.23155
-15.019756,-160.19525
-15.068292,-159.20964
-15.077985,-157.81454
-14.98552,-160.15538
-15.313188,-158.25485
-15.184988,-158.61156
-15.092245,-158.15898
-15.140072,-160.2254
-14.891841,-157.75478
-15.240693,-159.1884
-15.297026,-158.81787
-15.178367,-158.40866
-15.282238,-159.48256
-14.966538,-158.56793
-15.164551,-158.98494
-15.107676,-158.68468
-15.027032,-158.63348
-15.105887,-158.7636
-15.097333,-159.43684
-14.983754,-158.63745
-15.05629,-159.60257
-15.085774,-158.21103
-15.107193,-158.89078
-15.264951,-157.29622
-15.070737,-158.75098
-15.018373,-159.67567
-14.921123,-159.37628
-15.152567,-157.60789
-14.978628,-159.16942
-15.243874,-160.57649
-15.199151,-159.47308
-15.09704,-159.73415
-14.835271,-158.70126
-15.134259,-159.43042
-15.018206,-157.80475
-15.093064,-158.38116
-14.933607,-158.98257
-15.110579,-160.72237
-15.027038,-159.83846
-15.112543,-158.38226
-15.010243,-158.37279
-15.051306,-158.41953
-15.174768,-158.93906
-14.851646,-159.16066
-15.106575,-159.86383
-15.00955,-158.48212
-15.009923,-159.29526
-15.049906,-159.3419
-15.076335,-160.49208
-14.888121,-159.36581
-14.899326,-158.21565
-15.166908,-159.94975
-15.081991,-158.90971
-14.749601,-158.17395
-15.084781,-159.41463
-14.97637,-158.49788
-15.138415,-159.27574
-14.967499,-157.78194
-15.114854,-158.448
-14.966559,-159.03223
-15.268709,-158.06012
-15.101159,-159.59128
-15.109248,-158.14677
-15.125767,-158.6313
-14.919209,-158.86166
-15.098646,-158.45834
-15.008445,-159.0549
-15.082154,-158.50899
-15.049749,-158.59415
-14.984512,-160.15341
-15.029472,-158.8503
-15.037107,-158.70183
-15.010746,-159.81325
-14.720991,-158.85928
-14.964203,-159.44444
-14.914412,-158.90875
-14.982652,-159.2296
-15.098707,-159.84959
-15.148323,-159.5822
-15.052938,-158.60353
-15.137085,-159.30864
-14.960741,-157.37279
-15.022514,-159.13396
-15.003523,-157.42615
-14.716604,-157.71451
-15.005672,-159.23747
-15.111743,-157.88663
-15.02936,-158.86052
-14.950113,-158.58693
-14.914944,-158.95036
-14.875069,-158.82759
-15.077718,-158.93213
-14.938694,-157.63889
-14.991341,-159.73016
-14.919254,-158.3768
-15.172307,-158.97729
-14.993732,-158.85025
