CITIFILE A.01.01
!Agilent Technologies,N5230C,MY48100142,A.08.04.10
!Agilent N5230C: A.08.04.10
!Date: Tuesday, August 30, 2022 11:38:41
NAME CH1_DATA
VAR Power MAG 801
DATA S11 RI
DATA S21 RI
DATA S12 RI
DATA S22 RI
VAR_LIST_BEGIN
-40
-39.975
-39.95
-39.925
-39.9
-39.875
-39.85
-39.825
-39.8
-39.775
-39.75
-39.725
-39.7
-39.675
-39.65
-39.625
-39.6
-39.575
-39.55
-39.525
-39.5
-39.475
-39.45
-39.425
-39.4
-39.375
-39.35
-39.325
-39.3
-39.275
-39.25
-39.225
-39.2
-39.175
-39.15
-39.125
-39.1
-39.075
-39.05
-39.025
-39
-38.975
-38.95
-38.925
-38.9
-38.875
-38.85
-38.825
-38.8
-38.775
-38.75
-38.725
-38.7
-38.675
-38.65
-38.625
-38.6
-38.575
-38.55
-38.525
-38.5
-38.475
-38.45
-38.425
-38.4
-38.375
-38.35
-38.325
-38.3
-38.275
-38.25
-38.225
-38.2
-38.175
-38.15
-38.125
-38.1
-38.075
-38.05
-38.025
-38
-37.975
-37.95
-37.925
-37.9
-37.875
-37.85
-37.825
-37.8
-37.775
-37.75
-37.725
-37.7
-37.675
-37.65
-37.625
-37.6
-37.575
-37.55
-37.525
-37.5
-37.475
-37.45
-37.425
-37.4
-37.375
-37.35
-37.325
-37.3
-37.275
-37.25
-37.225
-37.2
-37.175
-37.15
-37.125
-37.1
-37.075
-37.05
-37.025
-37
-36.975
-36.95
-36.925
-36.9
-36.875
-36.85
-36.825
-36.8
-36.775
-36.75
-36.725
-36.7
-36.675
-36.65
-36.625
-36.6
-36.575
-36.55
-36.525
-36.5
-36.475
-36.45
-36.425
-36.4
-36.375
-36.35
-36.325
-36.3
-36.275
-36.25
-36.225
-36.2
-36.175
-36.15
-36.125
-36.1
-36.075
-36.05
-36.025
-36
-35.975
-35.95
-35.925
-35.9
-35.875
-35.85
-35.825
-35.8
-35.775
-35.75
-35.725
-35.7
-35.675
-35.65
-35.625
-35.6
-35.575
-35.55
-35.525
-35.5
-35.475
-35.45
-35.425
-35.4
-35.375
-35.35
-35.325
-35.3
-35.275
-35.25
-35.225
-35.2
-35.175
-35.15
-35.125
-35.1
-35.075
-35.05
-35.025
-35
-34.975
-34.95
-34.925
-34.9
-34.875
-34.85
-34.825
-34.8
-34.775
-34.75
-34.725
-34.7
-34.675
-34.65
-34.625
-34.6
-34.575
-34.55
-34.525
-34.5
-34.475
-34.45
-34.425
-34.4
-34.375
-34.35
-34.325
-34.3
-34.275
-34.25
-34.225
-34.2
-34.175
-34.15
-34.125
-34.1
-34.075
-34.05
-34.025
-34
-33.975
-33.95
-33.925
-33.9
-33.875
-33.85
-33.825
-33.8
-33.775
-33.75
-33.725
-33.7
-33.675
-33.65
-33.625
-33.6
-33.575
-33.55
-33.525
-33.5
-33.475
-33.45
-33.425
-33.4
-33.375
-33.35
-33.325
-33.3
-33.275
-33.25
-33.225
-33.2
-33.175
-33.15
-33.125
-33.1
-33.075
-33.05
-33.025
-33
-32.975
-32.95
-32.925
-32.9
-32.875
-32.85
-32.825
-32.8
-32.775
-32.75
-32.725
-32.7
-32.675
-32.65
-32.625
-32.6
-32.575
-32.55
-32.525
-32.5
-32.475
-32.45
-32.425
-32.4
-32.375
-32.35
-32.325
-32.3
-32.275
-32.25
-32.225
-32.2
-32.175
-32.15
-32.125
-32.1
-32.075
-32.05
-32.025
-32
-31.975
-31.95
-31.925
-31.9
-31.875
-31.85
-31.825
-31.8
-31.775
-31.75
-31.725
-31.7
-31.675
-31.65
-31.625
-31.6
-31.575
-31.55
-31.525
-31.5
-31.475
-31.45
-31.425
-31.4
-31.375
-31.35
-31.325
-31.3
-31.275
-31.25
-31.225
-31.2
-31.175
-31.15
-31.125
-31.1
-31.075
-31.05
-31.025
-31
-30.975
-30.95
-30.925
-30.9
-30.875
-30.85
-30.825
-30.8
-30.775
-30.75
-30.725
-30.7
-30.675
-30.65
-30.625
-30.6
-30.575
-30.55
-30.525
-30.5
-30.475
-30.45
-30.425
-30.4
-30.375
-30.35
-30.325
-30.3
-30.275
-30.25
-30.225
-30.2
-30.175
-30.15
-30.125
-30.1
-30.075
-30.05
-30.025
-30
-29.975
-29.95
-29.925
-29.9
-29.875
-29.85
-29.825
-29.8
-29.775
-29.75
-29.725
-29.7
-29.675
-29.65
-29.625
-29.6
-29.575
-29.55
-29.525
-29.5
-29.475
-29.45
-29.425
-29.4
-29.375
-29.35
-29.325
-29.3
-29.275
-29.25
-29.225
-29.2
-29.175
-29.15
-29.125
-29.1
-29.075
-29.05
-29.025
-29
-28.975
-28.95
-28.925
-28.9
-28.875
-28.85
-28.825
-28.8
-28.775
-28.75
-28.725
-28.7
-28.675
-28.65
-28.625
-28.6
-28.575
-28.55
-28.525
-28.5
-28.475
-28.45
-28.425
-28.4
-28.375
-28.35
-28.325
-28.3
-28.275
-28.25
-28.225
-28.2
-28.175
-28.15
-28.125
-28.1
-28.075
-28.05
-28.025
-28
-27.975
-27.95
-27.925
-27.9
-27.875
-27.85
-27.825
-27.8
-27.775
-27.75
-27.725
-27.7
-27.675
-27.65
-27.625
-27.6
-27.575
-27.55
-27.525
-27.5
-27.475
-27.45
-27.425
-27.4
-27.375
-27.35
-27.325
-27.3
-27.275
-27.25
-27.225
-27.2
-27.175
-27.15
-27.125
-27.1
-27.075
-27.05
-27.025
-27
-26.975
-26.95
-26.925
-26.9
-26.875
-26.85
-26.825
-26.8
-26.775
-26.75
-26.725
-26.7
-26.675
-26.65
-26.625
-26.6
-26.575
-26.55
-26.525
-26.5
-26.475
-26.45
-26.425
-26.4
-26.375
-26.35
-26.325
-26.3
-26.275
-26.25
-26.225
-26.2
-26.175
-26.15
-26.125
-26.1
-26.075
-26.05
-26.025
-26
-25.975
-25.95
-25.925
-25.9
-25.875
-25.85
-25.825
-25.8
-25.775
-25.75
-25.725
-25.7
-25.675
-25.65
-25.625
-25.6
-25.575
-25.55
-25.525
-25.5
-25.475
-25.45
-25.425
-25.4
-25.375
-25.35
-25.325
-25.3
-25.275
-25.25
-25.225
-25.2
-25.175
-25.15
-25.125
-25.1
-25.075
-25.05
-25.025
-25
-24.975
-24.95
-24.925
-24.9
-24.875
-24.85
-24.825
-24.8
-24.775
-24.75
-24.725
-24.7
-24.675
-24.65
-24.625
-24.6
-24.575
-24.55
-24.525
-24.5
-24.475
-24.45
-24.425
-24.4
-24.375
-24.35
-24.325
-24.3
-24.275
-24.25
-24.225
-24.2
-24.175
-24.15
-24.125
-24.1
-24.075
-24.05
-24.025
-24
-23.975
-23.95
-23.925
-23.9
-23.875
-23.85
-23.825
-23.8
-23.775
-23.75
-23.725
-23.7
-23.675
-23.65
-23.625
-23.6
-23.575
-23.55
-23.525
-23.5
-23.475
-23.45
-23.425
-23.4
-23.375
-23.35
-23.325
-23.3
-23.275
-23.25
-23.225
-23.2
-23.175
-23.15
-23.125
-23.1
-23.075
-23.05
-23.025
-23
-22.975
-22.95
-22.925
-22.9
-22.875
-22.85
-22.825
-22.8
-22.775
-22.75
-22.725
-22.7
-22.675
-22.65
-22.625
-22.6
-22.575
-22.55
-22.525
-22.5
-22.475
-22.45
-22.425
-22.4
-22.375
-22.35
-22.325
-22.3
-22.275
-22.25
-22.225
-22.2
-22.175
-22.15
-22.125
-22.1
-22.075
-22.05
-22.025
-22
-21.975
-21.95
-21.925
-21.9
-21.875
-21.85
-21.825
-21.8
-21.775
-21.75
-21.725
-21.7
-21.675
-21.65
-21.625
-21.6
-21.575
-21.55
-21.525
-21.5
-21.475
-21.45
-21.425
-21.4
-21.375
-21.35
-21.325
-21.3
-21.275
-21.25
-21.225
-21.2
-21.175
-21.15
-21.125
-21.1
-21.075
-21.05
-21.025
-21
-20.975
-20.95
-20.925
-20.9
-20.875
-20.85
-20.825
-20.8
-20.775
-20.75
-20.725
-20.7
-20.675
-20.65
-20.625
-20.6
-20.575
-20.55
-20.525
-20.5
-20.475
-20.45
-20.425
-20.4
-20.375
-20.35
-20.325
-20.3
-20.275
-20.25
-20.225
-20.2
-20.175
-20.15
-20.125
-20.1
-20.075
-20.05
-20.025
-20
VAR_LIST_END
BEGIN
-0.16823959,-0.074303865
-0.17021087,-0.088498019
-0.17804159,-0.069910482
-0.17408639,-0.066188514
-0.1679766,-0.080915831
-0.16006266,-0.084455535
-0.16292816,-0.086054407
-0.18234137,-0.063890249
-0.17741679,-0.094172239
-0.17851354,-0.07272692
-0.17350759,-0.075625882
-0.17431398,-0.078546755
-0.17160663,-0.077147804
-0.16538259,-0.071131974
-0.16922024,-0.08966592
-0.16507581,-0.087791763
-0.17530124,-0.086322986
-0.19739307,-0.08207196
-0.16253464,-0.08483801
-0.16824804,-0.096439727
-0.16806056,-0.086953245
-0.18361636,-0.073895417
-0.16905022,-0.088165656
-0.17316857,-0.080498636
-0.17018925,-0.08288078
-0.14985991,-0.083843119
-0.18915981,-0.06883195
-0.18070716,-0.070976481
-0.16033572,-0.097027093
-0.17242818,-0.077207252
-0.1622723,-0.082330145
-0.16379152,-0.081263162
-0.18461873,-0.091252662
-0.16397694,-0.085517153
-0.17418598,-0.075118452
-0.17514768,-0.085836634
-0.16039014,-0.079878822
-0.17105426,-0.092571549
-0.17573181,-0.070558123
-0.17898062,-0.095098183
-0.16267332,-0.074024752
-0.17242801,-0.085025437
-0.15884626,-0.083479986
-0.1741177,-0.093907617
-0.1781362,-0.081290275
-0.18230067,-0.086624883
-0.17843375,-0.086774133
-0.16358912,-0.087745488
-0.17821267,-0.087886885
-0.17615345,-0.080202878
-0.17620949,-0.081150532
-0.1888095,-0.080326661
-0.15531226,-0.063449815
-0.1522231,-0.072069131
-0.17624082,-0.080594085
-0.17765696,-0.10192804
-0.17667502,-0.082932718
-0.18107349,-0.082992852
-0.16893046,-0.097002462
-0.17744392,-0.089190595
-0.17624407,-0.067015462
-0.18451294,-0.073020704
-0.16390307,-0.077834524
-0.17120129,-0.078667738
-0.17578122,-0.09064661
-0.17239118,-0.08194308
-0.16525663,-0.079710171
-0.17176674,-0.079505496
-0.17295039,-0.072610669
-0.16535632,-0.085124239
-0.17874224,-0.084442832
-0.17382127,-0.079542302
-0.16814113,-0.091245435
-0.16553424,-0.086039335
-0.18375683,-0.078706279
-0.16697818,-0.083540156
-0.15934175,-0.073444471
-0.16485137,-0.085486531
-0.17317912,-0.082947277
-0.19206297,-0.092960604
-0.17639451,-0.079480864
-0.16401364,-0.079295725
-0.15965423,-0.081331782
-0.16443108,-0.079753809
-0.17146297,-0.070459381
-0.17174758,-0.085412599
-0.17236866,-0.087576918
-0.17100266,-0.092991211
-0.17519899,-0.085994728
-0.18409798,-0.079422571
-0.162028,-0.084797874
-0.15984589,-0.07075274
-0.17325352,-0.07968279
-0.19195855,-0.07390812
-0.18425527,-0.072768897
-0.16967957,-0.082140841
-0.17024992,-0.069547109
-0.17631264,-0.079234138
-0.17900482,-0.086853258
-0.17150906,-0.086933427
-0.17376938,-0.078085095
-0.18157721,-0.088811271
-0.17788088,-0.073936008
-0.18685983,-0.10176302
-0.16603272,-0.095065877
-0.17784354,-0.084833227
-0.16812015,-0.099903673
-0.17606375,-0.084564723
-0.17237498,-0.090396218
-0.16853328,-0.078851789
-0.1692787,-0.074512832
-0.16871546,-0.091175161
-0.16074659,-0.091589771
-0.17135063,-0.07646054
-0.16983427,-0.084509119
-0.16495734,-0.094176024
-0.17695834,-0.088811114
-0.16115424,-0.087458663
-0.16548473,-0.075676523
-0.17142528,-0.077030875
-0.1745223,-0.085430361
-0.17443086,-0.087653622
-0.17258325,-0.080204621
-0.16693851,-0.086696193
-0.17179288,-0.079847403
-0.17799021,-0.084558129
-0.16464357,-0.083247721
-0.18003014,-0.09048558
-0.17089814,-0.085040115
-0.16858861,-0.074157454
-0.161788,-0.077439018
-0.17954743,-0.083830982
-0.16273788,-0.081471331
-0.16728167,-0.09275718
-0.17286231,-0.083067246
-0.16938859,-0.080638327
-0.16988744,-0.090641662
-0.16105551,-0.082525507
-0.16897134,-0.074256562
-0.17993426,-0.074858852
-0.16014364,-0.083774902
-0.16639695,-0.077230848
-0.16867281,-0.06778872
-0.17675351,-0.075075462
-0.17209622,-0.083900698
-0.16722387,-0.083580501
-0.16865812,-0.087828495
-0.17420778,-0.079166658
-0.16554561,-0.080375604
-0.18255837,-0.070417881
-0.18274127,-0.09335833
-0.17898613,-0.076958708
-0.17441547,-0.094002359
-0.16777672,-0.081924036
-0.16621356,-0.082610235
-0.18384145,-0.076271646
-0.1733858,-0.07013347
-0.17240867,-0.084503308
-0.17592829,-0.068104781
-0.17351747,-0.08325728
-0.16544132,-0.083955832
-0.17644483,-0.078848436
-0.17038423,-0.088487111
-0.17884953,-0.082164355
-0.17162292,-0.086475931
-0.17604494,-0.082686968
-0.17464548,-0.080206126
-0.17015131,-0.073993996
-0.17389058,-0.068764634
-0.18091148,-0.080811828
-0.17089988,-0.087203212
-0.1667089,-0.074702591
-0.17050467,-0.082946576
-0.16491269,-0.07256458
-0.18313375,-0.084316604
-0.16731629,-0.077092282
-0.17493321,-0.07043311
-0.1869605,-0.093644515
-0.17394087,-0.084025286
-0.17547637,-0.08536645
-0.16895309,-0.086260401
-0.17690791,-0.083517544
-0.18290731,-0.071530096
-0.16456841,-0.074906178
-0.16909173,-0.075949721
-0.16967848,-0.076592617
-0.16891608,-0.087252572
-0.16776843,-0.072712243
-0.17166276,-0.0814761
-0.17424959,-0.0897865
-0.17927133,-0.07877361
-0.1682086,-0.079461016
-0.17561164,-0.081708834
-0.16290194,-0.088824749
-0.17206298,-0.085004002
-0.17594945,-0.080564119
-0.16797237,-0.07735838
-0.17140885,-0.086314134
-0.18503185,-0.085526727
-0.177265,-0.084054165
-0.17274235,-0.081061058
-0.18081422,-0.084854372
-0.17647818,-0.077149831
-0.17855616,-0.086248308
-0.1683861,-0.089102611
-0.17363425,-0.079883635
-0.17334035,-0.076660395
-0.18134286,-0.081989951
-0.16294467,-0.083489828
-0.17135237,-0.078800276
-0.16597933,-0.082527705
-0.18235141,-0.08566086
-0.16896056,-0.078226566
-0.1651725,-0.077440381
-0.16454884,-0.07066159
-0.17771111,-0.078118965
-0.17538342,-0.077796526
-0.18375699,-0.080607451
-0.17349949,-0.07709793
-0.16443202,-0.087265268
-0.17681338,-0.084616221
-0.16997725,-0.08515764
-0.17877731,-0.085315377
-0.1794627,-0.089752711
-0.16545209,-0.07187409
-0.17723928,-0.090173118
-0.1777063,-0.084570184
-0.17834426,-0.089271091
-0.17652532,-0.091845036
-0.16762593,-0.088307649
-0.16031218,-0.08709082
-0.17385927,-0.078531988
-0.17976171,-0.074087098
-0.17520693,-0.081829108
-0.17999117,-0.07561408
-0.166224,-0.082148768
-0.16199386,-0.071896888
-0.17351684,-0.090748079
-0.16713357,-0.081977688
-0.16834863,-0.08373747
-0.17480671,-0.078782238
-0.17948069,-0.086710051
-0.17062743,-0.082454592
-0.17183477,-0.075009927
-0.16719876,-0.083143018
-0.17436872,-0.078892536
-0.16766281,-0.080599211
-0.17822601,-0.086024418
-0.18145587,-0.079664804
-0.1759495,-0.077823035
-0.17587997,-0.078736462
-0.16990715,-0.081229016
-0.1712088,-0.084389411
-0.17337486,-0.080346897
-0.17562474,-0.081277415
-0.17455226,-0.083816178
-0.17053364,-0.07988476
-0.17701252,-0.072323419
-0.16165526,-0.075408116
-0.17262827,-0.085895412
-0.17626426,-0.082346536
-0.17448068,-0.079618052
-0.17043382,-0.081590742
-0.17587732,-0.078796186
-0.16801046,-0.077040583
-0.16778789,-0.083073251
-0.17003272,-0.075505428
-0.17162025,-0.088376194
-0.16950431,-0.07925339
-0.16684577,-0.083877869
-0.18018162,-0.085239112
-0.16917105,-0.078324951
-0.17666368,-0.087705202
-0.16612716,-0.083981879
-0.18100084,-0.093955293
-0.17644803,-0.079898477
-0.1705188,-0.081730381
-0.16852978,-0.083321631
-0.17700177,-0.070358239
-0.16945854,-0.084656969
-0.18167907,-0.082108021
-0.17141876,-0.079879709
-0.17196177,-0.077394247
-0.17256923,-0.075840101
-0.16816446,-0.080848925
-0.16979113,-0.078862369
-0.17593049,-0.085594125
-0.1694621,-0.084808476
-0.18107787,-0.081702217
-0.17103915,-0.079751931
-0.16906929,-0.075619675
-0.17016086,-0.075511865
-0.17242636,-0.076477312
-0.17981723,-0.086112477
-0.17302443,-0.083045214
-0.17522946,-0.084944084
-0.16833152,-0.081063703
-0.17590673,-0.07586576
-0.17522928,-0.070255399
-0.17466144,-0.081370994
-0.16973229,-0.078730077
-0.17300715,-0.079831548
-0.16553955,-0.081096053
-0.17196906,-0.081993409
-0.17653513,-0.081404068
-0.16657124,-0.07714247
-0.17358807,-0.075239144
-0.16988085,-0.081304193
-0.1633551,-0.074820608
-0.18383962,-0.081595331
-0.17502578,-0.081132479
-0.16670187,-0.084022157
-0.16886528,-0.086149156
-0.1626199,-0.07705158
-0.17491895,-0.080097951
-0.17252144,-0.08458183
-0.17428605,-0.083634146
-0.17008373,-0.084381863
-0.1682757,-0.08669056
-0.18154322,-0.083255716
-0.16770609,-0.083791904
-0.1700675,-0.083547905
-0.17850345,-0.090390459
-0.17126812,-0.081058621
-0.17400983,-0.082553774
-0.16750388,-0.078533351
-0.17254212,-0.083182566
-0.17450438,-0.086332649
-0.173135,-0.08747603
-0.16520596,-0.078790188
-0.17377731,-0.08532095
-0.17047378,-0.085420594
-0.16874611,-0.087274686
-0.17634805,-0.0865044
-0.1770606,-0.079989254
-0.18025309,-0.085672259
-0.17451149,-0.081770048
-0.17432891,-0.07970389
-0.17043495,-0.084355198
-0.18050636,-0.082956135
-0.17021833,-0.076469503
-0.16373459,-0.084448501
-0.1730215,-0.08232791
-0.16994846,-0.081244633
-0.17283928,-0.085171707
-0.17402335,-0.077878624
-0.17758633,-0.078108475
-0.17911488,-0.084182911
-0.17062886,-0.079500064
-0.17362997,-0.079552971
-0.17207526,-0.082507029
-0.17689025,-0.075644456
-0.16913928,-0.08209113
-0.17064583,-0.076662742
-0.17439866,-0.082805604
-0.17292586,-0.082335711
-0.17678924,-0.080682784
-0.17271198,-0.079904795
-0.17587528,-0.078928635
-0.17688675,-0.075757734
-0.17175591,-0.078209482
-0.1727774,-0.082724683
-0.17396775,-0.08756572
-0.17559455,-0.079756886
-0.17247933,-0.080990531
-0.17608449,-0.075981364
-0.18083555,-0.083361112
-0.16915274,-0.081396438
-0.16868289,-0.082078502
-0.1780908,-0.087477162
-0.17743449,-0.084269077
-0.17128627,-0.091578811
-0.17247684,-0.07848908
-0.17491059,-0.080304563
-0.17291173,-0.084442146
-0.17676933,-0.080743603
-0.17063145,-0.08070109
-0.17455956,-0.077691384
-0.1735173,-0.079065591
-0.17202355,-0.084560141
-0.16890316,-0.084374502
-0.17778017,-0.087760508
-0.17425521,-0.087430753
-0.17401911,-0.085315362
-0.17179142,-0.084771849
-0.17874701,-0.076814726
-0.16852805,-0.07703232
-0.17247537,-0.0886373
-0.17077337,-0.078870982
-0.17095774,-0.083480403
-0.1780062,-0.081332549
-0.1768554,-0.084233955
-0.17236556,-0.076862499
-0.17138062,-0.073198646
-0.17085011,-0.081363097
-0.1721618,-0.085685566
-0.16996863,-0.083614811
-0.17010391,-0.073969953
-0.17207699,-0.081638649
-0.17267171,-0.084404945
-0.17150113,-0.08112409
-0.16956227,-0.088321917
-0.16933355,-0.084270425
-0.17203756,-0.077145576
-0.17418495,-0.086621009
-0.16985264,-0.086493455
-0.16657458,-0.078238301
-0.17639165,-0.080620021
-0.17466775,-0.085027076
-0.17132425,-0.081064038
-0.17779757,-0.084161758
-0.17126402,-0.083870523
-0.17482024,-0.079452328
-0.17425767,-0.088672012
-0.1743391,-0.081850119
-0.17145012,-0.073239177
-0.17247751,-0.084588796
-0.16616791,-0.082236983
-0.17671092,-0.086277626
-0.17402363,-0.079153441
-0.17528056,-0.086914688
-0.17265861,-0.080756009
-0.17545797,-0.08480081
-0.16859549,-0.084018335
-0.17890434,-0.079867795
-0.16814466,-0.081876159
-0.17348939,-0.080751561
-0.17728087,-0.076000929
-0.17107698,-0.083228327
-0.17268063,-0.084098049
-0.1729638,-0.077902079
-0.1711545,-0.080488414
-0.17439179,-0.080520637
-0.17170264,-0.084789917
-0.17174192,-0.081591353
-0.16828091,-0.084524445
-0.17244717,-0.083381653
-0.17059311,-0.083196156
-0.17221934,-0.077395372
-0.17438796,-0.081143625
-0.17181249,-0.079202056
-0.17320606,-0.084300175
-0.17659242,-0.084422261
-0.1731267,-0.084073901
-0.17272751,-0.079447001
-0.1737759,-0.080991596
-0.17285217,-0.080731526
-0.1694324,-0.086896062
-0.17238906,-0.083319776
-0.17434677,-0.081249192
-0.16788419,-0.081386596
-0.17709102,-0.085216805
-0.16992691,-0.08515092
-0.16789028,-0.084878758
-0.16890736,-0.078767195
-0.17149371,-0.080668874
-0.16910844,-0.085224956
-0.17243764,-0.082891703
-0.17199963,-0.085494749
-0.17558809,-0.078331314
-0.17766109,-0.082314081
-0.17431919,-0.074855991
-0.17192952,-0.078081593
-0.17144114,-0.077497832
-0.17196095,-0.082840912
-0.16948736,-0.08279673
-0.17450312,-0.080504604
-0.17909253,-0.077319779
-0.16795003,-0.079071604
-0.17011239,-0.081812494
-0.17195626,-0.082486175
-0.17181773,-0.084730022
-0.17197935,-0.091622353
-0.16876699,-0.086673908
-0.17408834,-0.084394753
-0.17091639,-0.080567695
-0.17002782,-0.085205689
-0.17512423,-0.084879592
-0.172446,-0.080214098
-0.17294262,-0.087580748
-0.17736404,-0.086332664
-0.17289308,-0.076851957
-0.17890267,-0.08328525
-0.17859174,-0.085920572
-0.17722496,-0.083967499
-0.17387919,-0.082627326
-0.17211646,-0.083934568
-0.17345826,-0.077488169
-0.17468703,-0.078710988
-0.16767135,-0.083571076
-0.16974688,-0.080730841
-0.16916125,-0.081592746
-0.17636625,-0.080743916
-0.17056656,-0.083434433
-0.17428094,-0.080150947
-0.17458181,-0.077480815
-0.17160742,-0.080474488
-0.17204139,-0.086406112
-0.17331018,-0.084667139
-0.17674971,-0.084247291
-0.17510276,-0.082772627
-0.17206071,-0.078998551
-0.17812714,-0.086601071
-0.17209427,-0.081669703
-0.17108829,-0.08136981
-0.1725315,-0.08247681
-0.17294209,-0.084536619
-0.17685053,-0.077149034
-0.17116573,-0.083871238
-0.17095368,-0.082751349
-0.17120636,-0.077528514
