CITIFILE A.01.01
!Agilent Technologies,N5230C,MY48100142,A.08.04.10
!Agilent N5230C: A.08.04.10
!Format: LogMag/Angle
!Date: Friday, February 14, 2020 15:22:38
NAME CH1_DATA
VAR Power MAG 801
DATA S11 DBANGLE
DATA S21 DBANGLE
DATA S12 DBANGLE
DATA S22 DBANGLE
VAR_LIST_BEGIN
-40
-39.975
-39.95
-39.925
-39.9
-39.875
-39.85
-39.825
-39.8
-39.775
-39.75
-39.725
-39.7
-39.675
-39.65
-39.625
-39.6
-39.575
-39.55
-39.525
-39.5
-39.475
-39.45
-39.425
-39.4
-39.375
-39.35
-39.325
-39.3
-39.275
-39.25
-39.225
-39.2
-39.175
-39.15
-39.125
-39.1
-39.075
-39.05
-39.025
-39
-38.975
-38.95
-38.925
-38.9
-38.875
-38.85
-38.825
-38.8
-38.775
-38.75
-38.725
-38.7
-38.675
-38.65
-38.625
-38.6
-38.575
-38.55
-38.525
-38.5
-38.475
-38.45
-38.425
-38.4
-38.375
-38.35
-38.325
-38.3
-38.275
-38.25
-38.225
-38.2
-38.175
-38.15
-38.125
-38.1
-38.075
-38.05
-38.025
-38
-37.975
-37.95
-37.925
-37.9
-37.875
-37.85
-37.825
-37.8
-37.775
-37.75
-37.725
-37.7
-37.675
-37.65
-37.625
-37.6
-37.575
-37.55
-37.525
-37.5
-37.475
-37.45
-37.425
-37.4
-37.375
-37.35
-37.325
-37.3
-37.275
-37.25
-37.225
-37.2
-37.175
-37.15
-37.125
-37.1
-37.075
-37.05
-37.025
-37
-36.975
-36.95
-36.925
-36.9
-36.875
-36.85
-36.825
-36.8
-36.775
-36.75
-36.725
-36.7
-36.675
-36.65
-36.625
-36.6
-36.575
-36.55
-36.525
-36.5
-36.475
-36.45
-36.425
-36.4
-36.375
-36.35
-36.325
-36.3
-36.275
-36.25
-36.225
-36.2
-36.175
-36.15
-36.125
-36.1
-36.075
-36.05
-36.025
-36
-35.975
-35.95
-35.925
-35.9
-35.875
-35.85
-35.825
-35.8
-35.775
-35.75
-35.725
-35.7
-35.675
-35.65
-35.625
-35.6
-35.575
-35.55
-35.525
-35.5
-35.475
-35.45
-35.425
-35.4
-35.375
-35.35
-35.325
-35.3
-35.275
-35.25
-35.225
-35.2
-35.175
-35.15
-35.125
-35.1
-35.075
-35.05
-35.025
-35
-34.975
-34.95
-34.925
-34.9
-34.875
-34.85
-34.825
-34.8
-34.775
-34.75
-34.725
-34.7
-34.675
-34.65
-34.625
-34.6
-34.575
-34.55
-34.525
-34.5
-34.475
-34.45
-34.425
-34.4
-34.375
-34.35
-34.325
-34.3
-34.275
-34.25
-34.225
-34.2
-34.175
-34.15
-34.125
-34.1
-34.075
-34.05
-34.025
-34
-33.975
-33.95
-33.925
-33.9
-33.875
-33.85
-33.825
-33.8
-33.775
-33.75
-33.725
-33.7
-33.675
-33.65
-33.625
-33.6
-33.575
-33.55
-33.525
-33.5
-33.475
-33.45
-33.425
-33.4
-33.375
-33.35
-33.325
-33.3
-33.275
-33.25
-33.225
-33.2
-33.175
-33.15
-33.125
-33.1
-33.075
-33.05
-33.025
-33
-32.975
-32.95
-32.925
-32.9
-32.875
-32.85
-32.825
-32.8
-32.775
-32.75
-32.725
-32.7
-32.675
-32.65
-32.625
-32.6
-32.575
-32.55
-32.525
-32.5
-32.475
-32.45
-32.425
-32.4
-32.375
-32.35
-32.325
-32.3
-32.275
-32.25
-32.225
-32.2
-32.175
-32.15
-32.125
-32.1
-32.075
-32.05
-32.025
-32
-31.975
-31.95
-31.925
-31.9
-31.875
-31.85
-31.825
-31.8
-31.775
-31.75
-31.725
-31.7
-31.675
-31.65
-31.625
-31.6
-31.575
-31.55
-31.525
-31.5
-31.475
-31.45
-31.425
-31.4
-31.375
-31.35
-31.325
-31.3
-31.275
-31.25
-31.225
-31.2
-31.175
-31.15
-31.125
-31.1
-31.075
-31.05
-31.025
-31
-30.975
-30.95
-30.925
-30.9
-30.875
-30.85
-30.825
-30.8
-30.775
-30.75
-30.725
-30.7
-30.675
-30.65
-30.625
-30.6
-30.575
-30.55
-30.525
-30.5
-30.475
-30.45
-30.425
-30.4
-30.375
-30.35
-30.325
-30.3
-30.275
-30.25
-30.225
-30.2
-30.175
-30.15
-30.125
-30.1
-30.075
-30.05
-30.025
-30
-29.975
-29.95
-29.925
-29.9
-29.875
-29.85
-29.825
-29.8
-29.775
-29.75
-29.725
-29.7
-29.675
-29.65
-29.625
-29.6
-29.575
-29.55
-29.525
-29.5
-29.475
-29.45
-29.425
-29.4
-29.375
-29.35
-29.325
-29.3
-29.275
-29.25
-29.225
-29.2
-29.175
-29.15
-29.125
-29.1
-29.075
-29.05
-29.025
-29
-28.975
-28.95
-28.925
-28.9
-28.875
-28.85
-28.825
-28.8
-28.775
-28.75
-28.725
-28.7
-28.675
-28.65
-28.625
-28.6
-28.575
-28.55
-28.525
-28.5
-28.475
-28.45
-28.425
-28.4
-28.375
-28.35
-28.325
-28.3
-28.275
-28.25
-28.225
-28.2
-28.175
-28.15
-28.125
-28.1
-28.075
-28.05
-28.025
-28
-27.975
-27.95
-27.925
-27.9
-27.875
-27.85
-27.825
-27.8
-27.775
-27.75
-27.725
-27.7
-27.675
-27.65
-27.625
-27.6
-27.575
-27.55
-27.525
-27.5
-27.475
-27.45
-27.425
-27.4
-27.375
-27.35
-27.325
-27.3
-27.275
-27.25
-27.225
-27.2
-27.175
-27.15
-27.125
-27.1
-27.075
-27.05
-27.025
-27
-26.975
-26.95
-26.925
-26.9
-26.875
-26.85
-26.825
-26.8
-26.775
-26.75
-26.725
-26.7
-26.675
-26.65
-26.625
-26.6
-26.575
-26.55
-26.525
-26.5
-26.475
-26.45
-26.425
-26.4
-26.375
-26.35
-26.325
-26.3
-26.275
-26.25
-26.225
-26.2
-26.175
-26.15
-26.125
-26.1
-26.075
-26.05
-26.025
-26
-25.975
-25.95
-25.925
-25.9
-25.875
-25.85
-25.825
-25.8
-25.775
-25.75
-25.725
-25.7
-25.675
-25.65
-25.625
-25.6
-25.575
-25.55
-25.525
-25.5
-25.475
-25.45
-25.425
-25.4
-25.375
-25.35
-25.325
-25.3
-25.275
-25.25
-25.225
-25.2
-25.175
-25.15
-25.125
-25.1
-25.075
-25.05
-25.025
-25
-24.975
-24.95
-24.925
-24.9
-24.875
-24.85
-24.825
-24.8
-24.775
-24.75
-24.725
-24.7
-24.675
-24.65
-24.625
-24.6
-24.575
-24.55
-24.525
-24.5
-24.475
-24.45
-24.425
-24.4
-24.375
-24.35
-24.325
-24.3
-24.275
-24.25
-24.225
-24.2
-24.175
-24.15
-24.125
-24.1
-24.075
-24.05
-24.025
-24
-23.975
-23.95
-23.925
-23.9
-23.875
-23.85
-23.825
-23.8
-23.775
-23.75
-23.725
-23.7
-23.675
-23.65
-23.625
-23.6
-23.575
-23.55
-23.525
-23.5
-23.475
-23.45
-23.425
-23.4
-23.375
-23.35
-23.325
-23.3
-23.275
-23.25
-23.225
-23.2
-23.175
-23.15
-23.125
-23.1
-23.075
-23.05
-23.025
-23
-22.975
-22.95
-22.925
-22.9
-22.875
-22.85
-22.825
-22.8
-22.775
-22.75
-22.725
-22.7
-22.675
-22.65
-22.625
-22.6
-22.575
-22.55
-22.525
-22.5
-22.475
-22.45
-22.425
-22.4
-22.375
-22.35
-22.325
-22.3
-22.275
-22.25
-22.225
-22.2
-22.175
-22.15
-22.125
-22.1
-22.075
-22.05
-22.025
-22
-21.975
-21.95
-21.925
-21.9
-21.875
-21.85
-21.825
-21.8
-21.775
-21.75
-21.725
-21.7
-21.675
-21.65
-21.625
-21.6
-21.575
-21.55
-21.525
-21.5
-21.475
-21.45
-21.425
-21.4
-21.375
-21.35
-21.325
-21.3
-21.275
-21.25
-21.225
-21.2
-21.175
-21.15
-21.125
-21.1
-21.075
-21.05
-21.025
-21
-20.975
-20.95
-20.925
-20.9
-20.875
-20.85
-20.825
-20.8
-20.775
-20.75
-20.725
-20.7
-20.675
-20.65
-20.625
-20.6
-20.575
-20.55
-20.525
-20.5
-20.475
-20.45
-20.425
-20.4
-20.375
-20.35
-20.325
-20.3
-20.275
-20.25
-20.225
-20.2
-20.175
-20.15
-20.125
-20.1
-20.075
-20.05
-20.025
-20
VAR_LIST_END
BEGIN
-15.196402,-160.52078
-14.332304,-160.87859
-14.753778,-160.0934
-16.491692,-156.72035
-15.813796,-158.72778
-15.362679,-163.02602
-14.999739,-161.66386
-14.561012,-156.29341
-14.051228,-157.59984
-14.515022,-166.05037
-15.237789,-159.87888
-14.592956,-159.90707
-15.623319,-161.89967
-15.527099,-158.58914
-14.386874,-159.88174
-15.628043,-162.29578
-16.096552,-158.81494
-15.39391,-153.67729
-14.574821,-161.78911
-15.179621,-159.15329
-15.26653,-167.01689
-15.834789,-163.60765
-14.993449,-159.43628
-14.397223,-159.67398
-14.513139,-160.90134
-14.856809,-157.99539
-14.806719,-160.07564
-14.766962,-166.74013
-14.622918,-161.66771
-13.848602,-160.61269
-14.846442,-159.86453
-14.894208,-156.93761
-14.68436,-159.21455
-15.044377,-159.64124
-14.668532,-160.08081
-15.758781,-159.02657
-14.175967,-159.35312
-15.407192,-167.50623
-14.386436,-159.51555
-15.320311,-158.62775
-15.019752,-156.82439
-16.039293,-160.89888
-15.178598,-166.48241
-14.830142,-153.00702
-15.166086,-160.49225
-14.763877,-159.31071
-14.31651,-159.24849
-15.10181,-159.72098
-15.152124,-156.49144
-14.706558,-157.93741
-14.658945,-157.19963
-14.726672,-161.80882
-15.471478,-157.28049
-14.357944,-159.81564
-14.933564,-162.43964
-15.017957,-160.60442
-14.975974,-159.45914
-14.88182,-155.07027
-15.163071,-159.93954
-15.034728,-160.05083
-14.602123,-160.86659
-15.157784,-164.41534
-15.098217,-160.50114
-14.851779,-163.74576
-15.56069,-158.04527
-14.859347,-160.09836
-15.422532,-160.01312
-15.19113,-160.84532
-14.444441,-162.72559
-14.863825,-161.51566
-14.739632,-158.22505
-15.690846,-159.85382
-16.225992,-157.5123
-15.386146,-156.08694
-14.965775,-159.93994
-15.651278,-162.54189
-14.937042,-162.66689
-15.640046,-155.03302
-15.073116,-165.94325
-14.642632,-163.41299
-15.092377,-166.03024
-15.145296,-154.47694
-15.55938,-162.06241
-14.822228,-161.54398
-15.297272,-163.48068
-15.015506,-163.90411
-14.928824,-158.85313
-15.140841,-160.81108
-15.274519,-160.91457
-14.6836,-161.31467
-15.156051,-167.7191
-15.03219,-161.06276
-15.195369,-159.29756
-15.756258,-157.1382
-15.016907,-160.77977
-14.77078,-159.2663
-14.83038,-159.40652
-14.140777,-159.69821
-14.935218,-160.28671
-14.715014,-164.04048
-15.089435,-161.35706
-15.1322,-158.32718
-14.511951,-164.06012
-15.672989,-162.74442
-15.658105,-160.57101
-14.52355,-159.55707
-15.035863,-156.10066
-15.434514,-159.03876
-14.725161,-157.9782
-15.66786,-159.31946
-15.080343,-162.53766
-14.336045,-163.43474
-14.791001,-160.36009
-14.98212,-159.47925
-15.108489,-160.48235
-15.394337,-156.13443
-15.03344,-161.2421
-15.211181,-157.89029
-14.90062,-162.71915
-14.807195,-159.59569
-14.961236,-158.54247
-15.344086,-167.35454
-15.380594,-157.03819
-15.372683,-162.37918
-15.067616,-159.16673
-15.204366,-161.20361
-14.904839,-156.87248
-16.36705,-163.21844
-15.173806,-163.51134
-15.408226,-158.26773
-15.179925,-160.17924
-15.455378,-158.29257
-14.698626,-161.1922
-14.967034,-157.82239
-15.521601,-160.84485
-14.979562,-158.07428
-14.57463,-159.5127
-15.279297,-158.15047
-15.480393,-161.57468
-14.77806,-158.34821
-15.498345,-161.56026
-14.641608,-162.15604
-15.131518,-156.34917
-15.421826,-157.6499
-15.581337,-157.19846
-15.025923,-158.07162
-14.670888,-158.28378
-14.480422,-161.25473
-15.175107,-163.18466
-14.916521,-164.66469
-15.534509,-159.89854
-15.557602,-160.39949
-15.278982,-156.78979
-15.402822,-159.32379
-14.176379,-157.85352
-14.563825,-159.06216
-14.917651,-159.51675
-14.62362,-158.94441
-14.681514,-160.71501
-15.379102,-159.17293
-15.278413,-159.8412
-15.312961,-164.58446
-14.644706,-160.1429
-15.060863,-163.41116
-15.211625,-162.28114
-15.046999,-159.58006
-15.138301,-161.07497
-15.517917,-158.30911
-16.238861,-156.57759
-14.679146,-159.37465
-15.324409,-164.51352
-15.5125,-157.77628
-15.193288,-158.6057
-14.761493,-161.04558
-14.807549,-159.25533
-15.116168,-158.64584
-14.695161,-158.12325
-14.887701,-159.83591
-14.907167,-163.31276
-15.337619,-163.49443
-14.94877,-162.91638
-15.382272,-158.35561
-14.697131,-159.94275
-14.827607,-162.31741
-15.251653,-162.14488
-15.155842,-157.86595
-15.316655,-162.09505
-15.135296,-162.62933
-14.999615,-159.60321
-14.5156,-161.65955
-15.128452,-154.27904
-15.072071,-159.58588
-15.757572,-159.9736
-15.176594,-157.15683
-14.864956,-159.78976
-15.201836,-161.82159
-14.909369,-159.3365
-15.8352,-159.56393
-15.191001,-156.48792
-14.942406,-158.94751
-15.178991,-156.68895
-15.360237,-162.74539
-14.988361,-157.42326
-15.375591,-160.59952
-14.719592,-157.11797
-15.280778,-157.85414
-14.912043,-162.19699
-14.749248,-158.87543
-14.806971,-162.96542
-14.907818,-159.1169
-15.072772,-159.17268
-14.854334,-159.54845
-15.956985,-159.01079
-14.694278,-158.14461
-15.003936,-161.74658
-15.236044,-160.99985
-14.473905,-162.14276
-15.244677,-160.49962
-14.926923,-158.3759
-15.676151,-157.93506
-15.435033,-162.26321
-15.517756,-162.6152
-15.091942,-160.20934
-14.927158,-157.40244
-15.60738,-160.98003
-15.180224,-160.53966
-14.8382,-163.21906
-15.510498,-159.99506
-14.937651,-161.02457
-14.604018,-159.0023
-15.616083,-162.91399
-15.062322,-162.07182
-15.736679,-160.02632
-15.208155,-159.10994
-15.231814,-160.66684
-14.73392,-160.42621
-15.179612,-156.98737
-14.768492,-161.47847
-14.915281,-159.01123
-14.565098,-161.27194
-15.107281,-158.30435
-15.243658,-159.31711
-14.745542,-159.49698
-14.923449,-162.5941
-14.894655,-155.84293
-15.146512,-158.73459
-15.038755,-160.24057
-15.411837,-160.86325
-15.692174,-161.21071
-14.928783,-158.99165
-15.176186,-157.0092
-15.199718,-157.10271
-15.393014,-159.6136
-15.547351,-162.31155
-15.299437,-159.34006
-14.971475,-158.96986
-15.249552,-159.67468
-15.355069,-161.47899
-15.156871,-161.83263
-14.968558,-162.99767
-15.324742,-157.79228
-15.17115,-162.36642
-15.301519,-157.87469
-14.948283,-164.21896
-15.138188,-164.49171
-15.066063,-160.09009
-14.915518,-160.12144
-14.761987,-160.04214
-15.427752,-160.09842
-15.92869,-160.033
-14.956171,-161.20297
-14.854574,-158.09904
-15.578856,-159.72104
-15.440401,-160.60695
-15.220495,-159.99179
-14.9134,-161.28409
-15.365304,-158.33089
-15.18104,-161.37389
-15.634825,-159.12016
-14.809271,-164.74477
-14.851503,-160.86618
-14.919129,-159.69206
-14.964151,-160.41962
-14.87378,-160.30119
-14.957088,-158.60579
-15.120313,-159.04716
-15.298248,-162.20358
-15.075617,-158.42949
-15.159102,-159.39742
-14.761953,-162.03345
-15.015679,-157.97192
-14.779652,-162.02606
-15.221372,-159.0407
-14.863269,-160.9507
-14.953466,-160.78233
-15.200414,-164.48882
-15.603837,-163.80765
-15.155151,-159.61586
-15.504493,-161.61545
-15.099174,-159.82808
-14.97445,-158.30264
-15.181473,-160.37387
-15.212615,-155.96257
-15.291484,-160.79012
-14.646812,-158.26913
-15.473735,-162.3734
-14.848607,-158.9897
-14.867014,-164.45348
-15.160911,-161.66846
-15.100683,-160.68462
-15.179305,-159.97455
-15.34562,-160.86423
-15.171943,-159.09773
-15.51554,-159.28313
-14.883148,-159.32216
-14.93317,-156.57587
-15.253871,-160.92442
-14.917256,-157.69888
-14.716906,-163.79256
-15.125874,-158.37253
-15.387531,-156.83994
-14.799501,-159.47078
-15.214557,-158.80331
-14.814424,-159.76213
-14.866621,-158.6987
-15.001218,-160.19336
-14.965159,-157.95291
-15.149896,-159.63164
-14.886996,-160.4944
-14.718166,-160.06056
-15.100706,-157.68138
-14.987658,-161.97205
-15.269985,-161.22832
-15.101733,-159.22571
-15.336386,-159.76913
-15.198184,-158.71873
-14.999964,-162.48105
-15.415151,-159.95645
-15.265223,-162.8326
-14.938828,-160.62976
-15.545412,-157.96191
-14.627615,-159.29402
-15.200624,-159.69583
-14.981457,-160.33714
-14.762976,-161.15085
-15.100224,-158.61879
-14.903988,-159.07227
-15.212527,-160.00758
-14.992496,-157.11821
-15.252799,-160.84662
-15.214169,-159.21901
-15.215075,-158.4713
-15.448698,-162.08757
-15.325792,-160.05315
-15.291156,-159.64357
-15.294888,-159.99495
-15.349195,-160.91132
-14.766404,-159.97954
-15.200197,-159.7646
-15.314636,-157.68851
-15.133161,-159.81071
-15.061348,-160.97537
-15.193643,-159.94609
-15.471074,-157.69432
-15.067599,-161.5443
-14.939724,-159.65491
-15.017052,-158.82729
-15.126693,-161.09453
-15.166026,-160.23267
-14.766591,-157.61588
-15.203418,-159.76262
-15.074298,-162.49626
-14.809107,-160.03371
-14.831406,-160.155
-15.089982,-160.03545
-15.185276,-159.3801
-14.813932,-161.5722
-15.044514,-159.00684
-14.941559,-163.00897
-14.722067,-160.80635
-15.318048,-161.52095
-15.268126,-161.28542
-14.992307,-158.51453
-15.227622,-157.5293
-14.789701,-161.18642
-14.902378,-161.90715
-15.012224,-160.11198
-14.880898,-159.11435
-14.975533,-161.35599
-15.168245,-160.27313
-15.049604,-159.22327
-15.176114,-161.26106
-14.852487,-160.68817
-15.002401,-158.02371
-14.543017,-160.71896
-15.036717,-159.28241
-15.268349,-162.53917
-15.173157,-160.28027
-15.333918,-157.57109
-15.633367,-159.53087
-14.985605,-159.18465
-15.016095,-159.90442
-14.99998,-158.96274
-14.983254,-161.07399
-15.08392,-157.21925
-15.324637,-156.55937
-15.430689,-160.9545
-14.789976,-160.26591
-15.055041,-159.00764
-15.055691,-158.81615
-15.223479,-161.12373
-15.004921,-158.95334
-15.000455,-159.85899
-14.779253,-158.78825
-14.916488,-156.67168
-15.035069,-159.61813
-15.077645,-157.60698
-15.083755,-159.69147
-14.989182,-161.50359
-14.864594,-160.04381
-15.272799,-159.53069
-14.898049,-158.73163
-14.952867,-160.43764
-15.013997,-159.63612
-14.937926,-160.90752
-14.888131,-160.58243
-15.243697,-158.39932
-15.005995,-159.5045
-15.048351,-160.82817
-14.917038,-158.56993
-15.009077,-159.30762
-15.006721,-159.23228
-14.6493,-159.02014
-15.042945,-158.81955
-14.766999,-160.35303
-15.40591,-159.9984
-14.903738,-159.93497
-15.22358,-158.28752
-15.371313,-160.70578
-15.184381,-159.30061
-14.724247,-161.64127
-15.287496,-161.58195
-15.047796,-160.47131
-14.861912,-156.60872
-14.988317,-161.35202
-14.943669,-161.45471
-15.258075,-162.25868
-14.691439,-160.44315
-15.222711,-159.17032
-14.790501,-160.06036
-14.941372,-161.42639
-15.183207,-161.07556
-14.831847,-158.69991
-15.16449,-160.9585
-15.244984,-159.20004
-15.473661,-159.14897
-15.150033,-160.03467
-15.277537,-161.87328
-15.076171,-161.85175
-14.881003,-159.42534
-15.143795,-159.49551
-15.382054,-161.28259
-14.975917,-162.42528
-14.906121,-160.96855
-15.135671,-161.7717
-15.217267,-160.81026
-15.06142,-160.67154
-14.778356,-158.54187
-15.127867,-157.49483
-15.060435,-159.16014
-15.02572,-161.3557
-14.865772,-158.65076
-15.161718,-160.93286
-15.108676,-161.87238
-14.874554,-161.80342
-15.085607,-159.48511
-15.032147,-158.0921
-15.202976,-159.73389
-15.1131,-161.51352
-15.304991,-157.81189
-14.992753,-160.00024
-14.996408,-160.7953
-15.165228,-161.27249
-15.15416,-160.63651
-14.866481,-159.31424
-15.064848,-159.82022
-15.112317,-158.853
-14.948153,-159.40639
-15.304583,-161.38214
-14.789226,-161.29951
-15.008842,-161.51624
-15.213563,-159.24107
-14.881261,-159.22015
-15.015179,-160.32936
-14.978544,-159.86214
-15.088192,-160.78578
-15.026656,-160.1879
-15.217973,-159.30626
-15.183332,-159.42458
-15.071408,-158.53755
-15.071914,-159.28769
-15.010073,-161.19728
-15.081974,-161.13246
-15.062437,-159.62543
-14.879688,-160.0209
-14.942517,-159.68802
-15.055547,-158.82314
-15.253083,-159.44945
-15.001737,-159.81258
-14.965061,-162.09773
-15.211287,-159.88942
-15.126632,-159.98505
-15.229606,-158.74104
-14.996666,-158.65012
-15.057814,-162.51985
-15.30398,-160.89857
-15.12619,-160.22107
-15.206122,-160.19841
-14.789884,-160.66957
-15.136511,-162.8781
-14.967421,-159.55148
-15.275029,-160.24678
-14.915106,-160.2691
-15.18723,-160.3795
-14.961338,-160.03224
-15.126845,-159.88017
-15.309044,-160.66139
-15.145861,-159.49405
-15.162241,-159.96878
-15.221411,-158.36693
-15.258224,-160.58012
-15.025811,-159.52602
-15.052988,-158.26738
-15.286803,-159.50027
-15.267368,-160.00223
-15.102913,-160.89575
-15.06761,-161.74431
-15.015666,-160.86119
-15.22488,-159.38248
-15.175037,-160.8916
-15.019343,-159.91643
-15.144935,-160.66025
-15.196366,-159.12703
-14.832933,-160.07095
-14.963099,-160.54625
-15.195621,-159.74721
-15.032687,-159.87456
-15.26924,-161.47643
-15.088242,-161.21236
-15.070863,-160.79474
-15.058451,-159.56471
-14.981586,-159.53865
-14.870463,-161.66928
-15.238617,-160.25545
-15.05112,-160.43291
-15.019997,-160.0123
-14.935217,-159.22122
-15.08237,-159.60228
-15.159381,-159.72867
-14.954158,-162.57755
-15.096834,-159.96629
-15.179044,-159.7856
-15.068012,-158.94264
-15.198889,-159.89929
-15.002501,-159.17842
-15.325323,-160.77516
-15.022678,-160.33521
-15.045688,-159.54645
-15.131772,-160.34448
-15.037003,-159.68094
-14.938871,-161.2448
-15.09781,-161.15729
-14.9419,-158.33913
-15.054531,-159.56018
-14.88358,-160.74139
-15.063728,-160.87617
