CITIFILE A.01.01
!Agilent Technologies,N5230C,MY48100142,A.08.04.10
!Agilent N5230C: A.08.04.10
!Format: LogMag/Angle
!Date: Friday, February 14, 2020 15:25:34
NAME CH1_DATA
VAR Power MAG 801
DATA S11 DBANGLE
DATA S21 DBANGLE
DATA S12 DBANGLE
DATA S22 DBANGLE
VAR_LIST_BEGIN
-40
-39.975
-39.95
-39.925
-39.9
-39.875
-39.85
-39.825
-39.8
-39.775
-39.75
-39.725
-39.7
-39.675
-39.65
-39.625
-39.6
-39.575
-39.55
-39.525
-39.5
-39.475
-39.45
-39.425
-39.4
-39.375
-39.35
-39.325
-39.3
-39.275
-39.25
-39.225
-39.2
-39.175
-39.15
-39.125
-39.1
-39.075
-39.05
-39.025
-39
-38.975
-38.95
-38.925
-38.9
-38.875
-38.85
-38.825
-38.8
-38.775
-38.75
-38.725
-38.7
-38.675
-38.65
-38.625
-38.6
-38.575
-38.55
-38.525
-38.5
-38.475
-38.45
-38.425
-38.4
-38.375
-38.35
-38.325
-38.3
-38.275
-38.25
-38.225
-38.2
-38.175
-38.15
-38.125
-38.1
-38.075
-38.05
-38.025
-38
-37.975
-37.95
-37.925
-37.9
-37.875
-37.85
-37.825
-37.8
-37.775
-37.75
-37.725
-37.7
-37.675
-37.65
-37.625
-37.6
-37.575
-37.55
-37.525
-37.5
-37.475
-37.45
-37.425
-37.4
-37.375
-37.35
-37.325
-37.3
-37.275
-37.25
-37.225
-37.2
-37.175
-37.15
-37.125
-37.1
-37.075
-37.05
-37.025
-37
-36.975
-36.95
-36.925
-36.9
-36.875
-36.85
-36.825
-36.8
-36.775
-36.75
-36.725
-36.7
-36.675
-36.65
-36.625
-36.6
-36.575
-36.55
-36.525
-36.5
-36.475
-36.45
-36.425
-36.4
-36.375
-36.35
-36.325
-36.3
-36.275
-36.25
-36.225
-36.2
-36.175
-36.15
-36.125
-36.1
-36.075
-36.05
-36.025
-36
-35.975
-35.95
-35.925
-35.9
-35.875
-35.85
-35.825
-35.8
-35.775
-35.75
-35.725
-35.7
-35.675
-35.65
-35.625
-35.6
-35.575
-35.55
-35.525
-35.5
-35.475
-35.45
-35.425
-35.4
-35.375
-35.35
-35.325
-35.3
-35.275
-35.25
-35.225
-35.2
-35.175
-35.15
-35.125
-35.1
-35.075
-35.05
-35.025
-35
-34.975
-34.95
-34.925
-34.9
-34.875
-34.85
-34.825
-34.8
-34.775
-34.75
-34.725
-34.7
-34.675
-34.65
-34.625
-34.6
-34.575
-34.55
-34.525
-34.5
-34.475
-34.45
-34.425
-34.4
-34.375
-34.35
-34.325
-34.3
-34.275
-34.25
-34.225
-34.2
-34.175
-34.15
-34.125
-34.1
-34.075
-34.05
-34.025
-34
-33.975
-33.95
-33.925
-33.9
-33.875
-33.85
-33.825
-33.8
-33.775
-33.75
-33.725
-33.7
-33.675
-33.65
-33.625
-33.6
-33.575
-33.55
-33.525
-33.5
-33.475
-33.45
-33.425
-33.4
-33.375
-33.35
-33.325
-33.3
-33.275
-33.25
-33.225
-33.2
-33.175
-33.15
-33.125
-33.1
-33.075
-33.05
-33.025
-33
-32.975
-32.95
-32.925
-32.9
-32.875
-32.85
-32.825
-32.8
-32.775
-32.75
-32.725
-32.7
-32.675
-32.65
-32.625
-32.6
-32.575
-32.55
-32.525
-32.5
-32.475
-32.45
-32.425
-32.4
-32.375
-32.35
-32.325
-32.3
-32.275
-32.25
-32.225
-32.2
-32.175
-32.15
-32.125
-32.1
-32.075
-32.05
-32.025
-32
-31.975
-31.95
-31.925
-31.9
-31.875
-31.85
-31.825
-31.8
-31.775
-31.75
-31.725
-31.7
-31.675
-31.65
-31.625
-31.6
-31.575
-31.55
-31.525
-31.5
-31.475
-31.45
-31.425
-31.4
-31.375
-31.35
-31.325
-31.3
-31.275
-31.25
-31.225
-31.2
-31.175
-31.15
-31.125
-31.1
-31.075
-31.05
-31.025
-31
-30.975
-30.95
-30.925
-30.9
-30.875
-30.85
-30.825
-30.8
-30.775
-30.75
-30.725
-30.7
-30.675
-30.65
-30.625
-30.6
-30.575
-30.55
-30.525
-30.5
-30.475
-30.45
-30.425
-30.4
-30.375
-30.35
-30.325
-30.3
-30.275
-30.25
-30.225
-30.2
-30.175
-30.15
-30.125
-30.1
-30.075
-30.05
-30.025
-30
-29.975
-29.95
-29.925
-29.9
-29.875
-29.85
-29.825
-29.8
-29.775
-29.75
-29.725
-29.7
-29.675
-29.65
-29.625
-29.6
-29.575
-29.55
-29.525
-29.5
-29.475
-29.45
-29.425
-29.4
-29.375
-29.35
-29.325
-29.3
-29.275
-29.25
-29.225
-29.2
-29.175
-29.15
-29.125
-29.1
-29.075
-29.05
-29.025
-29
-28.975
-28.95
-28.925
-28.9
-28.875
-28.85
-28.825
-28.8
-28.775
-28.75
-28.725
-28.7
-28.675
-28.65
-28.625
-28.6
-28.575
-28.55
-28.525
-28.5
-28.475
-28.45
-28.425
-28.4
-28.375
-28.35
-28.325
-28.3
-28.275
-28.25
-28.225
-28.2
-28.175
-28.15
-28.125
-28.1
-28.075
-28.05
-28.025
-28
-27.975
-27.95
-27.925
-27.9
-27.875
-27.85
-27.825
-27.8
-27.775
-27.75
-27.725
-27.7
-27.675
-27.65
-27.625
-27.6
-27.575
-27.55
-27.525
-27.5
-27.475
-27.45
-27.425
-27.4
-27.375
-27.35
-27.325
-27.3
-27.275
-27.25
-27.225
-27.2
-27.175
-27.15
-27.125
-27.1
-27.075
-27.05
-27.025
-27
-26.975
-26.95
-26.925
-26.9
-26.875
-26.85
-26.825
-26.8
-26.775
-26.75
-26.725
-26.7
-26.675
-26.65
-26.625
-26.6
-26.575
-26.55
-26.525
-26.5
-26.475
-26.45
-26.425
-26.4
-26.375
-26.35
-26.325
-26.3
-26.275
-26.25
-26.225
-26.2
-26.175
-26.15
-26.125
-26.1
-26.075
-26.05
-26.025
-26
-25.975
-25.95
-25.925
-25.9
-25.875
-25.85
-25.825
-25.8
-25.775
-25.75
-25.725
-25.7
-25.675
-25.65
-25.625
-25.6
-25.575
-25.55
-25.525
-25.5
-25.475
-25.45
-25.425
-25.4
-25.375
-25.35
-25.325
-25.3
-25.275
-25.25
-25.225
-25.2
-25.175
-25.15
-25.125
-25.1
-25.075
-25.05
-25.025
-25
-24.975
-24.95
-24.925
-24.9
-24.875
-24.85
-24.825
-24.8
-24.775
-24.75
-24.725
-24.7
-24.675
-24.65
-24.625
-24.6
-24.575
-24.55
-24.525
-24.5
-24.475
-24.45
-24.425
-24.4
-24.375
-24.35
-24.325
-24.3
-24.275
-24.25
-24.225
-24.2
-24.175
-24.15
-24.125
-24.1
-24.075
-24.05
-24.025
-24
-23.975
-23.95
-23.925
-23.9
-23.875
-23.85
-23.825
-23.8
-23.775
-23.75
-23.725
-23.7
-23.675
-23.65
-23.625
-23.6
-23.575
-23.55
-23.525
-23.5
-23.475
-23.45
-23.425
-23.4
-23.375
-23.35
-23.325
-23.3
-23.275
-23.25
-23.225
-23.2
-23.175
-23.15
-23.125
-23.1
-23.075
-23.05
-23.025
-23
-22.975
-22.95
-22.925
-22.9
-22.875
-22.85
-22.825
-22.8
-22.775
-22.75
-22.725
-22.7
-22.675
-22.65
-22.625
-22.6
-22.575
-22.55
-22.525
-22.5
-22.475
-22.45
-22.425
-22.4
-22.375
-22.35
-22.325
-22.3
-22.275
-22.25
-22.225
-22.2
-22.175
-22.15
-22.125
-22.1
-22.075
-22.05
-22.025
-22
-21.975
-21.95
-21.925
-21.9
-21.875
-21.85
-21.825
-21.8
-21.775
-21.75
-21.725
-21.7
-21.675
-21.65
-21.625
-21.6
-21.575
-21.55
-21.525
-21.5
-21.475
-21.45
-21.425
-21.4
-21.375
-21.35
-21.325
-21.3
-21.275
-21.25
-21.225
-21.2
-21.175
-21.15
-21.125
-21.1
-21.075
-21.05
-21.025
-21
-20.975
-20.95
-20.925
-20.9
-20.875
-20.85
-20.825
-20.8
-20.775
-20.75
-20.725
-20.7
-20.675
-20.65
-20.625
-20.6
-20.575
-20.55
-20.525
-20.5
-20.475
-20.45
-20.425
-20.4
-20.375
-20.35
-20.325
-20.3
-20.275
-20.25
-20.225
-20.2
-20.175
-20.15
-20.125
-20.1
-20.075
-20.05
-20.025
-20
VAR_LIST_END
BEGIN
-15.886284,-166.45035
-14.083319,-161.93507
-14.718582,-164.54086
-14.963264,-162.73323
-15.191883,-165.33507
-16.026691,-160.69341
-14.567795,-166.58771
-15.611126,-160.23338
-15.369226,-159.65164
-14.51649,-159.62546
-15.03702,-167.41307
-14.624063,-160.56474
-14.999528,-160.34923
-15.104257,-163.41005
-15.017593,-166.77419
-15.734515,-157.41489
-14.272985,-155.86151
-13.976333,-159.75905
-15.122425,-160.61903
-14.660707,-156.84642
-15.051273,-153.93359
-15.194027,-160.81577
-15.27919,-164.22296
-15.375778,-163.12178
-14.376424,-167.37219
-15.283987,-165.76819
-15.026437,-160.02164
-15.427835,-160.33102
-14.56177,-160.35797
-14.60177,-163.95184
-15.071108,-150.99634
-15.554063,-156.41211
-15.309823,-159.32944
-14.103431,-159.62724
-14.801183,-163.35901
-15.171492,-162.70335
-15.081012,-162.7141
-15.066262,-160.92807
-15.285241,-160.48137
-14.724193,-154.12349
-15.506776,-152.9326
-14.970988,-161.67601
-15.562796,-160.48134
-14.970851,-162.19188
-15.112124,-159.34142
-15.226018,-162.94017
-14.732021,-161.16035
-14.809007,-155.32849
-14.93729,-160.4715
-14.517271,-161.04585
-15.132913,-157.04828
-15.801635,-157.61235
-15.62065,-158.75455
-14.771677,-160.28394
-14.934356,-165.92049
-15.746313,-161.4216
-15.976311,-159.47725
-15.485544,-161.62648
-15.458066,-162.39928
-14.594023,-165.66182
-15.737654,-162.85735
-15.3207,-159.0014
-14.937407,-166.10368
-14.522091,-160.82831
-15.092744,-162.22922
-15.374929,-153.4973
-15.191649,-161.45702
-15.061814,-158.21562
-16.058331,-163.71004
-14.351662,-158.05104
-15.651377,-159.42401
-13.91988,-157.38811
-15.594595,-160.47673
-15.722184,-155.02257
-15.177381,-159.20134
-15.398701,-162.41208
-14.701505,-156.12041
-15.204838,-156.51729
-15.131452,-161.79404
-15.397782,-158.77266
-15.801769,-159.87949
-16.225754,-158.14412
-15.412069,-159.72083
-15.871063,-164.31723
-15.28066,-161.88127
-14.298624,-170.36952
-14.762589,-159.20171
-15.077627,-165.35159
-14.549756,-157.13556
-15.353508,-153.98853
-14.968619,-163.27881
-14.973983,-162.33833
-15.459016,-157.28644
-14.604822,-162.40575
-14.393064,-159.06999
-14.655898,-161.38696
-14.947505,-157.20567
-15.434455,-160.25056
-15.21469,-155.7787
-14.933777,-157.69489
-15.05296,-166.16663
-15.304312,-154.95695
-15.102498,-158.87338
-15.614738,-157.63199
-15.040529,-162.07417
-15.05284,-159.61299
-15.191526,-159.29242
-14.717037,-154.7813
-15.504641,-164.83578
-14.337951,-160.13002
-15.015168,-159.57277
-14.667371,-153.29373
-14.957634,-160.4886
-15.601155,-159.31612
-15.1641,-157.14993
-14.807008,-162.0972
-15.332313,-158.09248
-14.741474,-162.53603
-15.152335,-157.50227
-15.130977,-162.30078
-14.829268,-164.56096
-15.072819,-158.71236
-14.859504,-157.78838
-14.603209,-158.54707
-14.548992,-162.26091
-14.84082,-160.58374
-15.956696,-157.49078
-14.677639,-156.62894
-15.361272,-156.96541
-15.724912,-160.79033
-14.575236,-162.01427
-14.816502,-162.03531
-15.283728,-157.75119
-15.462785,-159.45689
-15.339813,-160.55621
-15.51443,-154.83887
-15.81806,-155.8118
-15.299116,-155.9977
-14.714501,-157.49895
-15.159131,-159.53896
-15.015939,-159.46524
-15.250147,-155.8196
-15.47362,-158.43494
-14.410799,-157.62192
-14.706914,-160.66873
-14.474921,-160.7003
-15.181855,-159.89268
-15.674938,-161.7859
-14.463812,-157.19795
-15.476876,-161.15973
-14.871189,-160.74612
-14.80355,-158.76262
-15.14341,-157.01262
-14.915206,-157.45728
-15.313024,-164.30193
-14.982902,-155.51109
-15.46998,-161.2784
-15.407294,-159.50732
-15.251729,-161.10446
-14.237685,-159.76656
-15.475349,-155.72182
-14.947026,-161.41145
-15.221866,-158.75647
-15.406969,-153.37505
-14.428263,-160.7301
-14.721668,-160.3372
-14.9699,-162.67679
-15.434389,-158.92764
-15.531891,-156.40714
-15.07015,-158.3427
-14.841993,-158.65079
-14.702748,-158.97821
-14.96855,-162.43932
-15.643386,-156.9359
-14.949741,-163.23567
-14.63479,-165.21985
-14.821774,-164.28621
-15.617811,-158.91476
-15.200999,-156.76103
-15.196026,-157.12698
-15.83741,-164.45593
-15.117233,-164.14665
-14.450659,-159.41055
-14.027403,-161.36212
-15.662562,-161.48021
-15.202984,-159.62857
-14.876081,-162.11089
-15.541698,-160.4447
-14.857334,-158.80548
-15.058276,-158.99631
-15.840866,-161.36252
-15.011655,-158.53755
-14.999901,-160.42401
-15.041387,-159.1201
-15.528848,-164.05107
-14.875592,-161.95155
-15.436033,-162.84895
-15.556332,-153.66078
-14.822886,-160.53499
-15.253361,-160.86258
-14.752033,-159.86653
-15.169706,-155.59363
-15.446718,-160.61137
-15.460259,-162.61583
-14.94588,-158.02792
-14.380948,-164.26855
-15.235227,-157.49026
-15.007069,-162.84428
-14.830931,-160.41568
-15.486538,-158.70679
-14.726164,-159.14232
-15.656282,-163.53911
-14.893054,-163.05478
-15.243021,-157.8231
-15.368073,-159.23779
-15.557291,-159.9046
-15.651961,-163.32085
-14.874676,-158.79353
-15.286839,-160.67838
-15.131145,-160.27843
-15.296613,-162.843
-14.829723,-157.33983
-15.160951,-156.1729
-14.772355,-163.43739
-15.144727,-159.9057
-15.045424,-158.495
-15.353412,-162.58646
-15.092666,-160.31192
-14.815093,-158.4715
-15.102669,-160.81291
-15.062284,-159.87746
-14.803962,-161.26456
-14.867675,-162.52605
-14.556649,-160.87054
-14.949665,-160.11691
-15.819821,-157.65326
-14.824722,-161.20125
-15.322386,-158.90155
-15.008943,-159.92979
-14.89592,-160.23216
-15.26239,-161.68747
-14.799348,-160.67456
-14.88747,-158.89825
-14.662653,-161.54793
-15.044618,-158.88271
-15.264895,-161.55144
-14.622095,-160.81223
-14.884583,-161.99002
-14.851898,-160.20477
-15.429405,-163.55736
-14.637486,-158.62448
-14.682256,-160.51903
-15.105947,-156.89499
-15.202563,-159.25162
-14.663251,-161.12004
-15.487127,-158.98012
-15.203031,-159.7399
-14.640793,-158.5829
-15.264785,-159.09254
-15.251189,-158.67543
-14.600658,-158.02078
-14.93938,-158.98961
-15.617616,-158.25954
-15.168322,-158.80222
-15.127543,-158.28203
-15.327232,-159.90192
-14.73144,-159.32222
-15.109074,-159.18643
-15.289843,-162.9306
-14.932862,-164.26299
-14.922212,-164.3213
-15.257825,-162.19014
-15.402944,-162.54208
-15.777411,-163.41325
-15.23034,-161.89987
-15.050323,-162.05112
-14.566254,-159.23982
-14.670002,-162.37584
-15.355867,-159.87459
-14.85076,-160.73991
-14.224582,-158.88498
-15.026784,-157.67818
-15.09005,-159.32286
-15.53581,-162.55229
-15.08377,-162.3139
-15.388398,-166.58528
-14.980824,-159.00768
-14.970889,-161.99347
-14.885386,-159.00812
-15.537365,-161.84802
-15.183607,-157.81354
-14.813545,-161.76886
-15.101858,-161.93797
-14.65967,-159.29645
-15.168826,-160.8217
-15.099467,-157.50096
-15.336638,-161.90585
-15.134956,-159.82986
-14.725489,-161.6582
-15.191491,-161.94951
-15.23912,-164.17313
-14.705647,-157.94376
-15.098143,-162.24829
-15.084876,-157.59358
-15.605886,-157.61139
-15.36684,-161.06772
-15.195665,-161.5786
-15.047324,-160.161
-14.973437,-158.86867
-14.942894,-162.1143
-15.573951,-162.55913
-15.05764,-159.94
-15.270833,-158.78282
-15.092503,-163.11145
-14.986657,-160.48709
-15.312901,-159.48846
-15.082218,-161.17415
-15.085605,-157.70641
-15.224059,-158.72878
-15.002771,-163.18633
-15.022244,-160.02519
-14.898738,-157.28105
-15.16433,-160.74683
-14.702636,-156.55212
-14.465307,-160.67717
-15.248948,-160.96758
-14.958056,-161.71336
-15.447485,-159.60049
-14.776948,-161.02377
-15.153872,-159.55928
-15.564789,-160.63315
-15.216899,-159.40524
-15.192201,-158.49974
-15.131918,-158.96971
-14.783497,-159.7323
-14.9398,-163.7175
-15.104546,-161.74304
-14.93603,-161.5146
-14.813622,-159.57742
-15.068197,-158.33029
-15.098606,-159.05887
-15.009426,-160.52704
-15.365913,-161.47975
-15.030076,-157.75685
-15.257795,-161.59811
-14.857045,-159.69984
-15.164833,-160.43983
-14.997137,-162.60446
-15.737744,-163.44173
-15.052404,-156.8653
-14.830709,-159.87912
-15.014425,-158.84979
-15.159736,-161.12775
-14.951646,-158.91557
-14.629808,-161.56474
-15.155528,-157.56392
-15.051583,-159.75209
-15.279257,-158.27556
-14.899518,-162.11353
-15.304085,-159.19832
-14.521935,-159.60985
-15.276201,-160.83589
-15.370687,-159.65221
-15.336808,-161.51135
-15.06286,-161.63132
-15.004153,-159.70055
-15.081607,-161.00946
-14.741362,-160.0928
-15.400278,-161.11244
-15.162335,-159.83527
-15.209827,-160.3177
-15.404714,-161.88475
-14.90076,-159.6152
-15.013059,-161.44687
-14.930767,-159.12836
-15.061207,-161.34479
-15.235506,-158.28557
-15.031252,-160.21782
-15.249108,-158.4435
-14.918653,-162.28523
-15.314707,-158.63251
-15.279935,-160.26207
-15.165269,-162.12108
-14.96953,-159.79878
-15.229171,-160.69287
-14.958977,-161.27065
-14.942768,-162.26421
-14.709167,-160.30911
-15.063519,-160.72765
-14.75075,-160.10637
-15.15179,-160.09702
-14.972971,-160.27618
-15.073487,-160.95035
-15.191196,-158.98965
-15.1311,-157.91505
-14.767941,-161.25636
-14.943803,-160.02646
-15.200922,-160.59053
-14.926493,-160.20889
-14.809819,-162.45686
-15.112057,-159.11545
-15.286768,-160.64473
-15.071104,-162.13995
-15.199129,-158.77283
-14.856072,-160.61151
-14.771959,-160.06073
-15.210351,-160.36893
-14.965435,-159.16458
-14.934567,-158.28448
-14.983742,-158.21915
-15.125246,-161.39949
-15.109203,-163.42087
-15.169538,-159.92114
-14.957861,-158.58185
-15.048203,-161.05087
-15.407271,-163.12801
-14.877234,-159.31413
-15.304188,-160.99213
-15.119366,-160.50798
-15.056314,-159.31274
-14.975058,-160.60568
-14.993683,-159.32843
-14.92709,-160.49527
-14.838655,-159.21584
-15.125529,-160.88129
-15.122811,-159.71625
-15.184718,-161.37085
-14.74839,-161.65161
-14.895272,-160.17511
-14.861249,-159.32011
-15.110568,-159.62233
-15.056141,-160.46323
-15.211008,-160.81445
-15.091208,-159.76913
-15.267987,-160.10196
-14.956956,-160.32167
-15.353463,-160.39334
-15.206359,-160.63535
-15.16751,-157.66872
-15.138751,-160.16164
-14.892015,-159.24368
-14.879052,-160.94182
-15.11797,-161.04272
-14.719235,-160.28517
-14.917094,-161.745
-15.02667,-160.62416
-15.232739,-159.55019
-15.231878,-158.52933
-15.089963,-161.02872
-15.232438,-160.74243
-15.176141,-162.15819
-15.147725,-160.92641
-14.753716,-158.99669
-15.363655,-160.32364
-15.030177,-161.707
-15.117833,-159.98308
-15.25808,-159.36339
-14.990874,-158.45622
-14.977732,-159.39403
-15.197871,-160.39195
-15.316278,-162.25208
-15.237747,-157.58519
-15.184529,-159.16473
-15.123752,-158.5947
-15.185209,-159.65872
-15.081438,-160.86786
-15.05309,-161.82445
-15.093802,-159.26372
-15.149007,-160.35472
-15.321525,-163.21687
-15.250152,-161.49135
-14.639983,-159.76765
-14.888304,-162.63652
-15.510277,-163.22336
-15.081656,-161.20924
-15.211722,-158.99011
-15.46596,-160.87788
-15.058672,-160.30402
-15.179452,-160.28569
-15.385589,-161.30568
-15.268312,-159.38194
-15.168028,-162.34146
-14.978597,-159.66588
-14.909244,-161.76678
-15.047141,-160.21222
-15.028997,-160.86853
-14.935259,-159.07545
-15.308228,-161.96239
-14.884493,-159.5007
-14.83306,-160.94678
-15.266562,-159.29344
-15.231535,-159.222
-15.072724,-161.19513
-15.130791,-161.47218
-15.007185,-159.79153
-15.115088,-160.63872
-14.842242,-158.76541
-14.965674,-159.72153
-15.018809,-158.36455
-15.181776,-160.11148
-15.046591,-161.69188
-15.143862,-160.74632
-15.157532,-160.1508
-15.009176,-160.68478
-15.075984,-162.25996
-14.766061,-160.2294
-15.105765,-161.55746
-15.137989,-159.6692
-14.855735,-159.53185
-15.058117,-159.80447
-15.056228,-158.56348
-15.086396,-159.99007
-15.318671,-159.53445
-15.275652,-158.11911
-15.011607,-159.59578
-15.043262,-158.96429
-15.155153,-161.01288
-15.323265,-161.5011
-15.048483,-161.43036
-14.974174,-158.42688
-15.293194,-160.33624
-14.89837,-160.81639
-15.256788,-160.14224
-15.12359,-159.0739
-15.137073,-160.4884
-14.920691,-159.46196
-14.722473,-160.97807
-15.347229,-160.08929
-15.324335,-162.64575
-14.919766,-159.32199
-14.964764,-158.06657
-15.148731,-160.0551
-15.130676,-160.77542
-15.363218,-161.64894
-15.081464,-160.31615
-15.321197,-158.90466
-14.940195,-161.56047
-15.007073,-159.27855
-14.896522,-160.16689
-15.010955,-159.16826
-15.116938,-160.01451
-15.129054,-160.13339
-15.153108,-160.7601
-15.350567,-159.55177
-15.074488,-160.13997
-15.156467,-158.73943
-15.174368,-160.76366
-15.151078,-160.03821
-14.934068,-161.64867
-14.970528,-159.35942
-15.149518,-158.93578
-15.137243,-160.89111
-15.129194,-159.73219
-15.070863,-160.77362
-14.858691,-159.56938
-15.205581,-161.93492
-14.968331,-161.00677
-14.942988,-159.8665
-15.158354,-160.24455
-15.143676,-159.55298
-15.116361,-159.5184
-15.091187,-158.80568
-15.097393,-161.2281
-15.05902,-158.8268
-15.034757,-160.41551
-14.910417,-158.24956
-15.128928,-161.6584
-15.241191,-160.05243
-15.059582,-160.41557
-15.171803,-159.93407
-15.091406,-158.83667
-15.116133,-158.5334
-14.952981,-158.55795
-15.07412,-158.92393
-15.067874,-159.90919
-15.079927,-160.09926
