CITIFILE A.01.01
!Agilent Technologies,N5230C,MY48100142,A.08.04.10
!Agilent N5230C: A.08.04.10
!Format: LogMag/Angle
!Date: Friday, August 21, 2020 16:45:44
NAME CH1_DATA
VAR Power MAG 801
DATA S11 DBANGLE
DATA S21 DBANGLE
DATA S12 DBANGLE
DATA S22 DBANGLE
VAR_LIST_BEGIN
-40
-39.975
-39.95
-39.925
-39.9
-39.875
-39.85
-39.825
-39.8
-39.775
-39.75
-39.725
-39.7
-39.675
-39.65
-39.625
-39.6
-39.575
-39.55
-39.525
-39.5
-39.475
-39.45
-39.425
-39.4
-39.375
-39.35
-39.325
-39.3
-39.275
-39.25
-39.225
-39.2
-39.175
-39.15
-39.125
-39.1
-39.075
-39.05
-39.025
-39
-38.975
-38.95
-38.925
-38.9
-38.875
-38.85
-38.825
-38.8
-38.775
-38.75
-38.725
-38.7
-38.675
-38.65
-38.625
-38.6
-38.575
-38.55
-38.525
-38.5
-38.475
-38.45
-38.425
-38.4
-38.375
-38.35
-38.325
-38.3
-38.275
-38.25
-38.225
-38.2
-38.175
-38.15
-38.125
-38.1
-38.075
-38.05
-38.025
-38
-37.975
-37.95
-37.925
-37.9
-37.875
-37.85
-37.825
-37.8
-37.775
-37.75
-37.725
-37.7
-37.675
-37.65
-37.625
-37.6
-37.575
-37.55
-37.525
-37.5
-37.475
-37.45
-37.425
-37.4
-37.375
-37.35
-37.325
-37.3
-37.275
-37.25
-37.225
-37.2
-37.175
-37.15
-37.125
-37.1
-37.075
-37.05
-37.025
-37
-36.975
-36.95
-36.925
-36.9
-36.875
-36.85
-36.825
-36.8
-36.775
-36.75
-36.725
-36.7
-36.675
-36.65
-36.625
-36.6
-36.575
-36.55
-36.525
-36.5
-36.475
-36.45
-36.425
-36.4
-36.375
-36.35
-36.325
-36.3
-36.275
-36.25
-36.225
-36.2
-36.175
-36.15
-36.125
-36.1
-36.075
-36.05
-36.025
-36
-35.975
-35.95
-35.925
-35.9
-35.875
-35.85
-35.825
-35.8
-35.775
-35.75
-35.725
-35.7
-35.675
-35.65
-35.625
-35.6
-35.575
-35.55
-35.525
-35.5
-35.475
-35.45
-35.425
-35.4
-35.375
-35.35
-35.325
-35.3
-35.275
-35.25
-35.225
-35.2
-35.175
-35.15
-35.125
-35.1
-35.075
-35.05
-35.025
-35
-34.975
-34.95
-34.925
-34.9
-34.875
-34.85
-34.825
-34.8
-34.775
-34.75
-34.725
-34.7
-34.675
-34.65
-34.625
-34.6
-34.575
-34.55
-34.525
-34.5
-34.475
-34.45
-34.425
-34.4
-34.375
-34.35
-34.325
-34.3
-34.275
-34.25
-34.225
-34.2
-34.175
-34.15
-34.125
-34.1
-34.075
-34.05
-34.025
-34
-33.975
-33.95
-33.925
-33.9
-33.875
-33.85
-33.825
-33.8
-33.775
-33.75
-33.725
-33.7
-33.675
-33.65
-33.625
-33.6
-33.575
-33.55
-33.525
-33.5
-33.475
-33.45
-33.425
-33.4
-33.375
-33.35
-33.325
-33.3
-33.275
-33.25
-33.225
-33.2
-33.175
-33.15
-33.125
-33.1
-33.075
-33.05
-33.025
-33
-32.975
-32.95
-32.925
-32.9
-32.875
-32.85
-32.825
-32.8
-32.775
-32.75
-32.725
-32.7
-32.675
-32.65
-32.625
-32.6
-32.575
-32.55
-32.525
-32.5
-32.475
-32.45
-32.425
-32.4
-32.375
-32.35
-32.325
-32.3
-32.275
-32.25
-32.225
-32.2
-32.175
-32.15
-32.125
-32.1
-32.075
-32.05
-32.025
-32
-31.975
-31.95
-31.925
-31.9
-31.875
-31.85
-31.825
-31.8
-31.775
-31.75
-31.725
-31.7
-31.675
-31.65
-31.625
-31.6
-31.575
-31.55
-31.525
-31.5
-31.475
-31.45
-31.425
-31.4
-31.375
-31.35
-31.325
-31.3
-31.275
-31.25
-31.225
-31.2
-31.175
-31.15
-31.125
-31.1
-31.075
-31.05
-31.025
-31
-30.975
-30.95
-30.925
-30.9
-30.875
-30.85
-30.825
-30.8
-30.775
-30.75
-30.725
-30.7
-30.675
-30.65
-30.625
-30.6
-30.575
-30.55
-30.525
-30.5
-30.475
-30.45
-30.425
-30.4
-30.375
-30.35
-30.325
-30.3
-30.275
-30.25
-30.225
-30.2
-30.175
-30.15
-30.125
-30.1
-30.075
-30.05
-30.025
-30
-29.975
-29.95
-29.925
-29.9
-29.875
-29.85
-29.825
-29.8
-29.775
-29.75
-29.725
-29.7
-29.675
-29.65
-29.625
-29.6
-29.575
-29.55
-29.525
-29.5
-29.475
-29.45
-29.425
-29.4
-29.375
-29.35
-29.325
-29.3
-29.275
-29.25
-29.225
-29.2
-29.175
-29.15
-29.125
-29.1
-29.075
-29.05
-29.025
-29
-28.975
-28.95
-28.925
-28.9
-28.875
-28.85
-28.825
-28.8
-28.775
-28.75
-28.725
-28.7
-28.675
-28.65
-28.625
-28.6
-28.575
-28.55
-28.525
-28.5
-28.475
-28.45
-28.425
-28.4
-28.375
-28.35
-28.325
-28.3
-28.275
-28.25
-28.225
-28.2
-28.175
-28.15
-28.125
-28.1
-28.075
-28.05
-28.025
-28
-27.975
-27.95
-27.925
-27.9
-27.875
-27.85
-27.825
-27.8
-27.775
-27.75
-27.725
-27.7
-27.675
-27.65
-27.625
-27.6
-27.575
-27.55
-27.525
-27.5
-27.475
-27.45
-27.425
-27.4
-27.375
-27.35
-27.325
-27.3
-27.275
-27.25
-27.225
-27.2
-27.175
-27.15
-27.125
-27.1
-27.075
-27.05
-27.025
-27
-26.975
-26.95
-26.925
-26.9
-26.875
-26.85
-26.825
-26.8
-26.775
-26.75
-26.725
-26.7
-26.675
-26.65
-26.625
-26.6
-26.575
-26.55
-26.525
-26.5
-26.475
-26.45
-26.425
-26.4
-26.375
-26.35
-26.325
-26.3
-26.275
-26.25
-26.225
-26.2
-26.175
-26.15
-26.125
-26.1
-26.075
-26.05
-26.025
-26
-25.975
-25.95
-25.925
-25.9
-25.875
-25.85
-25.825
-25.8
-25.775
-25.75
-25.725
-25.7
-25.675
-25.65
-25.625
-25.6
-25.575
-25.55
-25.525
-25.5
-25.475
-25.45
-25.425
-25.4
-25.375
-25.35
-25.325
-25.3
-25.275
-25.25
-25.225
-25.2
-25.175
-25.15
-25.125
-25.1
-25.075
-25.05
-25.025
-25
-24.975
-24.95
-24.925
-24.9
-24.875
-24.85
-24.825
-24.8
-24.775
-24.75
-24.725
-24.7
-24.675
-24.65
-24.625
-24.6
-24.575
-24.55
-24.525
-24.5
-24.475
-24.45
-24.425
-24.4
-24.375
-24.35
-24.325
-24.3
-24.275
-24.25
-24.225
-24.2
-24.175
-24.15
-24.125
-24.1
-24.075
-24.05
-24.025
-24
-23.975
-23.95
-23.925
-23.9
-23.875
-23.85
-23.825
-23.8
-23.775
-23.75
-23.725
-23.7
-23.675
-23.65
-23.625
-23.6
-23.575
-23.55
-23.525
-23.5
-23.475
-23.45
-23.425
-23.4
-23.375
-23.35
-23.325
-23.3
-23.275
-23.25
-23.225
-23.2
-23.175
-23.15
-23.125
-23.1
-23.075
-23.05
-23.025
-23
-22.975
-22.95
-22.925
-22.9
-22.875
-22.85
-22.825
-22.8
-22.775
-22.75
-22.725
-22.7
-22.675
-22.65
-22.625
-22.6
-22.575
-22.55
-22.525
-22.5
-22.475
-22.45
-22.425
-22.4
-22.375
-22.35
-22.325
-22.3
-22.275
-22.25
-22.225
-22.2
-22.175
-22.15
-22.125
-22.1
-22.075
-22.05
-22.025
-22
-21.975
-21.95
-21.925
-21.9
-21.875
-21.85
-21.825
-21.8
-21.775
-21.75
-21.725
-21.7
-21.675
-21.65
-21.625
-21.6
-21.575
-21.55
-21.525
-21.5
-21.475
-21.45
-21.425
-21.4
-21.375
-21.35
-21.325
-21.3
-21.275
-21.25
-21.225
-21.2
-21.175
-21.15
-21.125
-21.1
-21.075
-21.05
-21.025
-21
-20.975
-20.95
-20.925
-20.9
-20.875
-20.85
-20.825
-20.8
-20.775
-20.75
-20.725
-20.7
-20.675
-20.65
-20.625
-20.6
-20.575
-20.55
-20.525
-20.5
-20.475
-20.45
-20.425
-20.4
-20.375
-20.35
-20.325
-20.3
-20.275
-20.25
-20.225
-20.2
-20.175
-20.15
-20.125
-20.1
-20.075
-20.05
-20.025
-20
VAR_LIST_END
BEGIN
-15.218845,-159.21092
-15.306689,-158.58324
-14.996341,-158.5537
-14.888038,-159.03152
-15.088273,-159.24469
-14.918955,-158.80382
-14.571475,-159.27409
-14.843579,-158.2567
-15.187463,-159.64061
-14.476596,-159.06445
-15.35094,-159.28329
-14.685293,-157.91794
-14.830858,-159.8383
-15.001425,-157.86931
-15.030069,-158.62054
-15.074786,-157.43149
-14.853783,-157.86572
-15.092594,-160.61237
-15.209952,-155.78098
-15.338274,-156.78207
-14.932639,-158.53279
-15.127607,-158.99831
-14.992311,-158.32761
-15.114308,-156.89378
-15.221381,-160.16762
-14.884762,-157.0761
-15.358446,-159.40253
-15.021693,-158.37527
-15.257835,-157.32899
-15.219825,-160.91092
-14.959186,-157.61426
-14.936203,-160.17984
-15.276076,-159.40015
-15.285604,-161.41983
-14.929002,-159.17107
-15.128195,-158.47101
-14.736759,-158.93349
-15.044483,-159.84448
-15.241249,-160.77873
-15.265135,-159.52573
-15.421807,-158.8567
-14.997174,-156.20105
-15.173951,-160.17271
-15.055067,-160.30841
-14.997848,-157.9939
-15.142465,-159.0014
-15.067868,-160.6989
-15.178699,-159.02002
-14.944709,-159.03777
-15.411646,-159.28445
-14.622663,-156.41939
-15.244031,-156.83757
-15.077038,-157.5123
-14.91576,-159.17072
-14.916656,-159.22542
-15.43501,-156.8887
-14.988733,-160.48389
-15.064243,-158.20879
-15.08105,-158.20169
-14.847523,-158.5567
-14.952286,-156.99501
-14.657829,-158.05894
-14.968326,-159.08095
-14.852949,-159.58478
-15.344041,-157.77303
-15.025595,-159.69289
-14.991468,-158.40857
-14.954568,-159.31512
-15.123939,-159.81927
-14.992042,-159.34117
-15.296932,-157.16194
-14.862174,-158.72095
-14.985214,-157.80164
-15.149617,-157.01164
-15.165396,-160.50946
-15.017146,-157.79257
-15.184371,-158.25046
-15.146324,-159.87155
-15.277109,-158.599
-15.018105,-156.83589
-14.777355,-160.62402
-14.926811,-157.05284
-15.305037,-160.52971
-14.931872,-156.94527
-14.905469,-159.06937
-14.998205,-159.05788
-15.191716,-158.591
-15.177012,-159.76601
-15.059457,-159.15767
-15.087704,-158.84189
-15.08471,-158.65665
-15.067873,-158.75758
-15.020707,-157.88324
-15.061928,-158.84152
-15.088244,-158.05757
-15.071391,-157.75089
-15.036606,-159.9767
-15.067479,-159.53659
-15.15209,-158.24504
-14.985126,-159.42485
-15.126261,-160.3513
-14.848346,-159.04208
-15.016557,-158.71246
-15.197047,-159.07701
-14.985517,-159.08252
-15.149116,-160.65941
-15.00261,-158.47331
-15.10333,-157.86432
-15.018618,-159.84604
-15.30302,-157.96976
-14.973629,-157.81456
-14.96485,-159.05304
-14.917862,-158.06619
-14.911044,-158.71248
-15.116171,-158.778
-14.94253,-160.32979
-15.184015,-157.34621
-14.944355,-158.55075
-15.246478,-159.18192
-15.038104,-160.21722
-14.88235,-158.54193
-15.042929,-159.56331
-14.76415,-158.72064
-15.019452,-160.64435
-15.068171,-157.65015
-15.09762,-159.12413
-15.109865,-158.74207
-15.192443,-160.23531
-15.037523,-159.04022
-15.030515,-158.25166
-14.984167,-159.29791
-15.076172,-160.20625
-15.079417,-159.55548
-14.966011,-159.33417
-15.088222,-158.98657
-15.114264,-158.75566
-15.132325,-158.86472
-15.268163,-158.4426
-15.400019,-157.94525
-15.429027,-159.47012
-15.16946,-159.42731
-14.990213,-160.72661
-15.403607,-158.33502
-15.095087,-158.30452
-15.313869,-159.95485
-15.099667,-158.63683
-14.994577,-158.66908
-15.125081,-159.50829
-14.961122,-160.19781
-14.965475,-158.22191
-15.087429,-156.31874
-14.96474,-159.48235
-14.952635,-159.18242
-14.923461,-159.5255
-15.223619,-159.9194
-14.966974,-159.39424
-14.93483,-158.36496
-15.105438,-160.56143
-14.921621,-159.53709
-15.013284,-159.797
-14.914316,-159.36444
-15.165126,-158.56056
-14.914248,-158.30428
-15.157726,-158.26042
-15.093464,-159.22856
-15.130958,-157.81946
-15.072577,-159.03188
-15.195781,-158.7261
-14.733554,-159.77657
-15.08224,-158.69064
-15.041906,-159.13649
-15.021135,-157.79076
-15.084184,-159.00488
-15.205293,-158.90466
-15.184201,-158.1071
-15.058905,-158.70979
-15.04223,-159.15005
-15.078092,-159.03616
-15.124427,-157.64743
-14.924003,-158.88519
-14.949512,-158.50572
-14.91566,-158.20828
-14.86185,-158.74084
-14.924187,-158.69507
-15.006841,-157.96364
-14.857822,-158.37244
-15.265676,-159.11435
-14.904328,-158.37259
-15.012242,-157.21506
-14.875401,-157.32991
-15.097535,-159.06308
-14.78023,-157.72192
-15.138231,-158.34181
-15.13319,-158.82915
-14.960001,-158.92725
-14.984023,-159.17841
-15.264861,-158.83578
-14.925693,-158.29674
-14.956994,-158.69455
-14.956625,-159.48325
-15.183504,-160.58794
-15.060544,-158.54173
-14.803433,-158.86009
-14.969457,-158.33928
-14.938683,-158.25626
-15.010207,-158.00385
-14.920082,-158.07867
-14.926044,-160.5959
-15.129837,-158.03232
-15.152147,-159.30916
-15.10826,-158.27449
-15.076965,-158.83057
-14.986901,-157.86382
-15.074099,-157.32918
-15.09411,-159.14201
-15.022933,-158.6066
-14.914101,-158.68073
-15.043575,-158.40231
-15.135332,-158.1358
-14.978011,-156.6035
-14.845216,-158.02776
-15.191658,-159.8017
-15.050118,-159.10016
-15.128943,-159.42993
-15.149217,-158.52328
-15.083959,-159.60266
-15.107664,-159.84987
-15.063227,-158.59779
-14.991816,-158.70021
-14.937497,-159.92336
-15.028886,-159.69931
-15.089923,-157.70068
-15.063582,-159.62209
-14.893711,-158.38176
-15.060433,-159.5731
-15.003022,-157.96341
-15.15463,-157.38782
-15.166757,-158.79408
-14.879191,-159.09694
-14.974352,-159.13016
-15.224316,-160.10123
-15.017778,-159.8266
-14.866155,-159.25426
-15.00163,-158.15698
-15.197717,-158.02499
-14.914564,-159.81049
-15.018723,-158.28082
-15.077793,-158.12259
-15.280166,-159.84125
-15.108435,-158.24333
-14.971841,-158.61121
-15.045787,-159.96222
-15.179552,-158.791
-14.924282,-158.86061
-15.215334,-157.7675
-15.115213,-158.02388
-15.033566,-158.74411
-14.999366,-159.38503
-15.065178,-158.45174
-14.984532,-158.94705
-14.981965,-158.28378
-15.035746,-159.14853
-14.888327,-159.86354
-15.021517,-159.39743
-15.165751,-158.68472
-15.148024,-158.53157
-15.045452,-159.44981
-15.093398,-158.47809
-15.101671,-158.5551
-14.891744,-158.25392
-15.007386,-159.78796
-14.851543,-158.87274
-15.228407,-158.94614
-15.111901,-158.48898
-15.130788,-158.40492
-15.049541,-159.75182
-15.067883,-159.51208
-14.979858,-157.77988
-14.947897,-159.40186
-15.026629,-159.35698
-15.058627,-158.45229
-15.109765,-157.97028
-15.110342,-158.77898
-15.056507,-158.69621
-15.030424,-158.40234
-15.187458,-159.14053
-14.965857,-158.67046
-15.106503,-158.48343
-15.08992,-158.79051
-15.040412,-158.55914
-14.974049,-158.2728
-14.946859,-159.45787
-15.030566,-159.05754
-15.159421,-158.9231
-15.09374,-158.63928
-15.092888,-159.51633
-15.053444,-159.56134
-14.897767,-158.84047
-15.029147,-159.52451
-15.09545,-159.84352
-15.046731,-158.23183
-14.999707,-159.4758
-15.078665,-157.99939
-15.146582,-159.05904
-15.116114,-158.76277
-14.99448,-158.42255
-15.057373,-158.94131
-14.979877,-159.5078
-15.143647,-158.85481
-15.017007,-158.85573
-14.985378,-158.51318
-15.192955,-159.06303
-15.166977,-159.04433
-15.166413,-159.04498
-15.077822,-159.26611
-15.051412,-159.52226
-15.070141,-158.39522
-15.102482,-158.4691
-15.211024,-158.91196
-15.100018,-158.87643
-15.115429,-159.08365
-15.033773,-159.37228
-15.102694,-159.8875
-15.082966,-158.40286
-15.047006,-159.19484
-15.051784,-158.56064
-14.975789,-158.66432
-14.880249,-159.13287
-15.047106,-159.30408
-15.098269,-159.39577
-14.955638,-160.03261
-15.068281,-158.95052
-15.022697,-159.07938
-15.003071,-158.53123
-14.97468,-158.4445
-15.220773,-159.68199
-15.079331,-160.10143
-15.031097,-158.80156
-14.954525,-158.57158
-15.219021,-158.4303
-15.219872,-158.7625
-15.096866,-159.51935
-15.007265,-158.33568
-15.015076,-158.03842
-14.958938,-157.59937
-15.093993,-159.78592
-15.05349,-158.83969
-15.012594,-158.59984
-14.976977,-158.40485
-15.008892,-158.46922
-15.087286,-158.41302
-15.014267,-158.28534
-15.082748,-157.80666
-14.829895,-158.95824
-15.098082,-159.13199
-15.01895,-158.16313
-15.141042,-157.61356
-14.906591,-158.0061
-15.038606,-158.85928
-15.005302,-158.48529
-14.93297,-158.86394
-14.958385,-158.81883
-14.950971,-158.83879
-15.116166,-160.10565
-15.064168,-158.89655
-14.97049,-159.53827
-14.957126,-158.39685
-15.020092,-158.59906
-15.062548,-158.76125
-14.909033,-158.70613
-15.071176,-159.4906
-15.098987,-158.37225
-14.99528,-157.94421
-15.115855,-158.75385
-15.012897,-158.17517
-15.004346,-159.08353
-15.077426,-158.54042
-14.974966,-158.24461
-15.143513,-159.2309
-15.074815,-158.85429
-15.081852,-159.00256
-15.077402,-158.70091
-15.123599,-158.1324
-15.225804,-158.73132
-14.888325,-159.05571
-14.913082,-159.23445
-14.98961,-158.75533
-14.961657,-158.24199
-15.084725,-158.95628
-14.994137,-158.92288
-15.009605,-159.4679
-14.984164,-158.22531
-15.167991,-158.31326
-15.051749,-158.80722
-15.110194,-157.72987
-15.041844,-159.0441
-14.985512,-159.15019
-15.09091,-159.16388
-15.039351,-158.98746
-15.033133,-158.71719
-15.038198,-158.80661
-15.023137,-158.79218
-14.92178,-159.34148
-15.156631,-158.99702
-14.909894,-158.8943
-15.131647,-158.40923
-15.052356,-159.7791
-15.0981,-158.21284
-15.015593,-159.24684
-15.102679,-158.45815
-15.081609,-159.47958
-15.153212,-158.31052
-15.12002,-159.13046
-15.100596,-158.87003
-15.045406,-159.14844
-15.017875,-158.97598
-15.059191,-158.7791
-15.05496,-158.48546
-15.049899,-158.88327
-15.004761,-158.66313
-14.989865,-158.86899
-14.912313,-159.29637
-15.087988,-159.11777
-15.135626,-158.66931
-15.065185,-158.53937
-15.026776,-158.67664
-15.033423,-159.22122
-15.078056,-158.25577
-15.06406,-158.42386
-15.129089,-158.7435
-14.959991,-159.22052
-15.141558,-159.11415
-14.979681,-158.58348
-15.062314,-158.6915
-15.064299,-158.60437
-15.00865,-158.68951
-15.002153,-158.87991
-15.101989,-158.81975
-15.009823,-159.0437
-15.099051,-158.94382
-15.004715,-159.32793
-14.96862,-159.0078
-14.96092,-158.66313
-14.967688,-158.71526
-15.113791,-158.94342
-15.015265,-158.36705
-15.141859,-159.42287
-15.084821,-158.64565
-15.030843,-158.97604
-15.036735,-159.01015
-14.965585,-158.55695
-15.026524,-157.63567
-15.037809,-158.80673
-15.123029,-158.43631
-15.010345,-158.86087
-15.008266,-159.11203
-15.082519,-158.99484
-15.098157,-158.53984
-15.065592,-158.49623
-15.005958,-158.63638
-15.086478,-159.77585
-15.017049,-159.2907
-14.989565,-159.26639
-15.056728,-158.22537
-15.065106,-158.56624
-15.085399,-158.87648
-15.035477,-158.84622
-14.95488,-158.47214
-15.073514,-159.44395
-15.040862,-158.91963
-15.045464,-159.20961
-15.058021,-158.912
-15.102823,-158.73036
-15.082531,-158.52136
-15.055971,-158.63814
-14.92643,-159.14005
-14.967833,-158.54007
-15.088856,-158.77209
-15.079254,-159.05226
-15.044187,-158.89384
-15.043873,-158.70908
-15.168741,-158.64574
-15.074153,-159.20129
-15.093278,-159.03476
-15.100802,-159.16853
-15.000156,-158.74841
-15.088919,-158.98744
-15.05403,-158.26491
-14.979569,-159.655
-15.068726,-158.74084
-15.119471,-158.91493
-15.083652,-158.62909
-15.027235,-158.78517
-15.135181,-159.11098
-15.081765,-158.79198
-15.035438,-158.72241
-15.015006,-158.93904
-15.053267,-158.92686
-15.086039,-158.7561
-15.067733,-158.95085
-15.017515,-158.89629
-15.030811,-159.13568
-14.937389,-158.54535
-15.0723,-158.71378
-15.090002,-158.59372
-15.036004,-158.85364
-15.012859,-158.85979
-14.92781,-158.82909
-14.971458,-158.56311
-14.98568,-159.15005
-15.002795,-158.8905
-15.03166,-159.12764
-15.009517,-159.08043
-15.052744,-158.86595
-15.032196,-158.60796
-15.038158,-158.79379
-15.027782,-158.65469
-15.011433,-159.12701
-15.075374,-159.12296
-15.0229,-158.8371
-15.017641,-158.90376
-15.033066,-158.83089
-14.952738,-158.72266
-14.930249,-158.84401
-14.998813,-158.49191
-15.089126,-158.99852
-15.046102,-158.70348
-15.04054,-158.66142
-14.976679,-158.98001
-15.062036,-159.43762
-14.961392,-159.0757
-15.010146,-159.06125
-15.01843,-158.54558
-15.022817,-158.69276
-15.011045,-159.48151
-15.042887,-158.55707
-14.9739,-159.00806
-15.044888,-158.78825
-15.079337,-158.45621
-14.972004,-159.28824
-15.017221,-158.56076
-15.030919,-158.76268
-15.05248,-158.63385
-15.056981,-159.24055
-15.050412,-159.21806
-14.995601,-158.89066
-15.005219,-159.13374
-15.059677,-158.64827
-15.050693,-158.60265
-15.117049,-158.88451
-15.082888,-159.33328
-15.015649,-158.75443
-15.083026,-158.74033
-15.05837,-159.07195
-15.039961,-158.71536
-15.00093,-159.08908
-15.012508,-158.59538
-15.062385,-158.90475
-15.05942,-158.78374
-15.006703,-158.58592
-15.033719,-158.77664
-15.011498,-158.79744
-15.05679,-158.97377
-15.053308,-158.56888
-15.062353,-158.82045
-15.076193,-159.30626
-15.0909,-158.93326
-15.092227,-159.41766
-15.049522,-159.11278
-15.087611,-158.92822
-15.026637,-158.93678
-14.963555,-158.46945
-15.110055,-159.35548
-15.082014,-158.71509
-15.003608,-158.76208
-15.013801,-158.8125
