CITIFILE A.01.01
!Agilent Technologies,N5230C,MY48100142,A.08.04.10
!Agilent N5230C: A.08.04.10
!Format: LogMag/Angle
!Date: Wednesday, September 02, 2020 15:05:12
NAME CH1_DATA
VAR Power MAG 801
DATA S11 DBANGLE
DATA S21 DBANGLE
DATA S12 DBANGLE
DATA S22 DBANGLE
VAR_LIST_BEGIN
-40
-39.975
-39.95
-39.925
-39.9
-39.875
-39.85
-39.825
-39.8
-39.775
-39.75
-39.725
-39.7
-39.675
-39.65
-39.625
-39.6
-39.575
-39.55
-39.525
-39.5
-39.475
-39.45
-39.425
-39.4
-39.375
-39.35
-39.325
-39.3
-39.275
-39.25
-39.225
-39.2
-39.175
-39.15
-39.125
-39.1
-39.075
-39.05
-39.025
-39
-38.975
-38.95
-38.925
-38.9
-38.875
-38.85
-38.825
-38.8
-38.775
-38.75
-38.725
-38.7
-38.675
-38.65
-38.625
-38.6
-38.575
-38.55
-38.525
-38.5
-38.475
-38.45
-38.425
-38.4
-38.375
-38.35
-38.325
-38.3
-38.275
-38.25
-38.225
-38.2
-38.175
-38.15
-38.125
-38.1
-38.075
-38.05
-38.025
-38
-37.975
-37.95
-37.925
-37.9
-37.875
-37.85
-37.825
-37.8
-37.775
-37.75
-37.725
-37.7
-37.675
-37.65
-37.625
-37.6
-37.575
-37.55
-37.525
-37.5
-37.475
-37.45
-37.425
-37.4
-37.375
-37.35
-37.325
-37.3
-37.275
-37.25
-37.225
-37.2
-37.175
-37.15
-37.125
-37.1
-37.075
-37.05
-37.025
-37
-36.975
-36.95
-36.925
-36.9
-36.875
-36.85
-36.825
-36.8
-36.775
-36.75
-36.725
-36.7
-36.675
-36.65
-36.625
-36.6
-36.575
-36.55
-36.525
-36.5
-36.475
-36.45
-36.425
-36.4
-36.375
-36.35
-36.325
-36.3
-36.275
-36.25
-36.225
-36.2
-36.175
-36.15
-36.125
-36.1
-36.075
-36.05
-36.025
-36
-35.975
-35.95
-35.925
-35.9
-35.875
-35.85
-35.825
-35.8
-35.775
-35.75
-35.725
-35.7
-35.675
-35.65
-35.625
-35.6
-35.575
-35.55
-35.525
-35.5
-35.475
-35.45
-35.425
-35.4
-35.375
-35.35
-35.325
-35.3
-35.275
-35.25
-35.225
-35.2
-35.175
-35.15
-35.125
-35.1
-35.075
-35.05
-35.025
-35
-34.975
-34.95
-34.925
-34.9
-34.875
-34.85
-34.825
-34.8
-34.775
-34.75
-34.725
-34.7
-34.675
-34.65
-34.625
-34.6
-34.575
-34.55
-34.525
-34.5
-34.475
-34.45
-34.425
-34.4
-34.375
-34.35
-34.325
-34.3
-34.275
-34.25
-34.225
-34.2
-34.175
-34.15
-34.125
-34.1
-34.075
-34.05
-34.025
-34
-33.975
-33.95
-33.925
-33.9
-33.875
-33.85
-33.825
-33.8
-33.775
-33.75
-33.725
-33.7
-33.675
-33.65
-33.625
-33.6
-33.575
-33.55
-33.525
-33.5
-33.475
-33.45
-33.425
-33.4
-33.375
-33.35
-33.325
-33.3
-33.275
-33.25
-33.225
-33.2
-33.175
-33.15
-33.125
-33.1
-33.075
-33.05
-33.025
-33
-32.975
-32.95
-32.925
-32.9
-32.875
-32.85
-32.825
-32.8
-32.775
-32.75
-32.725
-32.7
-32.675
-32.65
-32.625
-32.6
-32.575
-32.55
-32.525
-32.5
-32.475
-32.45
-32.425
-32.4
-32.375
-32.35
-32.325
-32.3
-32.275
-32.25
-32.225
-32.2
-32.175
-32.15
-32.125
-32.1
-32.075
-32.05
-32.025
-32
-31.975
-31.95
-31.925
-31.9
-31.875
-31.85
-31.825
-31.8
-31.775
-31.75
-31.725
-31.7
-31.675
-31.65
-31.625
-31.6
-31.575
-31.55
-31.525
-31.5
-31.475
-31.45
-31.425
-31.4
-31.375
-31.35
-31.325
-31.3
-31.275
-31.25
-31.225
-31.2
-31.175
-31.15
-31.125
-31.1
-31.075
-31.05
-31.025
-31
-30.975
-30.95
-30.925
-30.9
-30.875
-30.85
-30.825
-30.8
-30.775
-30.75
-30.725
-30.7
-30.675
-30.65
-30.625
-30.6
-30.575
-30.55
-30.525
-30.5
-30.475
-30.45
-30.425
-30.4
-30.375
-30.35
-30.325
-30.3
-30.275
-30.25
-30.225
-30.2
-30.175
-30.15
-30.125
-30.1
-30.075
-30.05
-30.025
-30
-29.975
-29.95
-29.925
-29.9
-29.875
-29.85
-29.825
-29.8
-29.775
-29.75
-29.725
-29.7
-29.675
-29.65
-29.625
-29.6
-29.575
-29.55
-29.525
-29.5
-29.475
-29.45
-29.425
-29.4
-29.375
-29.35
-29.325
-29.3
-29.275
-29.25
-29.225
-29.2
-29.175
-29.15
-29.125
-29.1
-29.075
-29.05
-29.025
-29
-28.975
-28.95
-28.925
-28.9
-28.875
-28.85
-28.825
-28.8
-28.775
-28.75
-28.725
-28.7
-28.675
-28.65
-28.625
-28.6
-28.575
-28.55
-28.525
-28.5
-28.475
-28.45
-28.425
-28.4
-28.375
-28.35
-28.325
-28.3
-28.275
-28.25
-28.225
-28.2
-28.175
-28.15
-28.125
-28.1
-28.075
-28.05
-28.025
-28
-27.975
-27.95
-27.925
-27.9
-27.875
-27.85
-27.825
-27.8
-27.775
-27.75
-27.725
-27.7
-27.675
-27.65
-27.625
-27.6
-27.575
-27.55
-27.525
-27.5
-27.475
-27.45
-27.425
-27.4
-27.375
-27.35
-27.325
-27.3
-27.275
-27.25
-27.225
-27.2
-27.175
-27.15
-27.125
-27.1
-27.075
-27.05
-27.025
-27
-26.975
-26.95
-26.925
-26.9
-26.875
-26.85
-26.825
-26.8
-26.775
-26.75
-26.725
-26.7
-26.675
-26.65
-26.625
-26.6
-26.575
-26.55
-26.525
-26.5
-26.475
-26.45
-26.425
-26.4
-26.375
-26.35
-26.325
-26.3
-26.275
-26.25
-26.225
-26.2
-26.175
-26.15
-26.125
-26.1
-26.075
-26.05
-26.025
-26
-25.975
-25.95
-25.925
-25.9
-25.875
-25.85
-25.825
-25.8
-25.775
-25.75
-25.725
-25.7
-25.675
-25.65
-25.625
-25.6
-25.575
-25.55
-25.525
-25.5
-25.475
-25.45
-25.425
-25.4
-25.375
-25.35
-25.325
-25.3
-25.275
-25.25
-25.225
-25.2
-25.175
-25.15
-25.125
-25.1
-25.075
-25.05
-25.025
-25
-24.975
-24.95
-24.925
-24.9
-24.875
-24.85
-24.825
-24.8
-24.775
-24.75
-24.725
-24.7
-24.675
-24.65
-24.625
-24.6
-24.575
-24.55
-24.525
-24.5
-24.475
-24.45
-24.425
-24.4
-24.375
-24.35
-24.325
-24.3
-24.275
-24.25
-24.225
-24.2
-24.175
-24.15
-24.125
-24.1
-24.075
-24.05
-24.025
-24
-23.975
-23.95
-23.925
-23.9
-23.875
-23.85
-23.825
-23.8
-23.775
-23.75
-23.725
-23.7
-23.675
-23.65
-23.625
-23.6
-23.575
-23.55
-23.525
-23.5
-23.475
-23.45
-23.425
-23.4
-23.375
-23.35
-23.325
-23.3
-23.275
-23.25
-23.225
-23.2
-23.175
-23.15
-23.125
-23.1
-23.075
-23.05
-23.025
-23
-22.975
-22.95
-22.925
-22.9
-22.875
-22.85
-22.825
-22.8
-22.775
-22.75
-22.725
-22.7
-22.675
-22.65
-22.625
-22.6
-22.575
-22.55
-22.525
-22.5
-22.475
-22.45
-22.425
-22.4
-22.375
-22.35
-22.325
-22.3
-22.275
-22.25
-22.225
-22.2
-22.175
-22.15
-22.125
-22.1
-22.075
-22.05
-22.025
-22
-21.975
-21.95
-21.925
-21.9
-21.875
-21.85
-21.825
-21.8
-21.775
-21.75
-21.725
-21.7
-21.675
-21.65
-21.625
-21.6
-21.575
-21.55
-21.525
-21.5
-21.475
-21.45
-21.425
-21.4
-21.375
-21.35
-21.325
-21.3
-21.275
-21.25
-21.225
-21.2
-21.175
-21.15
-21.125
-21.1
-21.075
-21.05
-21.025
-21
-20.975
-20.95
-20.925
-20.9
-20.875
-20.85
-20.825
-20.8
-20.775
-20.75
-20.725
-20.7
-20.675
-20.65
-20.625
-20.6
-20.575
-20.55
-20.525
-20.5
-20.475
-20.45
-20.425
-20.4
-20.375
-20.35
-20.325
-20.3
-20.275
-20.25
-20.225
-20.2
-20.175
-20.15
-20.125
-20.1
-20.075
-20.05
-20.025
-20
VAR_LIST_END
BEGIN
-14.547997,-158.76991
-15.176317,-154.71318
-15.502136,-149.9919
-14.422837,-157.1965
-15.095336,-158.70808
-14.313211,-154.59369
-15.446096,-165.35501
-13.922251,-159.62524
-15.720762,-165.85326
-15.635369,-156.25833
-16.214584,-162.2052
-17.119427,-159.96251
-16.855375,-154.33481
-14.636642,-156.85773
-14.205501,-152.28531
-13.189833,-164.31392
-14.944978,-160.44354
-14.929924,-157.16083
-15.729549,-158.33522
-15.382111,-163.01393
-15.52027,-165.18176
-15.822856,-160.18059
-14.991404,-156.14844
-14.607835,-155.26895
-16.273609,-158.05287
-15.569362,-169.50804
-15.541945,-156.88177
-14.32119,-159.26149
-14.415358,-159.53665
-14.700513,-162.90506
-16.428179,-171.69394
-15.935817,-154.7522
-15.203732,-154.92288
-14.196535,-163.59276
-13.543204,-150.38396
-15.481192,-161.77327
-16.6884,-163.90184
-16.012241,-159.42088
-14.421082,-155.9501
-15.969131,-155.47229
-15.134665,-154.97469
-14.847136,-155.3244
-14.765022,-166.98956
-15.359668,-159.43718
-15.260111,-154.02531
-14.665698,-162.02145
-15.462688,-166.08734
-15.683963,-156.47081
-14.010611,-162.2038
-14.041623,-156.17992
-14.803959,-160.54399
-13.556242,-156.93513
-14.298372,-161.70457
-14.374566,-152.53343
-16.620457,-153.72441
-16.40432,-157.30258
-15.364148,-149.884
-16.27318,-159.69818
-15.961939,-153.80173
-14.795256,-159.89661
-15.078769,-161.2957
-16.129406,-157.57854
-15.243633,-158.42397
-13.733218,-152.48108
-14.466777,-150.82446
-15.049315,-155.10236
-15.604932,-160.19016
-15.329653,-158.63345
-13.99085,-156.90508
-15.953629,-160.48975
-16.390499,-155.12149
-14.683578,-157.14291
-14.221526,-161.42142
-14.222087,-148.71899
-14.607635,-162.82983
-15.397508,-161.62759
-14.228684,-166.05173
-15.430744,-155.8168
-15.209175,-149.59607
-14.755031,-158.10425
-15.683531,-157.98613
-15.328001,-160.88341
-14.94298,-155.81235
-14.693894,-163.47322
-14.385197,-162.14519
-14.848927,-160.41219
-14.944653,-160.42062
-14.457792,-152.31133
-14.692508,-160.17751
-14.562634,-159.8134
-14.911804,-156.72699
-13.57202,-159.87706
-14.711691,-154.72508
-14.410891,-157.10095
-14.64337,-153.79227
-14.825135,-158.99266
-15.316871,-155.09895
-15.364933,-160.4248
-15.908755,-154.81429
-15.213086,-152.87744
-14.485364,-160.02341
-15.075134,-154.81139
-14.676264,-151.694
-15.961733,-152.94789
-15.172508,-160.72029
-15.214884,-157.99063
-15.494454,-153.36383
-15.441477,-157.22198
-15.559464,-150.25812
-15.434071,-152.53305
-14.282433,-159.4407
-15.313286,-159.9671
-14.834337,-153.97212
-14.218575,-160.41672
-14.775918,-161.31256
-15.855142,-155.85542
-14.880249,-154.17746
-14.475277,-153.05855
-15.64548,-149.14572
-14.333348,-149.16405
-15.393612,-148.67683
-15.242448,-158.76631
-14.928044,-152.42944
-14.747936,-155.12903
-16.011713,-162.1938
-14.553713,-147.01373
-14.888793,-149.86047
-15.466546,-162.39937
-15.249887,-156.51901
-14.69347,-158.40236
-15.035778,-163.7413
-14.617733,-164.78914
-16.270922,-152.23534
-15.15498,-156.00294
-15.50143,-163.28888
-13.999411,-162.08017
-15.026841,-158.74437
-14.027685,-159.0451
-15.585993,-151.64548
-14.604566,-158.79639
-15.329548,-155.08577
-15.24105,-155.76859
-15.88203,-159.08876
-14.919829,-158.27223
-15.555705,-156.35353
-15.158415,-159.46455
-14.925472,-156.41757
-14.984113,-154.34268
-14.703484,-159.62183
-14.188975,-154.34113
-14.205868,-152.6797
-15.504196,-154.42798
-15.065444,-159.10854
-15.101134,-162.33492
-14.295843,-153.65099
-15.222922,-160.9966
-15.141973,-165.62247
-13.617282,-160.27925
-15.567265,-156.76076
-14.724747,-159.13898
-15.158506,-160.74612
-14.375385,-159.3187
-15.780134,-155.05746
-15.297198,-156.99284
-14.887946,-163.93584
-15.6092,-154.90421
-15.768867,-155.40245
-15.77155,-163.83601
-14.74087,-159.14989
-14.471883,-151.68581
-14.496231,-153.16954
-15.342219,-157.29375
-15.041512,-155.19872
-15.001352,-157.04015
-15.838116,-159.07318
-15.003098,-159.91618
-14.2089,-154.84213
-14.57287,-157.57814
-15.952917,-158.80359
-14.967155,-157.20921
-15.569598,-155.60144
-14.42276,-157.26024
-14.648307,-157.94879
-13.671496,-162.21132
-14.89857,-161.53165
-14.981297,-158.06085
-15.336945,-160.95544
-15.932537,-153.59364
-13.968318,-161.99745
-14.970962,-155.02602
-15.387029,-158.06718
-15.482511,-158.01924
-14.99611,-160.35278
-15.231735,-153.02275
-14.927068,-153.96242
-15.457198,-162.18433
-14.884542,-157.01794
-14.594847,-155.32358
-15.939381,-156.15001
-14.978724,-160.54111
-15.276166,-164.60098
-14.975636,-162.14174
-15.493633,-164.34474
-14.083083,-158.9818
-14.927511,-160.03987
-15.482019,-158.76326
-15.293574,-158.06705
-15.949324,-155.48523
-14.369779,-155.3511
-15.363893,-159.1044
-14.324583,-156.8837
-14.847003,-158.2657
-14.739843,-160.02106
-14.914548,-159.00438
-14.597765,-159.41861
-15.356581,-151.68414
-15.816498,-156.24229
-15.98934,-152.1427
-14.925705,-157.32732
-14.786248,-156.22238
-15.396868,-161.11566
-15.069798,-157.22163
-15.496556,-159.2404
-15.182403,-163.47803
-15.370552,-159.46165
-15.289282,-155.50421
-14.675455,-156.48303
-14.005322,-164.23222
-15.544983,-160.17435
-14.860755,-155.25127
-15.241822,-155.82108
-14.861435,-160.24426
-15.438774,-158.20763
-14.27614,-161.34082
-14.533581,-158.25758
-14.865498,-154.43571
-14.403953,-162.18976
-15.358045,-160.4413
-15.271984,-160.53333
-15.384782,-157.72794
-14.316336,-156.59575
-15.499825,-159.79512
-15.416746,-162.80002
-15.529174,-158.47517
-14.949658,-158.53979
-15.140165,-155.91966
-14.577137,-156.86224
-14.961708,-159.05864
-15.043865,-152.2588
-14.830894,-158.61259
-14.830472,-158.77402
-15.672169,-157.56551
-14.952992,-161.22409
-14.891117,-157.54047
-14.78121,-159.96095
-14.879451,-155.96964
-16.145863,-161.15692
-15.73801,-157.27303
-14.105003,-157.36299
-14.606683,-155.15489
-15.445167,-160.93303
-15.437148,-159.82605
-15.446932,-158.81659
-15.172626,-159.60031
-14.990824,-156.83937
-15.319428,-157.2915
-14.434911,-159.47153
-15.363217,-162.16379
-14.449198,-156.56097
-15.651402,-157.14365
-14.738489,-155.74521
-15.748456,-156.23557
-14.798474,-157.71927
-14.814765,-156.90901
-15.420159,-162.20557
-14.534568,-156.95461
-14.824737,-157.50859
-14.953655,-159.40182
-14.870072,-159.27568
-14.386276,-160.2774
-15.070437,-158.94406
-14.471471,-158.69746
-15.66488,-156.25125
-14.942821,-153.3409
-14.349646,-160.06758
-15.096346,-157.06886
-15.555563,-159.8844
-15.292086,-159.9408
-14.940845,-160.81816
-15.269089,-157.85083
-15.373977,-158.2095
-15.62877,-161.53032
-14.891142,-156.45033
-14.480498,-160.91815
-14.960288,-157.79088
-15.126236,-163.56558
-15.270944,-155.92322
-15.581244,-155.84129
-14.995018,-159.46004
-14.543933,-153.7655
-14.059072,-161.13521
-14.716622,-160.46213
-14.900673,-154.97086
-15.142067,-161.70341
-15.324824,-157.97505
-15.212064,-154.85764
-15.074696,-156.86354
-15.020762,-158.17546
-15.120994,-159.90108
-15.032064,-159.28035
-15.187391,-159.23524
-15.922032,-158.33871
-14.760732,-157.22479
-14.957936,-158.8197
-14.926128,-158.75893
-15.282575,-161.2757
-14.664085,-160.00224
-15.381135,-159.85995
-15.305033,-155.01259
-14.751204,-159.82329
-15.007096,-157.44672
-14.928114,-160.97148
-15.329792,-156.20578
-14.605041,-159.60434
-15.166244,-158.29292
-15.282434,-159.39099
-14.785205,-155.67935
-14.825459,-157.16086
-15.317204,-159.93018
-14.885943,-156.89948
-15.154119,-157.97276
-15.101302,-156.93848
-15.242278,-156.31815
-14.908609,-160.10345
-15.329045,-157.55511
-14.922206,-155.15298
-15.654757,-162.75031
-14.856183,-160.54237
-15.310974,-156.6425
-15.20334,-160.67509
-15.055654,-158.50874
-15.398497,-154.85954
-14.947194,-160.24472
-15.102414,-157.63626
-15.455996,-161.11082
-15.328734,-160.64491
-15.082284,-155.31573
-15.375362,-158.43863
-15.005757,-161.14343
-15.065413,-157.32159
-15.54686,-159.77621
-15.0604,-161.9166
-15.470082,-154.90266
-14.500378,-155.2963
-14.912391,-156.81664
-14.954843,-157.32166
-14.937531,-159.72025
-14.734757,-159.0623
-14.711307,-159.87544
-15.363563,-161.65846
-14.782161,-159.24083
-14.770459,-157.11482
-15.031724,-153.34924
-14.653311,-160.02002
-15.268726,-158.60674
-15.102528,-158.48302
-15.109852,-160.63124
-14.431382,-152.90361
-15.025825,-157.72505
-14.891417,-160.68877
-15.027955,-157.78687
-14.743631,-159.52112
-14.891331,-161.13995
-14.745098,-160.6338
-14.797989,-158.92841
-14.878671,-155.48438
-15.480272,-160.04581
-15.397636,-156.10953
-14.723798,-159.24445
-14.945629,-157.49469
-15.186728,-158.92322
-14.334523,-156.534
-15.207077,-158.57002
-14.998131,-157.92337
-14.83096,-164.20757
-15.212517,-159.02362
-15.094439,-158.68961
-15.143826,-158.10623
-15.204188,-161.93108
-15.231534,-158.53755
-15.436147,-158.70062
-14.776656,-161.19188
-15.434074,-158.74779
-15.26954,-155.72029
-15.159645,-157.48911
-14.792272,-154.54617
-15.043158,-160.48553
-15.099666,-158.75998
-15.065346,-158.51341
-14.989602,-159.21609
-14.968473,-158.23735
-14.979751,-160.27319
-15.027225,-156.88638
-14.910234,-158.80748
-15.024995,-160.97891
-14.937385,-158.46104
-15.298911,-159.91638
-15.204099,-158.36882
-14.859862,-153.60085
-15.922359,-159.23183
-14.978113,-158.33141
-15.2238,-156.45929
-15.422179,-155.38283
-15.31596,-159.40097
-14.871198,-156.27646
-14.852169,-158.38396
-14.861753,-156.63762
-14.915364,-155.13492
-15.223978,-157.38113
-15.178382,-156.0007
-14.984802,-158.32693
-15.317713,-160.4727
-14.996549,-156.97581
-15.046903,-154.94687
-14.873434,-157.99329
-15.548854,-157.24171
-15.133804,-156.19376
-15.152594,-160.33466
-15.064029,-157.35416
-14.877975,-159.38857
-14.787548,-157.59509
-15.374142,-159.16426
-15.144371,-157.8419
-15.333372,-158.72784
-15.301781,-157.78955
-15.080718,-159.42842
-15.282907,-157.4962
-15.017594,-159.05241
-15.152949,-156.3174
-15.030519,-158.15073
-14.469623,-159.9615
-14.876967,-158.07927
-14.97028,-158.67267
-14.823669,-155.41446
-15.10661,-156.93156
-15.161821,-157.89891
-15.20258,-158.22229
-14.932616,-157.65935
-14.747877,-159.82355
-15.078946,-158.12645
-15.44349,-154.35292
-15.294777,-155.08875
-14.560319,-159.41301
-15.297956,-157.15698
-15.128591,-159.97246
-14.734508,-159.18893
-14.948032,-157.81563
-14.762957,-154.94441
-15.493152,-159.7041
-15.189814,-156.50948
-14.896248,-158.23943
-14.808633,-158.53456
-14.993606,-157.07109
-14.862538,-156.13123
-15.503453,-158.66812
-15.253364,-156.48544
-14.970102,-155.93701
-15.078157,-157.77562
-14.72217,-155.76799
-14.742356,-159.037
-15.511296,-157.36943
-14.743806,-157.74327
-15.432016,-159.1459
-15.273294,-159.51866
-15.314905,-158.854
-15.299411,-161.48647
-14.826535,-158.43362
-15.092731,-158.10106
-15.137027,-160.80751
-15.002522,-158.19856
-15.449095,-160.50476
-15.166759,-157.16913
-14.800325,-158.49242
-14.954726,-158.79591
-14.604476,-157.73517
-15.434206,-160.05855
-15.452072,-159.32889
-15.04578,-158.34222
-14.933801,-156.50871
-14.894779,-158.78186
-14.835941,-158.00922
-15.152209,-157.30017
-15.063333,-157.42381
-15.451017,-157.6819
-14.919394,-161.84412
-14.816777,-158.2872
-15.0523,-159.3658
-15.092282,-159.99675
-15.256257,-160.41954
-14.767432,-156.96727
-15.349826,-160.21191
-15.01356,-158.22673
-15.036802,-156.84511
-15.32887,-157.72574
-15.028607,-159.51793
-15.08903,-158.7809
-14.535995,-157.66257
-14.938103,-160.52376
-15.202451,-160.21495
-14.7033,-158.01105
-15.244313,-157.06685
-15.075377,-157.4128
-15.171919,-158.73772
-15.161995,-157.48766
-14.63206,-159.83263
-14.809484,-156.36284
-14.61181,-157.73973
-15.030422,-156.7243
-15.046655,-159.42
-14.849561,-155.44872
-14.982217,-158.17577
-15.019324,-156.6008
-15.103098,-158.93181
-14.814725,-158.72833
-14.830949,-158.03476
-14.917714,-156.12148
-14.868668,-157.24976
-15.23117,-157.49898
-15.066887,-158.0818
-14.810068,-159.96265
-15.172973,-157.33659
-15.170556,-157.13844
-14.897873,-160.14278
-15.076663,-160.27992
-14.960535,-158.71884
-14.838486,-158.23244
-15.591126,-158.56071
-15.028826,-158.16896
-14.991797,-157.68146
-15.068581,-160.55702
-15.000332,-157.75459
-14.912851,-157.26883
-14.990117,-157.98828
-15.301114,-157.64578
-14.7852,-158.91344
-14.973234,-158.54321
-15.085349,-159.03738
-15.208482,-158.6777
-14.824686,-156.9827
-15.26762,-159.28238
-15.169779,-157.58499
-14.804591,-158.26357
-14.825006,-160.18295
-15.15725,-158.56769
-14.948836,-157.91699
-15.01847,-157.03918
-14.883279,-160.69362
-15.103569,-154.88728
-15.211005,-159.74277
-15.088346,-158.03319
-14.868219,-158.99869
-14.851289,-160.62672
-14.881948,-157.97586
-15.017755,-157.73155
-15.036712,-158.47574
-14.903753,-159.76842
-14.987232,-157.56596
-15.094338,-160.2198
-14.926761,-158.76222
-15.074425,-158.2193
-15.267775,-157.30336
-15.000273,-158.77196
-15.092462,-156.44727
-14.792693,-160.20041
-14.900299,-156.41278
-15.117588,-156.12186
