CITIFILE A.01.01
!Agilent Technologies,N5230C,MY48100142,A.08.04.10
!Agilent N5230C: A.08.04.10
!Format: LogMag/Angle
!Date: Friday, August 14, 2020 12:47:55
NAME CH1_DATA
VAR Power MAG 801
DATA S11 DBANGLE
DATA S21 DBANGLE
DATA S12 DBANGLE
DATA S22 DBANGLE
VAR_LIST_BEGIN
-40
-39.975
-39.95
-39.925
-39.9
-39.875
-39.85
-39.825
-39.8
-39.775
-39.75
-39.725
-39.7
-39.675
-39.65
-39.625
-39.6
-39.575
-39.55
-39.525
-39.5
-39.475
-39.45
-39.425
-39.4
-39.375
-39.35
-39.325
-39.3
-39.275
-39.25
-39.225
-39.2
-39.175
-39.15
-39.125
-39.1
-39.075
-39.05
-39.025
-39
-38.975
-38.95
-38.925
-38.9
-38.875
-38.85
-38.825
-38.8
-38.775
-38.75
-38.725
-38.7
-38.675
-38.65
-38.625
-38.6
-38.575
-38.55
-38.525
-38.5
-38.475
-38.45
-38.425
-38.4
-38.375
-38.35
-38.325
-38.3
-38.275
-38.25
-38.225
-38.2
-38.175
-38.15
-38.125
-38.1
-38.075
-38.05
-38.025
-38
-37.975
-37.95
-37.925
-37.9
-37.875
-37.85
-37.825
-37.8
-37.775
-37.75
-37.725
-37.7
-37.675
-37.65
-37.625
-37.6
-37.575
-37.55
-37.525
-37.5
-37.475
-37.45
-37.425
-37.4
-37.375
-37.35
-37.325
-37.3
-37.275
-37.25
-37.225
-37.2
-37.175
-37.15
-37.125
-37.1
-37.075
-37.05
-37.025
-37
-36.975
-36.95
-36.925
-36.9
-36.875
-36.85
-36.825
-36.8
-36.775
-36.75
-36.725
-36.7
-36.675
-36.65
-36.625
-36.6
-36.575
-36.55
-36.525
-36.5
-36.475
-36.45
-36.425
-36.4
-36.375
-36.35
-36.325
-36.3
-36.275
-36.25
-36.225
-36.2
-36.175
-36.15
-36.125
-36.1
-36.075
-36.05
-36.025
-36
-35.975
-35.95
-35.925
-35.9
-35.875
-35.85
-35.825
-35.8
-35.775
-35.75
-35.725
-35.7
-35.675
-35.65
-35.625
-35.6
-35.575
-35.55
-35.525
-35.5
-35.475
-35.45
-35.425
-35.4
-35.375
-35.35
-35.325
-35.3
-35.275
-35.25
-35.225
-35.2
-35.175
-35.15
-35.125
-35.1
-35.075
-35.05
-35.025
-35
-34.975
-34.95
-34.925
-34.9
-34.875
-34.85
-34.825
-34.8
-34.775
-34.75
-34.725
-34.7
-34.675
-34.65
-34.625
-34.6
-34.575
-34.55
-34.525
-34.5
-34.475
-34.45
-34.425
-34.4
-34.375
-34.35
-34.325
-34.3
-34.275
-34.25
-34.225
-34.2
-34.175
-34.15
-34.125
-34.1
-34.075
-34.05
-34.025
-34
-33.975
-33.95
-33.925
-33.9
-33.875
-33.85
-33.825
-33.8
-33.775
-33.75
-33.725
-33.7
-33.675
-33.65
-33.625
-33.6
-33.575
-33.55
-33.525
-33.5
-33.475
-33.45
-33.425
-33.4
-33.375
-33.35
-33.325
-33.3
-33.275
-33.25
-33.225
-33.2
-33.175
-33.15
-33.125
-33.1
-33.075
-33.05
-33.025
-33
-32.975
-32.95
-32.925
-32.9
-32.875
-32.85
-32.825
-32.8
-32.775
-32.75
-32.725
-32.7
-32.675
-32.65
-32.625
-32.6
-32.575
-32.55
-32.525
-32.5
-32.475
-32.45
-32.425
-32.4
-32.375
-32.35
-32.325
-32.3
-32.275
-32.25
-32.225
-32.2
-32.175
-32.15
-32.125
-32.1
-32.075
-32.05
-32.025
-32
-31.975
-31.95
-31.925
-31.9
-31.875
-31.85
-31.825
-31.8
-31.775
-31.75
-31.725
-31.7
-31.675
-31.65
-31.625
-31.6
-31.575
-31.55
-31.525
-31.5
-31.475
-31.45
-31.425
-31.4
-31.375
-31.35
-31.325
-31.3
-31.275
-31.25
-31.225
-31.2
-31.175
-31.15
-31.125
-31.1
-31.075
-31.05
-31.025
-31
-30.975
-30.95
-30.925
-30.9
-30.875
-30.85
-30.825
-30.8
-30.775
-30.75
-30.725
-30.7
-30.675
-30.65
-30.625
-30.6
-30.575
-30.55
-30.525
-30.5
-30.475
-30.45
-30.425
-30.4
-30.375
-30.35
-30.325
-30.3
-30.275
-30.25
-30.225
-30.2
-30.175
-30.15
-30.125
-30.1
-30.075
-30.05
-30.025
-30
-29.975
-29.95
-29.925
-29.9
-29.875
-29.85
-29.825
-29.8
-29.775
-29.75
-29.725
-29.7
-29.675
-29.65
-29.625
-29.6
-29.575
-29.55
-29.525
-29.5
-29.475
-29.45
-29.425
-29.4
-29.375
-29.35
-29.325
-29.3
-29.275
-29.25
-29.225
-29.2
-29.175
-29.15
-29.125
-29.1
-29.075
-29.05
-29.025
-29
-28.975
-28.95
-28.925
-28.9
-28.875
-28.85
-28.825
-28.8
-28.775
-28.75
-28.725
-28.7
-28.675
-28.65
-28.625
-28.6
-28.575
-28.55
-28.525
-28.5
-28.475
-28.45
-28.425
-28.4
-28.375
-28.35
-28.325
-28.3
-28.275
-28.25
-28.225
-28.2
-28.175
-28.15
-28.125
-28.1
-28.075
-28.05
-28.025
-28
-27.975
-27.95
-27.925
-27.9
-27.875
-27.85
-27.825
-27.8
-27.775
-27.75
-27.725
-27.7
-27.675
-27.65
-27.625
-27.6
-27.575
-27.55
-27.525
-27.5
-27.475
-27.45
-27.425
-27.4
-27.375
-27.35
-27.325
-27.3
-27.275
-27.25
-27.225
-27.2
-27.175
-27.15
-27.125
-27.1
-27.075
-27.05
-27.025
-27
-26.975
-26.95
-26.925
-26.9
-26.875
-26.85
-26.825
-26.8
-26.775
-26.75
-26.725
-26.7
-26.675
-26.65
-26.625
-26.6
-26.575
-26.55
-26.525
-26.5
-26.475
-26.45
-26.425
-26.4
-26.375
-26.35
-26.325
-26.3
-26.275
-26.25
-26.225
-26.2
-26.175
-26.15
-26.125
-26.1
-26.075
-26.05
-26.025
-26
-25.975
-25.95
-25.925
-25.9
-25.875
-25.85
-25.825
-25.8
-25.775
-25.75
-25.725
-25.7
-25.675
-25.65
-25.625
-25.6
-25.575
-25.55
-25.525
-25.5
-25.475
-25.45
-25.425
-25.4
-25.375
-25.35
-25.325
-25.3
-25.275
-25.25
-25.225
-25.2
-25.175
-25.15
-25.125
-25.1
-25.075
-25.05
-25.025
-25
-24.975
-24.95
-24.925
-24.9
-24.875
-24.85
-24.825
-24.8
-24.775
-24.75
-24.725
-24.7
-24.675
-24.65
-24.625
-24.6
-24.575
-24.55
-24.525
-24.5
-24.475
-24.45
-24.425
-24.4
-24.375
-24.35
-24.325
-24.3
-24.275
-24.25
-24.225
-24.2
-24.175
-24.15
-24.125
-24.1
-24.075
-24.05
-24.025
-24
-23.975
-23.95
-23.925
-23.9
-23.875
-23.85
-23.825
-23.8
-23.775
-23.75
-23.725
-23.7
-23.675
-23.65
-23.625
-23.6
-23.575
-23.55
-23.525
-23.5
-23.475
-23.45
-23.425
-23.4
-23.375
-23.35
-23.325
-23.3
-23.275
-23.25
-23.225
-23.2
-23.175
-23.15
-23.125
-23.1
-23.075
-23.05
-23.025
-23
-22.975
-22.95
-22.925
-22.9
-22.875
-22.85
-22.825
-22.8
-22.775
-22.75
-22.725
-22.7
-22.675
-22.65
-22.625
-22.6
-22.575
-22.55
-22.525
-22.5
-22.475
-22.45
-22.425
-22.4
-22.375
-22.35
-22.325
-22.3
-22.275
-22.25
-22.225
-22.2
-22.175
-22.15
-22.125
-22.1
-22.075
-22.05
-22.025
-22
-21.975
-21.95
-21.925
-21.9
-21.875
-21.85
-21.825
-21.8
-21.775
-21.75
-21.725
-21.7
-21.675
-21.65
-21.625
-21.6
-21.575
-21.55
-21.525
-21.5
-21.475
-21.45
-21.425
-21.4
-21.375
-21.35
-21.325
-21.3
-21.275
-21.25
-21.225
-21.2
-21.175
-21.15
-21.125
-21.1
-21.075
-21.05
-21.025
-21
-20.975
-20.95
-20.925
-20.9
-20.875
-20.85
-20.825
-20.8
-20.775
-20.75
-20.725
-20.7
-20.675
-20.65
-20.625
-20.6
-20.575
-20.55
-20.525
-20.5
-20.475
-20.45
-20.425
-20.4
-20.375
-20.35
-20.325
-20.3
-20.275
-20.25
-20.225
-20.2
-20.175
-20.15
-20.125
-20.1
-20.075
-20.05
-20.025
-20
VAR_LIST_END
BEGIN
-14.693213,-156.49773
-15.042336,-157.25262
-16.096539,-164.79243
-15.371531,-158.54626
-15.936212,-150.91986
-14.158085,-160.35699
-14.688221,-158.52292
-14.356693,-156.7789
-14.787747,-159.94823
-14.757985,-154.71866
-15.506077,-156.18681
-15.432704,-154.31972
-14.475625,-156.1109
-14.773333,-163.74023
-14.924427,-150.3427
-14.379245,-163.23466
-14.681344,-157.60252
-15.120126,-168.05849
-15.28712,-155.12523
-15.91846,-163.28514
-14.787533,-161.12805
-14.709737,-157.38266
-14.532524,-158.90254
-15.074276,-159.64607
-15.195611,-156.44588
-14.86418,-162.26447
-15.532557,-162.21941
-15.490825,-153.95091
-15.425683,-157.24515
-14.648746,-161.03189
-15.662013,-160.69266
-15.137245,-155.55096
-14.745106,-165.00481
-15.117293,-163.81216
-14.645537,-157.4848
-15.665745,-161.84904
-15.126356,-161.65366
-14.874787,-156.51704
-14.263036,-163.75887
-15.096403,-160.78839
-15.152251,-159.43521
-16.205912,-155.90303
-15.822152,-164.51761
-14.889539,-162.25688
-14.926574,-159.15848
-14.878538,-160.98174
-14.995212,-158.28075
-14.769423,-160.05516
-14.892872,-166.01302
-15.167767,-162.46913
-15.348449,-160.46164
-15.186451,-156.34462
-14.33217,-160.72516
-14.309675,-158.81053
-14.994691,-156.14053
-15.838478,-162.83472
-15.650355,-156.4572
-15.08262,-160.70088
-14.502652,-158.78011
-15.294068,-162.2484
-14.983865,-161.15543
-15.206927,-155.36946
-14.632445,-157.56931
-15.111495,-161.18599
-14.155875,-157.90154
-14.975187,-161.11098
-14.70177,-158.66788
-15.130196,-161.22408
-14.921899,-161.22038
-15.055961,-156.86385
-15.969473,-155.71645
-14.580619,-161.88217
-15.385568,-168.8502
-15.152054,-158.92264
-16.014242,-163.19095
-15.20651,-158.08458
-14.901725,-155.18678
-15.378295,-156.54131
-14.82194,-163.94389
-15.130386,-159.31001
-15.727595,-164.48532
-14.606479,-160.88725
-15.602714,-156.55257
-15.629725,-157.67792
-15.848266,-163.00807
-15.154909,-159.52811
-15.305012,-162.69173
-14.829636,-159.34416
-15.458633,-158.83403
-15.262003,-158.1937
-15.347858,-161.86908
-15.200715,-150.46065
-15.341055,-157.83028
-14.852071,-156.40944
-15.29379,-153.85539
-15.001954,-161.43665
-14.944825,-159.88853
-15.929341,-158.85637
-15.359569,-153.24249
-15.433268,-161.83218
-15.97728,-162.00714
-15.126164,-161.86037
-14.639977,-158.24109
-15.446464,-165.39149
-14.70427,-158.43088
-16.629824,-158.54207
-15.23358,-160.29637
-14.824998,-161.45636
-14.925301,-156.41608
-14.371514,-160.65237
-15.445779,-162.5118
-15.374097,-154.49146
-15.013721,-161.14185
-15.178462,-158.19211
-15.223825,-154.54572
-15.815944,-159.80881
-14.66164,-159.47797
-14.847294,-157.35951
-15.281363,-161.21033
-14.528309,-158.15067
-13.977893,-155.40045
-16.159264,-150.37538
-14.345788,-158.88417
-14.788316,-158.8307
-14.75426,-164.43779
-15.285605,-151.32686
-15.08971,-162.942
-15.3031,-157.59116
-15.377774,-164.31662
-15.018501,-154.90051
-15.964586,-155.7229
-15.273705,-162.82962
-15.358962,-159.67517
-15.485641,-157.57857
-15.071769,-162.91803
-14.308551,-157.74985
-15.105714,-163.4207
-14.669216,-158.32495
-14.340522,-161.68239
-15.170373,-161.18777
-14.807575,-161.24078
-15.404498,-157.16423
-14.78411,-158.30998
-14.789308,-157.34975
-15.220485,-156.93253
-15.465522,-160.69049
-14.178142,-157.53014
-14.84992,-158.662
-14.647632,-161.07797
-15.479682,-159.46819
-15.116277,-160.17934
-15.803171,-158.03531
-14.777387,-156.02014
-14.214839,-161.53377
-15.84764,-155.6703
-15.053199,-158.48184
-14.999807,-161.31993
-14.36268,-156.62383
-15.275369,-160.48659
-15.196867,-156.22612
-14.967948,-158.18639
-14.904786,-156.61369
-14.984574,-156.52815
-15.852374,-160.24796
-15.202003,-157.10077
-15.203305,-157.80499
-15.352299,-156.61478
-14.975806,-159.24678
-15.63164,-158.41505
-15.504975,-162.73418
-15.12867,-157.76704
-15.438601,-155.7486
-15.374278,-161.85114
-15.516238,-157.97598
-15.404523,-160.69334
-15.730629,-159.41916
-15.2005,-157.88396
-15.132845,-159.67049
-14.838121,-160.74164
-15.214833,-159.06927
-14.542743,-159.2374
-14.434257,-155.95219
-15.064136,-161.08643
-14.677859,-158.08766
-14.952022,-160.8284
-14.929098,-157.66774
-15.521485,-158.16055
-15.106098,-155.1097
-14.717333,-160.50182
-14.200625,-157.14899
-14.720326,-158.11371
-14.354755,-159.06308
-14.825562,-159.3407
-15.426688,-163.14429
-15.75434,-156.75269
-14.447519,-158.74876
-15.602985,-159.26508
-14.943238,-163.10339
-15.159992,-160.9584
-14.399489,-163.19447
-14.879912,-158.19859
-15.417658,-156.3609
-15.477217,-156.8864
-14.284969,-159.59673
-14.853674,-162.52466
-14.426859,-157.72647
-15.335243,-157.59418
-15.045003,-155.7489
-15.00462,-161.07677
-15.263713,-155.99171
-15.308504,-161.78012
-14.932329,-161.97423
-15.172993,-159.40237
-15.111015,-157.97408
-14.680046,-155.54309
-15.413998,-159.75792
-15.373346,-159.21664
-15.314608,-156.85933
-15.119699,-159.7516
-14.92332,-164.0128
-14.805902,-161.67096
-14.841024,-158.06706
-15.526598,-160.64056
-15.012611,-157.96407
-15.099798,-159.25006
-15.162537,-166.43912
-15.120854,-162.1284
-14.388154,-156.46768
-15.601084,-156.95743
-14.707424,-158.11304
-15.062368,-157.1902
-14.423986,-158.24452
-14.843294,-160.04251
-15.14048,-160.37561
-14.557534,-160.21263
-14.941967,-157.30527
-14.382019,-158.24751
-15.398744,-159.43488
-15.353106,-158.4865
-15.449536,-157.46176
-15.21641,-157.21841
-14.757687,-162.07327
-14.995146,-160.29143
-14.769997,-158.01566
-15.629311,-157.84073
-14.783781,-157.91646
-15.106717,-159.36678
-14.502967,-160.72246
-14.994839,-158.9185
-15.202633,-161.92183
-15.502389,-157.58224
-15.045882,-158.89355
-14.777634,-156.42706
-15.198351,-161.51743
-14.986036,-157.31131
-14.835552,-161.9698
-15.714178,-157.90848
-15.166258,-157.90715
-15.1625,-157.93341
-14.961562,-159.71898
-14.963685,-162.50114
-15.100821,-158.45244
-15.123358,-158.05104
-15.206913,-156.35539
-15.161367,-161.60385
-15.485523,-156.44765
-15.249988,-161.67508
-15.129977,-160.22612
-15.010025,-159.37218
-15.599273,-154.7793
-15.365044,-159.632
-15.465846,-160.19695
-15.171367,-155.3929
-14.940022,-158.79443
-15.212096,-158.98909
-15.237448,-162.51001
-15.631245,-156.46262
-15.176761,-153.57144
-15.553214,-158.02817
-15.204829,-162.58055
-15.091977,-157.82828
-15.196251,-159.72362
-15.34572,-161.33907
-14.772801,-158.41901
-14.911955,-158.1183
-14.98444,-155.82576
-15.229936,-161.16882
-15.368147,-157.13968
-14.978721,-158.09151
-14.88006,-156.98212
-14.763556,-157.50179
-14.922957,-160.6478
-14.737271,-159.00453
-14.803623,-159.55026
-15.306274,-157.3152
-14.85819,-158.77893
-14.850677,-158.85368
-14.786107,-156.09267
-15.315348,-160.59085
-15.188184,-161.46736
-14.856101,-161.43011
-14.71996,-157.75549
-15.296462,-162.18585
-15.183784,-157.87825
-15.357917,-160.70319
-14.922654,-156.73915
-14.81667,-158.43802
-15.613267,-156.65247
-15.017306,-159.91563
-15.350615,-158.56334
-15.307576,-159.49582
-15.20129,-157.98578
-14.744725,-159.16815
-15.281775,-160.67233
-15.001805,-159.29971
-15.121243,-158.6546
-15.39066,-163.29308
-15.283534,-161.18275
-15.038433,-156.15552
-14.767907,-159.57298
-14.855608,-160.60687
-15.072043,-157.01758
-15.096837,-156.70242
-14.871817,-158.85764
-14.718874,-159.20163
-14.965677,-159.08838
-14.939164,-161.03325
-14.942063,-162.89659
-14.740733,-158.57283
-15.367174,-158.88507
-14.998344,-158.27986
-14.942045,-159.23198
-15.148045,-156.79829
-15.200412,-158.64853
-14.822307,-160.72598
-15.058517,-159.96664
-14.838685,-159.72685
-15.007382,-158.69385
-14.990374,-158.71346
-15.0716,-159.76848
-15.278554,-158.97546
-14.827581,-158.08142
-14.968373,-158.62311
-14.926981,-160.69008
-15.073237,-158.08047
-14.877019,-158.45148
-14.948997,-162.14496
-14.620083,-156.84949
-15.571521,-158.14529
-15.14442,-157.93684
-15.041553,-158.12592
-15.070242,-156.43404
-14.951951,-157.14812
-14.956901,-159.35593
-15.157001,-158.8248
-15.08786,-160.61299
-15.200862,-158.5799
-14.955478,-157.46358
-15.219512,-157.98552
-15.175598,-156.1687
-14.946975,-159.78922
-15.380607,-158.6124
-15.246898,-156.26762
-15.117532,-158.76587
-15.063315,-160.26471
-15.171734,-159.01283
-14.835569,-158.52626
-14.889591,-161.40854
-15.002147,-158.18127
-14.979613,-159.13806
-14.93928,-158.50186
-14.868072,-160.49779
-15.057618,-160.52736
-15.13242,-159.85789
-14.977709,-160.45729
-14.876451,-158.12105
-15.038007,-158.87125
-15.341809,-156.59578
-15.114366,-159.1362
-15.312409,-159.45334
-15.192805,-160.35266
-14.614147,-159.16954
-15.098121,-158.04077
-15.280433,-158.07826
-14.899243,-158.07001
-15.053815,-158.87114
-15.078568,-158.18649
-14.75955,-156.45715
-14.910718,-159.13513
-15.421432,-158.38554
-15.031546,-161.02182
-15.427936,-156.42175
-15.171642,-158.04372
-14.790211,-158.79362
-15.426342,-159.38414
-14.808145,-162.04974
-15.314134,-159.71022
-15.111021,-159.33488
-15.130367,-160.45476
-14.707415,-160.1882
-15.043403,-157.30414
-14.784253,-159.66209
-15.15864,-158.39836
-15.078163,-159.04782
-14.850347,-157.74403
-15.059947,-158.83374
-15.077782,-159.52081
-14.972679,-159.99228
-14.964707,-159.62952
-14.887098,-158.51981
-14.930762,-159.30646
-14.946872,-159.84995
-15.252327,-159.47929
-14.960501,-157.59726
-15.167606,-159.33546
-15.058867,-157.97783
-15.004537,-159.55379
-15.32831,-158.01242
-15.255181,-158.67757
-14.976835,-159.60953
-14.838551,-160.35828
-14.954934,-159.88701
-15.413457,-160.13879
-15.345189,-159.04877
-15.005835,-157.27805
-15.322111,-160.07521
-14.925488,-158.98935
-14.767579,-156.95126
-14.866513,-158.62126
-15.251091,-160.21277
-15.056849,-159.44708
-15.152778,-158.31247
-15.221151,-159.30223
-14.687628,-160.22845
-15.034777,-159.81737
-15.276996,-160.0956
-14.887315,-159.4912
-15.024279,-157.52391
-14.955448,-158.99005
-14.586505,-158.43896
-14.92187,-160.23186
-14.985797,-159.86983
-15.304438,-159.78169
-14.804667,-160.11807
-15.246536,-159.88734
-14.887633,-158.77776
-14.983971,-160.16269
-15.052204,-158.74966
-14.807592,-156.37276
-15.268579,-159.72253
-15.432015,-160.19839
-15.163316,-158.27223
-15.287466,-160.27817
-14.904137,-157.89236
-15.165871,-157.59425
-15.318892,-159.26849
-14.809939,-161.93565
-14.84024,-158.46619
-14.838978,-158.07173
-15.012852,-158.84959
-15.299326,-160.56033
-14.88558,-160.04817
-14.982983,-158.50964
-15.082701,-158.21603
-15.189904,-159.01697
-15.315919,-160.68991
-15.3989,-158.0625
-14.965304,-158.45172
-15.02709,-158.77318
-14.844934,-159.53561
-14.72558,-159.01752
-15.173887,-158.87105
-15.260926,-157.01413
-15.184356,-158.82097
-14.792873,-158.66489
-15.040221,-156.78348
-14.999843,-159.37219
-14.943573,-157.67114
-14.944384,-159.44987
-15.166066,-159.04906
-14.641861,-157.82141
-14.870543,-159.83281
-15.094089,-159.52112
-15.234667,-158.78242
-14.994038,-159.09557
-14.873718,-159.61365
-15.19656,-159.15533
-14.916786,-158.61162
-14.866855,-159.92189
-15.310505,-159.46759
-15.127171,-158.6366
-15.156444,-160.48141
-15.029224,-161.2012
-15.253222,-158.20528
-15.384607,-160.64967
-14.907284,-157.05362
-14.999082,-159.69806
-15.003811,-158.77473
-14.80701,-159.68553
-15.065991,-158.27072
-14.892968,-157.15215
-14.655142,-160.86784
-15.218964,-159.28487
-15.02288,-159.65257
-15.005553,-158.18695
-15.036223,-159.02036
-15.011255,-159.97633
-15.210689,-159.28745
-15.188267,-157.55437
-15.011577,-157.69897
-15.094128,-157.95831
-15.17226,-157.11868
-14.981708,-160.51183
-15.338485,-158.57941
-14.773286,-160.63145
-15.040531,-159.44609
-15.205688,-158.00659
-15.13498,-158.33571
-14.932297,-158.73654
-14.928658,-157.27094
-14.919427,-159.43652
-15.237521,-157.85774
-15.10076,-158.91833
-14.76859,-158.6617
-14.933449,-160.55289
-14.745471,-158.60938
-14.676904,-159.25305
-15.058869,-159.74181
-14.968358,-160.20872
-14.931172,-157.74356
-14.950735,-158.3829
-15.316751,-158.84818
-14.883847,-159.64284
-15.22005,-157.92574
-15.08786,-159.28584
-14.955765,-159.53426
-14.850915,-159.8089
-15.106248,-158.06201
-15.202951,-158.64406
-14.910598,-157.50439
-15.246586,-160.09651
-14.946217,-159.44429
-15.096405,-158.93709
-15.085423,-158.51848
-15.182793,-158.22131
-15.113049,-159.58293
-15.18811,-160.1104
-15.102932,-158.90283
-15.051329,-157.70741
-15.052042,-158.78397
-15.116785,-159.33879
-14.919907,-159.72298
-14.974059,-159.01323
-15.114312,-157.16795
-15.043521,-159.56271
-14.982285,-160.42473
-15.15794,-159.58842
-14.823238,-158.28485
-14.981298,-160.19164
-14.886638,-159.76747
-14.941663,-159.00961
-14.997217,-159.64616
-15.145822,-158.86305
-14.979427,-159.73497
-15.218667,-159.77963
-15.010089,-158.20183
-15.079849,-160.10443
-15.137019,-158.97278
-15.306314,-158.34503
-15.049921,-158.75287
-14.98229,-159.02333
-14.940404,-158.22115
-14.936543,-159.1013
-15.027997,-158.34248
-14.924796,-158.94174
-15.004078,-158.82848
