CITIFILE A.01.01
!Agilent Technologies,N5230C,MY48100142,A.08.04.10
!Agilent N5230C: A.08.04.10
!Format: LogMag/Angle
!Date: Friday, February 14, 2020 16:56:38
NAME CH1_DATA
VAR Power MAG 801
DATA S11 DBANGLE
DATA S21 DBANGLE
DATA S12 DBANGLE
DATA S22 DBANGLE
VAR_LIST_BEGIN
-40
-39.975
-39.95
-39.925
-39.9
-39.875
-39.85
-39.825
-39.8
-39.775
-39.75
-39.725
-39.7
-39.675
-39.65
-39.625
-39.6
-39.575
-39.55
-39.525
-39.5
-39.475
-39.45
-39.425
-39.4
-39.375
-39.35
-39.325
-39.3
-39.275
-39.25
-39.225
-39.2
-39.175
-39.15
-39.125
-39.1
-39.075
-39.05
-39.025
-39
-38.975
-38.95
-38.925
-38.9
-38.875
-38.85
-38.825
-38.8
-38.775
-38.75
-38.725
-38.7
-38.675
-38.65
-38.625
-38.6
-38.575
-38.55
-38.525
-38.5
-38.475
-38.45
-38.425
-38.4
-38.375
-38.35
-38.325
-38.3
-38.275
-38.25
-38.225
-38.2
-38.175
-38.15
-38.125
-38.1
-38.075
-38.05
-38.025
-38
-37.975
-37.95
-37.925
-37.9
-37.875
-37.85
-37.825
-37.8
-37.775
-37.75
-37.725
-37.7
-37.675
-37.65
-37.625
-37.6
-37.575
-37.55
-37.525
-37.5
-37.475
-37.45
-37.425
-37.4
-37.375
-37.35
-37.325
-37.3
-37.275
-37.25
-37.225
-37.2
-37.175
-37.15
-37.125
-37.1
-37.075
-37.05
-37.025
-37
-36.975
-36.95
-36.925
-36.9
-36.875
-36.85
-36.825
-36.8
-36.775
-36.75
-36.725
-36.7
-36.675
-36.65
-36.625
-36.6
-36.575
-36.55
-36.525
-36.5
-36.475
-36.45
-36.425
-36.4
-36.375
-36.35
-36.325
-36.3
-36.275
-36.25
-36.225
-36.2
-36.175
-36.15
-36.125
-36.1
-36.075
-36.05
-36.025
-36
-35.975
-35.95
-35.925
-35.9
-35.875
-35.85
-35.825
-35.8
-35.775
-35.75
-35.725
-35.7
-35.675
-35.65
-35.625
-35.6
-35.575
-35.55
-35.525
-35.5
-35.475
-35.45
-35.425
-35.4
-35.375
-35.35
-35.325
-35.3
-35.275
-35.25
-35.225
-35.2
-35.175
-35.15
-35.125
-35.1
-35.075
-35.05
-35.025
-35
-34.975
-34.95
-34.925
-34.9
-34.875
-34.85
-34.825
-34.8
-34.775
-34.75
-34.725
-34.7
-34.675
-34.65
-34.625
-34.6
-34.575
-34.55
-34.525
-34.5
-34.475
-34.45
-34.425
-34.4
-34.375
-34.35
-34.325
-34.3
-34.275
-34.25
-34.225
-34.2
-34.175
-34.15
-34.125
-34.1
-34.075
-34.05
-34.025
-34
-33.975
-33.95
-33.925
-33.9
-33.875
-33.85
-33.825
-33.8
-33.775
-33.75
-33.725
-33.7
-33.675
-33.65
-33.625
-33.6
-33.575
-33.55
-33.525
-33.5
-33.475
-33.45
-33.425
-33.4
-33.375
-33.35
-33.325
-33.3
-33.275
-33.25
-33.225
-33.2
-33.175
-33.15
-33.125
-33.1
-33.075
-33.05
-33.025
-33
-32.975
-32.95
-32.925
-32.9
-32.875
-32.85
-32.825
-32.8
-32.775
-32.75
-32.725
-32.7
-32.675
-32.65
-32.625
-32.6
-32.575
-32.55
-32.525
-32.5
-32.475
-32.45
-32.425
-32.4
-32.375
-32.35
-32.325
-32.3
-32.275
-32.25
-32.225
-32.2
-32.175
-32.15
-32.125
-32.1
-32.075
-32.05
-32.025
-32
-31.975
-31.95
-31.925
-31.9
-31.875
-31.85
-31.825
-31.8
-31.775
-31.75
-31.725
-31.7
-31.675
-31.65
-31.625
-31.6
-31.575
-31.55
-31.525
-31.5
-31.475
-31.45
-31.425
-31.4
-31.375
-31.35
-31.325
-31.3
-31.275
-31.25
-31.225
-31.2
-31.175
-31.15
-31.125
-31.1
-31.075
-31.05
-31.025
-31
-30.975
-30.95
-30.925
-30.9
-30.875
-30.85
-30.825
-30.8
-30.775
-30.75
-30.725
-30.7
-30.675
-30.65
-30.625
-30.6
-30.575
-30.55
-30.525
-30.5
-30.475
-30.45
-30.425
-30.4
-30.375
-30.35
-30.325
-30.3
-30.275
-30.25
-30.225
-30.2
-30.175
-30.15
-30.125
-30.1
-30.075
-30.05
-30.025
-30
-29.975
-29.95
-29.925
-29.9
-29.875
-29.85
-29.825
-29.8
-29.775
-29.75
-29.725
-29.7
-29.675
-29.65
-29.625
-29.6
-29.575
-29.55
-29.525
-29.5
-29.475
-29.45
-29.425
-29.4
-29.375
-29.35
-29.325
-29.3
-29.275
-29.25
-29.225
-29.2
-29.175
-29.15
-29.125
-29.1
-29.075
-29.05
-29.025
-29
-28.975
-28.95
-28.925
-28.9
-28.875
-28.85
-28.825
-28.8
-28.775
-28.75
-28.725
-28.7
-28.675
-28.65
-28.625
-28.6
-28.575
-28.55
-28.525
-28.5
-28.475
-28.45
-28.425
-28.4
-28.375
-28.35
-28.325
-28.3
-28.275
-28.25
-28.225
-28.2
-28.175
-28.15
-28.125
-28.1
-28.075
-28.05
-28.025
-28
-27.975
-27.95
-27.925
-27.9
-27.875
-27.85
-27.825
-27.8
-27.775
-27.75
-27.725
-27.7
-27.675
-27.65
-27.625
-27.6
-27.575
-27.55
-27.525
-27.5
-27.475
-27.45
-27.425
-27.4
-27.375
-27.35
-27.325
-27.3
-27.275
-27.25
-27.225
-27.2
-27.175
-27.15
-27.125
-27.1
-27.075
-27.05
-27.025
-27
-26.975
-26.95
-26.925
-26.9
-26.875
-26.85
-26.825
-26.8
-26.775
-26.75
-26.725
-26.7
-26.675
-26.65
-26.625
-26.6
-26.575
-26.55
-26.525
-26.5
-26.475
-26.45
-26.425
-26.4
-26.375
-26.35
-26.325
-26.3
-26.275
-26.25
-26.225
-26.2
-26.175
-26.15
-26.125
-26.1
-26.075
-26.05
-26.025
-26
-25.975
-25.95
-25.925
-25.9
-25.875
-25.85
-25.825
-25.8
-25.775
-25.75
-25.725
-25.7
-25.675
-25.65
-25.625
-25.6
-25.575
-25.55
-25.525
-25.5
-25.475
-25.45
-25.425
-25.4
-25.375
-25.35
-25.325
-25.3
-25.275
-25.25
-25.225
-25.2
-25.175
-25.15
-25.125
-25.1
-25.075
-25.05
-25.025
-25
-24.975
-24.95
-24.925
-24.9
-24.875
-24.85
-24.825
-24.8
-24.775
-24.75
-24.725
-24.7
-24.675
-24.65
-24.625
-24.6
-24.575
-24.55
-24.525
-24.5
-24.475
-24.45
-24.425
-24.4
-24.375
-24.35
-24.325
-24.3
-24.275
-24.25
-24.225
-24.2
-24.175
-24.15
-24.125
-24.1
-24.075
-24.05
-24.025
-24
-23.975
-23.95
-23.925
-23.9
-23.875
-23.85
-23.825
-23.8
-23.775
-23.75
-23.725
-23.7
-23.675
-23.65
-23.625
-23.6
-23.575
-23.55
-23.525
-23.5
-23.475
-23.45
-23.425
-23.4
-23.375
-23.35
-23.325
-23.3
-23.275
-23.25
-23.225
-23.2
-23.175
-23.15
-23.125
-23.1
-23.075
-23.05
-23.025
-23
-22.975
-22.95
-22.925
-22.9
-22.875
-22.85
-22.825
-22.8
-22.775
-22.75
-22.725
-22.7
-22.675
-22.65
-22.625
-22.6
-22.575
-22.55
-22.525
-22.5
-22.475
-22.45
-22.425
-22.4
-22.375
-22.35
-22.325
-22.3
-22.275
-22.25
-22.225
-22.2
-22.175
-22.15
-22.125
-22.1
-22.075
-22.05
-22.025
-22
-21.975
-21.95
-21.925
-21.9
-21.875
-21.85
-21.825
-21.8
-21.775
-21.75
-21.725
-21.7
-21.675
-21.65
-21.625
-21.6
-21.575
-21.55
-21.525
-21.5
-21.475
-21.45
-21.425
-21.4
-21.375
-21.35
-21.325
-21.3
-21.275
-21.25
-21.225
-21.2
-21.175
-21.15
-21.125
-21.1
-21.075
-21.05
-21.025
-21
-20.975
-20.95
-20.925
-20.9
-20.875
-20.85
-20.825
-20.8
-20.775
-20.75
-20.725
-20.7
-20.675
-20.65
-20.625
-20.6
-20.575
-20.55
-20.525
-20.5
-20.475
-20.45
-20.425
-20.4
-20.375
-20.35
-20.325
-20.3
-20.275
-20.25
-20.225
-20.2
-20.175
-20.15
-20.125
-20.1
-20.075
-20.05
-20.025
-20
VAR_LIST_END
BEGIN
-15.121102,-162.43329
-15.420141,-165.36908
-14.557487,-165.45294
-14.870472,-154.88803
-15.262133,-158.76302
-15.149336,-152.66225
-14.531919,-167.24294
-14.448097,-158.78133
-15.688478,-160.39032
-14.869906,-162.11172
-14.697294,-157.00436
-16.186563,-160.83867
-15.467799,-160.51791
-16.574039,-161.2404
-14.973008,-157.69395
-15.073519,-156.40872
-16.38632,-162.13371
-14.291096,-158.15459
-14.037625,-155.41595
-16.074614,-146.82416
-14.106827,-148.61914
-14.642166,-155.86084
-14.161572,-154.43663
-14.991058,-154.71306
-16.000906,-158.51526
-15.308411,-166.37126
-14.800674,-169.51363
-15.676736,-152.02219
-15.148844,-165.08304
-14.72183,-166.5934
-14.650726,-158.461
-16.204905,-159.20622
-15.212295,-157.83102
-13.527192,-164.26251
-14.559607,-160.29491
-14.914536,-160.18301
-13.881072,-165.40216
-15.662502,-162.75581
-14.865467,-160.75093
-14.710466,-163.06721
-14.538398,-160.82133
-14.946438,-150.99361
-16.618246,-159.09972
-15.391772,-154.28554
-14.719561,-167.62117
-14.961362,-162.37177
-15.810289,-152.99115
-14.144375,-163.3372
-15.365108,-154.40341
-14.818265,-156.14185
-16.688845,-162.33015
-16.158249,-158.19043
-14.672135,-166.14336
-16.11754,-164.94926
-14.106575,-154.90233
-14.779996,-163.20805
-15.083433,-168.56502
-14.239271,-155.79401
-16.20566,-154.74677
-15.145503,-167.13898
-14.191936,-155.24722
-15.29325,-162.30232
-15.001216,-150.97359
-14.21716,-165.12059
-14.959484,-164.78365
-14.74087,-153.37625
-14.584122,-163.74498
-16.230234,-164.75452
-15.240364,-161.51189
-15.994463,-158.68007
-14.547511,-154.74088
-14.745643,-161.10381
-14.071904,-156.75555
-14.518482,-163.25572
-14.994017,-163.1821
-16.139973,-160.19864
-16.034107,-151.08939
-15.921734,-157.7347
-16.008781,-156.14873
-14.30493,-151.35522
-14.216016,-159.01382
-15.242423,-161.91182
-14.372853,-156.05894
-15.604849,-159.71996
-15.355934,-166.92285
-15.269737,-157.92752
-15.055108,-161.46544
-14.950219,-154.51041
-14.905892,-158.6057
-14.99904,-154.89992
-15.488289,-167.97713
-15.355947,-163.5779
-15.347356,-153.48949
-16.019518,-165.12379
-15.111359,-152.71767
-14.724226,-157.84314
-15.196621,-157.90274
-14.874473,-162.49092
-15.449454,-162.03491
-15.540712,-161.90147
-15.411839,-154.78439
-14.410862,-156.283
-14.522996,-159.55418
-15.660914,-154.46733
-15.655252,-153.97002
-14.405568,-165.56845
-16.035486,-168.81624
-15.078229,-167.39191
-15.348399,-169.23022
-15.007471,-160.9559
-16.183504,-161.15071
-14.396683,-156.36594
-13.714439,-161.50616
-14.352266,-157.74683
-15.324713,-161.17082
-15.057566,-158.67081
-15.622368,-153.24518
-15.174116,-165.05182
-15.91403,-156.57001
-15.461823,-155.31523
-15.617421,-155.96365
-15.033394,-158.54692
-15.09428,-163.81647
-15.730882,-149.40405
-15.742625,-153.91896
-14.114359,-157.34317
-14.750525,-164.69507
-14.701806,-156.48541
-14.769377,-161.03578
-15.03332,-160.38889
-15.170704,-156.91838
-13.809913,-157.1356
-16.033878,-155.21674
-14.675068,-155.39487
-14.513363,-163.08011
-14.814426,-155.90016
-14.408395,-157.84853
-15.603662,-158.44731
-15.299086,-161.00851
-15.300069,-157.27383
-14.563251,-157.11354
-15.534842,-157.53842
-14.518703,-154.70509
-15.263265,-158.85222
-15.00498,-159.8653
-14.664357,-157.6817
-15.291568,-159.69772
-16.438957,-155.15417
-15.001139,-159.08902
-15.038231,-159.07251
-15.11967,-162.44441
-15.336812,-153.34157
-15.021177,-158.26927
-15.360703,-155.54498
-14.892515,-157.00284
-14.854551,-165.07722
-15.81109,-163.53755
-15.41356,-156.366
-15.172027,-164.60365
-14.511518,-164.03154
-15.231182,-162.28438
-14.485652,-159.84174
-15.836058,-160.64656
-15.513909,-161.34172
-14.695397,-159.31277
-15.617644,-159.60973
-15.573063,-154.66528
-14.081326,-158.05388
-15.13826,-162.25287
-15.278631,-156.96347
-14.643885,-160.12056
-16.623055,-168.34662
-15.113095,-167.92111
-15.51228,-157.01736
-14.298113,-157.63664
-14.973751,-159.98946
-15.008598,-159.80667
-14.644116,-159.13939
-15.251911,-158.65681
-15.846518,-161.41911
-15.044291,-157.0932
-14.880324,-162.33336
-15.382478,-164.78246
-15.55337,-158.69331
-16.180931,-158.79327
-15.485758,-160.50444
-15.98763,-154.84918
-15.899514,-161.3434
-14.761569,-160.59294
-15.544495,-160.68512
-15.723182,-160.6647
-15.776396,-153.58992
-14.767836,-158.4944
-15.095445,-158.95589
-15.351952,-164.45003
-14.64577,-157.34212
-15.729877,-161.20094
-14.56017,-162.47839
-15.716166,-161.61496
-15.346683,-162.10924
-14.993643,-160.86093
-15.843238,-152.17397
-15.480082,-161.55702
-14.294556,-159.04814
-15.143439,-164.18471
-14.951923,-156.34492
-14.786334,-158.40398
-14.662027,-159.2686
-14.57019,-160.22772
-15.610405,-161.85428
-15.244166,-162.38173
-15.503199,-165.07516
-15.880712,-159.58313
-14.541145,-156.34315
-15.766029,-167.45927
-14.684263,-158.92984
-14.717233,-160.62079
-14.915117,-155.80753
-14.652049,-161.60728
-15.101055,-155.17381
-14.826939,-158.27821
-14.588627,-160.33589
-14.805182,-160.25191
-14.853976,-161.151
-15.270943,-162.6088
-15.471147,-164.9935
-14.918389,-162.43463
-15.01721,-159.41306
-14.871334,-158.87294
-14.882822,-164.59415
-14.784896,-158.86082
-15.052784,-161.81137
-15.601116,-158.58305
-14.950462,-161.15347
-14.969072,-159.33015
-14.564727,-155.63332
-14.862671,-157.09462
-15.432519,-159.77502
-15.022995,-161.83296
-15.083813,-164.99939
-14.854663,-161.0341
-14.713812,-155.49983
-15.270191,-158.77341
-15.331265,-155.86292
-14.981951,-160.6597
-15.012495,-162.43457
-14.754622,-160.48715
-15.666586,-162.5183
-15.307936,-156.76274
-14.626646,-162.74493
-14.464943,-163.41209
-14.940253,-154.36154
-14.402828,-161.34061
-15.811437,-159.9637
-14.747577,-161.81993
-15.420869,-162.17418
-15.528994,-157.54546
-15.518682,-157.96584
-14.881713,-159.17766
-14.471529,-158.87726
-15.130689,-158.96489
-14.463457,-158.10675
-15.208081,-158.49397
-14.806259,-164.22984
-15.124094,-160.03178
-15.259034,-160.26369
-14.849411,-160.7159
-14.839437,-160.66011
-14.770709,-158.07935
-15.113951,-159.96254
-14.408414,-160.80365
-15.513305,-163.89967
-14.711714,-160.60048
-15.049639,-160.02808
-15.33817,-161.44574
-15.357219,-156.91505
-15.230871,-156.87848
-15.47893,-158.86838
-14.96929,-162.36783
-14.955919,-160.88992
-14.252246,-162.43864
-15.182742,-161.90276
-14.89877,-162.24796
-15.104693,-156.27228
-15.382573,-161.91296
-15.140394,-162.56563
-15.207534,-161.48834
-14.58792,-157.44312
-14.40129,-164.34154
-15.331161,-158.26552
-15.572127,-157.12247
-15.727935,-155.63533
-15.099727,-156.79892
-14.94792,-161.58441
-15.312489,-162.05157
-14.900799,-161.16696
-14.321279,-159.65219
-15.366155,-162.25882
-15.139198,-152.23885
-15.015442,-162.61667
-15.140445,-161.43472
-15.366782,-162.57741
-15.063361,-158.26678
-15.112873,-157.88693
-15.298599,-161.00372
-15.527125,-163.21367
-14.85383,-155.12965
-15.083059,-160.66043
-14.568994,-157.26384
-15.164744,-157.1436
-14.650025,-155.30835
-14.896603,-163.29228
-14.920448,-154.51175
-15.015098,-156.98637
-14.883842,-156.23233
-14.469894,-161.21474
-14.968926,-157.0477
-15.492403,-158.89008
-15.119888,-160.31049
-15.446688,-158.20215
-14.841744,-157.75803
-15.239291,-161.76324
-15.185525,-161.34129
-14.685111,-157.58742
-14.960558,-158.71819
-15.172949,-161.19473
-15.199436,-158.67068
-15.168955,-160.66408
-15.607443,-161.65436
-14.438475,-158.69051
-15.283751,-155.91068
-15.179327,-159.65016
-15.387974,-162.29253
-14.730755,-161.32339
-15.193793,-160.25171
-15.765621,-160.42113
-14.876802,-162.7018
-15.168642,-158.00414
-14.626193,-157.17223
-14.661406,-161.3448
-15.219897,-159.49368
-15.099963,-159.46419
-15.420099,-156.12299
-15.252862,-165.75636
-14.870247,-157.81854
-15.557188,-163.10645
-14.917968,-156.1904
-14.91544,-159.38832
-14.896474,-157.46219
-14.605172,-158.45604
-15.374521,-156.72179
-15.246738,-159.45964
-14.916459,-161.01599
-15.625132,-166.70549
-15.078471,-160.34999
-14.271563,-165.20776
-15.032153,-158.95598
-14.690785,-158.50833
-14.853257,-154.89661
-14.933723,-159.79716
-14.90958,-162.4368
-15.115047,-160.47528
-15.162996,-159.52203
-14.876293,-160.70213
-15.504821,-157.59898
-15.721828,-158.91652
-15.03988,-159.2876
-15.612309,-160.79469
-15.265131,-160.45586
-15.125987,-160.39532
-15.16916,-160.41241
-14.819011,-159.78477
-15.375685,-159.0047
-15.135394,-164.74199
-14.946064,-163.60832
-14.907055,-157.74149
-14.732738,-160.90799
-14.83755,-161.29523
-14.958695,-160.38266
-14.68237,-160.22133
-15.222256,-161.86655
-14.699103,-161.00212
-14.38585,-161.1684
-14.896111,-159.68942
-15.452461,-158.80005
-14.665976,-160.03841
-15.179304,-157.83299
-15.260485,-161.64027
-14.753519,-158.16032
-15.07507,-161.62962
-14.684324,-161.11844
-14.712982,-161.33162
-15.093057,-158.44447
-14.997727,-157.77072
-15.195889,-159.99568
-15.348784,-159.19218
-15.497331,-162.84933
-15.03965,-162.64742
-14.705298,-160.88745
-15.159056,-156.72046
-14.833643,-158.17247
-15.662737,-161.21248
-15.137834,-158.97273
-15.599449,-159.48428
-14.786388,-159.60365
-14.849856,-158.76315
-14.824703,-160.75421
-14.658136,-160.09972
-14.684068,-155.90643
-14.807477,-160.75679
-15.267255,-159.2338
-15.352415,-161.04906
-15.347685,-159.15169
-15.327771,-157.8136
-14.549645,-160.17458
-14.508119,-157.30338
-15.058743,-158.12474
-14.827065,-161.01456
-14.995496,-157.85623
-15.15951,-162.68221
-15.880415,-161.08191
-14.966857,-159.30922
-15.188246,-159.3956
-14.961445,-160.97398
-15.519558,-158.63377
-15.062873,-163.60997
-14.868141,-158.27411
-15.007786,-159.97079
-15.436874,-160.17328
-15.317555,-158.41013
-14.942103,-159.69666
-15.216897,-161.70764
-14.857142,-160.94151
-15.239717,-163.92891
-14.89706,-161.30487
-14.469723,-161.15736
-15.149564,-157.14108
-14.98518,-160.08235
-14.90257,-160.26939
-14.928646,-162.8876
-15.340215,-158.33768
-15.220588,-157.04939
-15.11115,-161.11847
-15.005234,-158.11508
-14.948442,-164.29546
-15.138947,-159.75748
-15.076498,-157.49046
-15.004899,-159.87941
-14.594843,-160.8149
-14.869938,-159.88783
-15.186775,-157.31137
-15.472772,-159.32581
-14.858809,-160.66116
-15.115656,-157.49258
-15.088609,-159.61702
-14.809661,-161.35072
-14.991605,-160.00089
-15.03738,-160.25916
-15.016963,-159.47581
-15.457203,-162.59584
-15.192075,-157.8222
-14.844813,-161.75996
-15.27836,-161.05403
-15.428224,-161.65504
-15.10801,-156.58427
-14.614082,-160.19725
-14.986173,-160.40121
-14.90395,-159.53429
-14.891762,-161.17207
-15.004083,-161.48634
-14.766519,-160.36922
-15.011533,-157.92169
-15.133178,-160.209
-15.168217,-161.13113
-15.280585,-158.69044
-15.162049,-159.39534
-15.099247,-159.37761
-14.701657,-160.83107
-15.471445,-159.57779
-15.438839,-157.35318
-15.099618,-159.0542
-14.9686,-160.09824
-14.98527,-159.54753
-15.172767,-159.66792
-15.30722,-160.31062
-15.002367,-162.4232
-15.166714,-159.43484
-14.837628,-159.46135
-15.200459,-159.63585
-14.938642,-156.63515
-15.117167,-161.65511
-15.284522,-159.06926
-15.105341,-160.18109
-15.232062,-159.85789
-14.792254,-159.62465
-15.095269,-159.30917
-14.803464,-161.08081
-15.380231,-159.93489
-15.126245,-158.65907
-15.171055,-161.74884
-15.474743,-161.78589
-15.060133,-159.49594
-15.353699,-158.22705
-15.137625,-158.88025
-14.710612,-159.11351
-15.128753,-158.30804
-15.190145,-160.08023
-15.21233,-160.27997
-15.258389,-160.07489
-15.147997,-161.07059
-15.121256,-158.55276
-15.096629,-160.35272
-15.336909,-159.45039
-14.973878,-160.61464
-14.994971,-160.22005
-15.345506,-159.83968
-15.204362,-160.30737
-15.207096,-158.56335
-14.998973,-156.45256
-15.088334,-161.85455
-15.284862,-161.19257
-14.67875,-160.11272
-14.85986,-159.46298
-15.456464,-158.46719
-14.776187,-159.60478
-15.459017,-159.04211
-15.125032,-160.36433
-15.088732,-159.70425
-14.896803,-160.30116
-14.890099,-160.8084
-14.9866,-160.72841
-15.38296,-159.63972
-15.210005,-160.54379
-15.213404,-160.47058
-14.908608,-162.2211
-14.809955,-160.21359
-14.952675,-160.08609
-15.025606,-160.33812
-15.024329,-160.70853
-15.378325,-158.80341
-15.343514,-158.36449
-14.69434,-162.53232
-14.949609,-159.2278
-15.4258,-158.68416
-14.908998,-159.05417
-14.933731,-159.26021
-14.799754,-160.39214
-14.910543,-158.52771
-14.923637,-158.46529
-15.063918,-160.94128
-14.988759,-160.5878
-15.366905,-159.84935
-14.87464,-161.92114
-15.28544,-159.88383
-14.961967,-159.63451
-15.269004,-161.147
-14.861764,-161.65288
-15.419029,-159.37991
-15.329055,-158.28986
-15.102473,-159.92145
-14.943705,-160.42738
-15.041114,-161.79352
-15.251826,-160.05023
-15.079008,-160.50694
-14.884225,-159.35297
-15.021291,-161.49985
-15.223905,-157.65376
-15.085568,-158.32513
-15.0078,-161.08084
-14.684619,-159.33508
-14.969656,-160.61383
-15.355821,-159.49263
-15.053131,-160.7982
-15.01151,-159.45273
-14.845678,-159.19354
-15.057136,-159.44733
