CITIFILE A.01.01
!Agilent Technologies,N5230C,MY48100142,A.08.04.10
!Agilent N5230C: A.08.04.10
!Format: LogMag/Angle
!Date: Thursday, August 13, 2020 16:17:19
NAME CH1_DATA
VAR Power MAG 801
DATA S11 DBANGLE
DATA S21 DBANGLE
DATA S12 DBANGLE
DATA S22 DBANGLE
VAR_LIST_BEGIN
-40
-39.975
-39.95
-39.925
-39.9
-39.875
-39.85
-39.825
-39.8
-39.775
-39.75
-39.725
-39.7
-39.675
-39.65
-39.625
-39.6
-39.575
-39.55
-39.525
-39.5
-39.475
-39.45
-39.425
-39.4
-39.375
-39.35
-39.325
-39.3
-39.275
-39.25
-39.225
-39.2
-39.175
-39.15
-39.125
-39.1
-39.075
-39.05
-39.025
-39
-38.975
-38.95
-38.925
-38.9
-38.875
-38.85
-38.825
-38.8
-38.775
-38.75
-38.725
-38.7
-38.675
-38.65
-38.625
-38.6
-38.575
-38.55
-38.525
-38.5
-38.475
-38.45
-38.425
-38.4
-38.375
-38.35
-38.325
-38.3
-38.275
-38.25
-38.225
-38.2
-38.175
-38.15
-38.125
-38.1
-38.075
-38.05
-38.025
-38
-37.975
-37.95
-37.925
-37.9
-37.875
-37.85
-37.825
-37.8
-37.775
-37.75
-37.725
-37.7
-37.675
-37.65
-37.625
-37.6
-37.575
-37.55
-37.525
-37.5
-37.475
-37.45
-37.425
-37.4
-37.375
-37.35
-37.325
-37.3
-37.275
-37.25
-37.225
-37.2
-37.175
-37.15
-37.125
-37.1
-37.075
-37.05
-37.025
-37
-36.975
-36.95
-36.925
-36.9
-36.875
-36.85
-36.825
-36.8
-36.775
-36.75
-36.725
-36.7
-36.675
-36.65
-36.625
-36.6
-36.575
-36.55
-36.525
-36.5
-36.475
-36.45
-36.425
-36.4
-36.375
-36.35
-36.325
-36.3
-36.275
-36.25
-36.225
-36.2
-36.175
-36.15
-36.125
-36.1
-36.075
-36.05
-36.025
-36
-35.975
-35.95
-35.925
-35.9
-35.875
-35.85
-35.825
-35.8
-35.775
-35.75
-35.725
-35.7
-35.675
-35.65
-35.625
-35.6
-35.575
-35.55
-35.525
-35.5
-35.475
-35.45
-35.425
-35.4
-35.375
-35.35
-35.325
-35.3
-35.275
-35.25
-35.225
-35.2
-35.175
-35.15
-35.125
-35.1
-35.075
-35.05
-35.025
-35
-34.975
-34.95
-34.925
-34.9
-34.875
-34.85
-34.825
-34.8
-34.775
-34.75
-34.725
-34.7
-34.675
-34.65
-34.625
-34.6
-34.575
-34.55
-34.525
-34.5
-34.475
-34.45
-34.425
-34.4
-34.375
-34.35
-34.325
-34.3
-34.275
-34.25
-34.225
-34.2
-34.175
-34.15
-34.125
-34.1
-34.075
-34.05
-34.025
-34
-33.975
-33.95
-33.925
-33.9
-33.875
-33.85
-33.825
-33.8
-33.775
-33.75
-33.725
-33.7
-33.675
-33.65
-33.625
-33.6
-33.575
-33.55
-33.525
-33.5
-33.475
-33.45
-33.425
-33.4
-33.375
-33.35
-33.325
-33.3
-33.275
-33.25
-33.225
-33.2
-33.175
-33.15
-33.125
-33.1
-33.075
-33.05
-33.025
-33
-32.975
-32.95
-32.925
-32.9
-32.875
-32.85
-32.825
-32.8
-32.775
-32.75
-32.725
-32.7
-32.675
-32.65
-32.625
-32.6
-32.575
-32.55
-32.525
-32.5
-32.475
-32.45
-32.425
-32.4
-32.375
-32.35
-32.325
-32.3
-32.275
-32.25
-32.225
-32.2
-32.175
-32.15
-32.125
-32.1
-32.075
-32.05
-32.025
-32
-31.975
-31.95
-31.925
-31.9
-31.875
-31.85
-31.825
-31.8
-31.775
-31.75
-31.725
-31.7
-31.675
-31.65
-31.625
-31.6
-31.575
-31.55
-31.525
-31.5
-31.475
-31.45
-31.425
-31.4
-31.375
-31.35
-31.325
-31.3
-31.275
-31.25
-31.225
-31.2
-31.175
-31.15
-31.125
-31.1
-31.075
-31.05
-31.025
-31
-30.975
-30.95
-30.925
-30.9
-30.875
-30.85
-30.825
-30.8
-30.775
-30.75
-30.725
-30.7
-30.675
-30.65
-30.625
-30.6
-30.575
-30.55
-30.525
-30.5
-30.475
-30.45
-30.425
-30.4
-30.375
-30.35
-30.325
-30.3
-30.275
-30.25
-30.225
-30.2
-30.175
-30.15
-30.125
-30.1
-30.075
-30.05
-30.025
-30
-29.975
-29.95
-29.925
-29.9
-29.875
-29.85
-29.825
-29.8
-29.775
-29.75
-29.725
-29.7
-29.675
-29.65
-29.625
-29.6
-29.575
-29.55
-29.525
-29.5
-29.475
-29.45
-29.425
-29.4
-29.375
-29.35
-29.325
-29.3
-29.275
-29.25
-29.225
-29.2
-29.175
-29.15
-29.125
-29.1
-29.075
-29.05
-29.025
-29
-28.975
-28.95
-28.925
-28.9
-28.875
-28.85
-28.825
-28.8
-28.775
-28.75
-28.725
-28.7
-28.675
-28.65
-28.625
-28.6
-28.575
-28.55
-28.525
-28.5
-28.475
-28.45
-28.425
-28.4
-28.375
-28.35
-28.325
-28.3
-28.275
-28.25
-28.225
-28.2
-28.175
-28.15
-28.125
-28.1
-28.075
-28.05
-28.025
-28
-27.975
-27.95
-27.925
-27.9
-27.875
-27.85
-27.825
-27.8
-27.775
-27.75
-27.725
-27.7
-27.675
-27.65
-27.625
-27.6
-27.575
-27.55
-27.525
-27.5
-27.475
-27.45
-27.425
-27.4
-27.375
-27.35
-27.325
-27.3
-27.275
-27.25
-27.225
-27.2
-27.175
-27.15
-27.125
-27.1
-27.075
-27.05
-27.025
-27
-26.975
-26.95
-26.925
-26.9
-26.875
-26.85
-26.825
-26.8
-26.775
-26.75
-26.725
-26.7
-26.675
-26.65
-26.625
-26.6
-26.575
-26.55
-26.525
-26.5
-26.475
-26.45
-26.425
-26.4
-26.375
-26.35
-26.325
-26.3
-26.275
-26.25
-26.225
-26.2
-26.175
-26.15
-26.125
-26.1
-26.075
-26.05
-26.025
-26
-25.975
-25.95
-25.925
-25.9
-25.875
-25.85
-25.825
-25.8
-25.775
-25.75
-25.725
-25.7
-25.675
-25.65
-25.625
-25.6
-25.575
-25.55
-25.525
-25.5
-25.475
-25.45
-25.425
-25.4
-25.375
-25.35
-25.325
-25.3
-25.275
-25.25
-25.225
-25.2
-25.175
-25.15
-25.125
-25.1
-25.075
-25.05
-25.025
-25
-24.975
-24.95
-24.925
-24.9
-24.875
-24.85
-24.825
-24.8
-24.775
-24.75
-24.725
-24.7
-24.675
-24.65
-24.625
-24.6
-24.575
-24.55
-24.525
-24.5
-24.475
-24.45
-24.425
-24.4
-24.375
-24.35
-24.325
-24.3
-24.275
-24.25
-24.225
-24.2
-24.175
-24.15
-24.125
-24.1
-24.075
-24.05
-24.025
-24
-23.975
-23.95
-23.925
-23.9
-23.875
-23.85
-23.825
-23.8
-23.775
-23.75
-23.725
-23.7
-23.675
-23.65
-23.625
-23.6
-23.575
-23.55
-23.525
-23.5
-23.475
-23.45
-23.425
-23.4
-23.375
-23.35
-23.325
-23.3
-23.275
-23.25
-23.225
-23.2
-23.175
-23.15
-23.125
-23.1
-23.075
-23.05
-23.025
-23
-22.975
-22.95
-22.925
-22.9
-22.875
-22.85
-22.825
-22.8
-22.775
-22.75
-22.725
-22.7
-22.675
-22.65
-22.625
-22.6
-22.575
-22.55
-22.525
-22.5
-22.475
-22.45
-22.425
-22.4
-22.375
-22.35
-22.325
-22.3
-22.275
-22.25
-22.225
-22.2
-22.175
-22.15
-22.125
-22.1
-22.075
-22.05
-22.025
-22
-21.975
-21.95
-21.925
-21.9
-21.875
-21.85
-21.825
-21.8
-21.775
-21.75
-21.725
-21.7
-21.675
-21.65
-21.625
-21.6
-21.575
-21.55
-21.525
-21.5
-21.475
-21.45
-21.425
-21.4
-21.375
-21.35
-21.325
-21.3
-21.275
-21.25
-21.225
-21.2
-21.175
-21.15
-21.125
-21.1
-21.075
-21.05
-21.025
-21
-20.975
-20.95
-20.925
-20.9
-20.875
-20.85
-20.825
-20.8
-20.775
-20.75
-20.725
-20.7
-20.675
-20.65
-20.625
-20.6
-20.575
-20.55
-20.525
-20.5
-20.475
-20.45
-20.425
-20.4
-20.375
-20.35
-20.325
-20.3
-20.275
-20.25
-20.225
-20.2
-20.175
-20.15
-20.125
-20.1
-20.075
-20.05
-20.025
-20
VAR_LIST_END
BEGIN
-14.127713,-156.84061
-14.792725,-164.73608
-15.214068,-153.07883
-15.307118,-157.02434
-15.891708,-156.70477
-16.144768,-157.5585
-15.005483,-161.78424
-15.787204,-161.78494
-15.181355,-162.90523
-14.156164,-155.52734
-15.065887,-159.93123
-15.849117,-152.93054
-15.887297,-157.98506
-15.160118,-153.91129
-15.991385,-156.71548
-15.011958,-162.22957
-15.857312,-156.93324
-15.539582,-159.09506
-15.174045,-160.01411
-14.911059,-156.8255
-14.822225,-162.81422
-15.060378,-151.79039
-14.792037,-156.25992
-14.928527,-159.79831
-14.910053,-163.57417
-14.773296,-150.0045
-15.322714,-155.52167
-15.790545,-156.43933
-15.349366,-150.11243
-14.601508,-159.36354
-15.825872,-158.3298
-14.651707,-152.35941
-15.224503,-161.7906
-15.801479,-157.83604
-15.350348,-158.32297
-14.658692,-162.58153
-15.381436,-161.55212
-14.690271,-160.6145
-14.695563,-156.8299
-15.394413,-157.80916
-15.387253,-161.70125
-15.096773,-153.3163
-14.955278,-157.02844
-15.091271,-158.6839
-15.414181,-157.98431
-15.18546,-158.8784
-15.210619,-154.56226
-14.81424,-155.91159
-16.02025,-157.31302
-15.028095,-158.99199
-14.838099,-155.50151
-14.378659,-156.19711
-14.617352,-162.33484
-15.041123,-153.92841
-16.451674,-154.35959
-14.824152,-158.6521
-15.053296,-154.90982
-14.948474,-152.68056
-14.92639,-155.56935
-15.104209,-159.02406
-15.740705,-157.71272
-15.174838,-157.2662
-14.978516,-160.69406
-15.20495,-156.97112
-15.502472,-160.83826
-15.113421,-155.44969
-15.708548,-156.62004
-15.187549,-161.40437
-14.838704,-155.01279
-15.02125,-159.08165
-14.987381,-155.2083
-15.090223,-166.16316
-15.338176,-156.6781
-15.139315,-157.84184
-15.794069,-161.86746
-15.792089,-156.7803
-15.785435,-154.6958
-15.499718,-157.16899
-15.264041,-155.70789
-15.187841,-156.14297
-14.520035,-159.44624
-15.1216,-163.29877
-15.599611,-164.01802
-15.450514,-158.44833
-14.960641,-156.36089
-15.399096,-159.17155
-15.364882,-162.80467
-14.999479,-163.65036
-15.195417,-158.67499
-14.72501,-154.98682
-15.135512,-156.78571
-14.292192,-161.61722
-15.148491,-160.1516
-14.6243,-160.91908
-15.215034,-157.09364
-15.219541,-161.44499
-15.341181,-156.22319
-14.995079,-159.32291
-15.70857,-157.70667
-15.549348,-158.09525
-15.351789,-160.61682
-14.770886,-164.17909
-15.474779,-156.50845
-14.627333,-159.2541
-15.481418,-161.21033
-14.484432,-156.43668
-15.218875,-161.90305
-15.267545,-159.3334
-14.756372,-158.55975
-14.852206,-161.66371
-15.402705,-155.50343
-15.153011,-158.44016
-14.93693,-161.10553
-15.437298,-158.79927
-15.017227,-156.85089
-15.170368,-161.48036
-15.60513,-158.62505
-14.601366,-159.15994
-15.252327,-156.55899
-14.621627,-160.96049
-15.014994,-160.50543
-14.583871,-160.36812
-15.688139,-157.83009
-14.966044,-160.78502
-14.736839,-161.14565
-15.039712,-157.02794
-15.1454,-158.16888
-15.17313,-158.9975
-14.941849,-159.93707
-14.554237,-156.216
-14.706453,-160.30016
-15.387753,-156.85472
-15.17115,-158.67899
-14.320725,-153.93625
-14.69654,-155.795
-15.283698,-160.97897
-15.483804,-157.27679
-14.942749,-155.44379
-15.595069,-157.84558
-15.065236,-159.80899
-14.947533,-158.49895
-14.827593,-157.69817
-15.254504,-159.06914
-15.559285,-161.00493
-14.654204,-156.56554
-14.718164,-159.63274
-14.9304,-159.9265
-14.815449,-153.25632
-15.021814,-154.91197
-14.524618,-161.21652
-15.60703,-159.81796
-14.703813,-162.10316
-14.958239,-159.45688
-14.6338,-159.09308
-14.690944,-160.31726
-15.124172,-157.24158
-15.231015,-157.07101
-14.890927,-157.36655
-14.391625,-161.93744
-15.456758,-158.43927
-14.873705,-159.92599
-15.070251,-157.0444
-14.932634,-157.90738
-15.430573,-162.53024
-14.792407,-158.58084
-14.744719,-159.80377
-15.023777,-157.15482
-14.763072,-159.14409
-14.946033,-158.63255
-14.682813,-158.96362
-15.147463,-157.89195
-14.5832,-160.07698
-15.375108,-157.42007
-15.175977,-159.05945
-15.444136,-158.73727
-15.126761,-159.0743
-15.112592,-158.23859
-15.591393,-158.74046
-14.73153,-159.45532
-15.002725,-155.29813
-14.720971,-161.68706
-15.007978,-159.91298
-15.562582,-157.39606
-14.900331,-159.1777
-15.379763,-161.21211
-14.786613,-160.32385
-15.433908,-162.33965
-15.262535,-160.45787
-14.943683,-156.14494
-15.26108,-159.76102
-14.862372,-157.34369
-15.299678,-157.00742
-15.463626,-155.71587
-14.646644,-158.82262
-15.159919,-159.96065
-14.869997,-159.43419
-14.859132,-159.30562
-14.930614,-161.41963
-14.318384,-160.2149
-15.279018,-159.35631
-15.47303,-157.33076
-14.842729,-159.74403
-15.267701,-158.92517
-14.938347,-159.73357
-14.603516,-158.06081
-14.850848,-158.08298
-14.535047,-157.34744
-14.556912,-160.60881
-15.1887,-161.5123
-15.081614,-156.68372
-15.620839,-158.97806
-15.190891,-160.82063
-14.894423,-155.50833
-15.367725,-163.06697
-15.086212,-157.97011
-15.220006,-158.07805
-15.055717,-160.18825
-15.299623,-159.47502
-14.842093,-156.32607
-15.344411,-160.58429
-15.137415,-155.32568
-15.032777,-155.75978
-14.786609,-160.17714
-14.955437,-158.24713
-15.052174,-157.69911
-14.99367,-157.10533
-14.992684,-159.912
-14.961824,-158.52209
-15.128209,-156.79359
-14.567435,-159.80972
-14.743475,-156.80101
-15.158298,-159.99608
-15.53054,-154.19479
-14.877634,-160.03615
-15.283074,-158.20763
-14.458635,-160.17621
-15.059078,-156.69476
-14.789801,-162.14856
-15.233377,-163.25308
-15.21736,-160.52837
-14.879163,-158.17906
-14.993195,-159.22664
-14.679523,-159.31795
-15.238715,-160.50261
-14.897928,-158.01955
-15.207533,-160.41148
-14.723269,-159.23631
-15.019387,-155.1187
-15.238128,-160.64124
-15.091197,-159.4509
-14.960029,-160.3403
-15.105052,-158.90973
-15.223473,-156.82231
-15.200934,-160.00546
-14.953155,-155.66739
-14.937027,-158.54211
-15.170831,-160.70224
-15.282663,-157.94759
-14.990805,-161.69006
-15.069521,-161.69595
-14.815979,-158.11513
-14.8909,-157.19893
-14.754883,-157.07565
-15.255899,-159.50826
-15.333024,-157.74155
-15.545599,-159.51102
-15.157484,-156.95662
-14.823194,-158.56128
-14.937679,-159.19096
-14.793739,-159.45099
-15.259413,-157.21051
-15.498919,-158.93028
-15.386759,-161.72751
-14.821704,-157.42453
-15.404089,-160.11597
-15.242449,-160.45647
-15.373117,-158.18387
-14.835279,-159.5592
-15.219557,-159.33998
-15.23141,-158.15221
-15.068037,-159.06303
-14.757115,-160.48312
-14.712458,-158.21385
-15.205605,-160.70564
-15.179441,-157.75005
-15.001121,-160.85516
-14.955874,-161.45593
-14.518619,-157.36729
-15.35873,-156.19594
-15.203719,-158.80251
-15.005514,-162.06436
-14.670286,-159.9664
-15.349018,-159.59959
-15.106762,-159.4828
-15.011682,-157.21785
-14.678132,-158.36211
-14.762289,-158.25911
-15.462186,-162.02185
-15.140052,-159.35251
-15.044436,-156.83197
-15.066446,-157.58781
-15.035189,-161.11586
-14.954843,-156.61246
-14.752634,-159.26236
-15.225984,-157.668
-15.328709,-159.71295
-14.906065,-157.23085
-15.067618,-158.70508
-14.937747,-156.23178
-14.85529,-159.50085
-14.85803,-157.27728
-14.906457,-156.93584
-15.029485,-157.52184
-14.756851,-157.88327
-14.775019,-159.4449
-14.945867,-156.38637
-14.96746,-160.28221
-15.091052,-157.64114
-14.836405,-160.04669
-15.076637,-161.96735
-15.066765,-160.21085
-15.112674,-156.8857
-15.015839,-158.31525
-15.280426,-159.04712
-15.357767,-160.09221
-15.146705,-159.18762
-15.239915,-159.75487
-15.379494,-158.84843
-15.120338,-160.37111
-15.155214,-159.09937
-14.910071,-158.0761
-15.152986,-158.29837
-15.228312,-160.40123
-15.181629,-159.63406
-15.348804,-160.99461
-14.986057,-157.83856
-14.977898,-157.04295
-14.881056,-160.0831
-14.735166,-159.80119
-15.4758,-158.25868
-15.265315,-159.50226
-15.211105,-161.85294
-14.801757,-157.76329
-15.363347,-157.9942
-15.245977,-160.05977
-15.057745,-160.60468
-15.116473,-158.95061
-15.138345,-160.21437
-14.784075,-159.972
-15.091357,-156.14371
-15.21056,-160.46333
-15.269377,-157.7829
-15.217487,-159.9346
-15.058374,-157.18816
-15.203755,-159.27486
-14.906552,-159.81328
-15.233627,-159.95345
-15.199357,-159.17216
-14.885497,-158.08679
-15.363417,-159.7272
-15.164484,-158.35498
-15.041811,-158.84573
-14.963071,-159.28815
-14.724621,-159.78513
-14.911633,-161.59332
-15.090666,-160.35292
-15.097214,-160.45824
-15.233337,-159.22964
-14.931713,-156.5092
-15.222044,-159.00909
-15.217462,-159.88736
-15.322051,-159.51234
-14.739246,-158.41882
-15.021344,-160.11725
-14.933246,-160.86232
-14.940225,-158.97244
-15.103251,-159.25407
-15.123517,-160.53307
-14.993176,-159.09592
-15.05387,-157.10635
-15.135367,-157.87148
-15.040132,-158.55432
-15.303216,-158.3289
-15.025423,-162.38101
-15.018133,-158.8286
-15.105151,-158.58791
-15.130867,-160.25618
-15.163803,-158.67224
-15.03931,-159.55969
-14.89988,-158.78603
-14.816222,-158.78499
-14.978946,-157.61311
-14.794147,-158.56052
-15.210557,-156.68561
-14.870763,-158.51587
-15.001588,-158.87157
-15.303159,-159.54205
-15.185516,-158.96843
-14.662476,-157.82152
-14.817412,-159.53931
-15.128201,-160.30414
-15.091208,-158.4254
-15.488318,-159.73474
-15.232725,-158.92155
-14.824542,-158.05917
-14.976169,-159.25691
-15.273335,-158.55086
-14.850693,-157.58023
-15.01285,-158.51268
-14.617726,-158.7343
-14.972622,-158.6983
-15.142504,-157.16679
-15.074076,-156.10117
-15.163309,-159.8064
-14.861045,-159.94934
-14.940463,-159.09753
-15.212643,-158.83006
-15.057991,-157.38745
-15.338312,-158.35281
-15.176272,-158.17424
-14.982888,-160.30467
-15.583789,-160.29422
-14.887217,-157.72469
-14.937005,-160.16086
-15.115382,-157.9998
-15.132595,-157.96063
-15.068018,-157.38654
-15.123566,-158.83536
-15.248401,-159.00865
-14.766191,-159.8004
-15.129521,-161.05336
-15.146679,-158.93715
-15.234964,-159.75479
-14.910186,-159.71777
-15.368358,-156.56467
-15.075282,-157.39023
-15.188666,-159.81071
-14.927264,-158.7245
-15.134352,-159.24706
-15.076424,-157.97539
-15.08304,-159.90309
-14.987621,-158.47873
-14.85533,-159.52295
-14.960519,-156.57104
-14.975117,-157.67006
-15.098228,-158.66968
-15.00196,-158.19604
-14.994183,-158.61459
-14.967978,-159.47986
-15.06765,-160.28835
-15.02172,-157.71028
-14.959474,-158.98953
-15.15517,-159.0237
-15.16291,-157.30956
-14.99695,-158.21002
-14.804621,-159.20064
-15.078864,-158.64786
-15.150248,-158.81966
-15.036848,-159.57562
-15.049438,-157.25163
-15.074019,-158.73972
-15.111714,-159.88084
-14.79247,-157.92757
-14.835507,-157.79131
-14.925778,-157.88536
-15.320082,-160.2569
-15.018846,-157.43784
-14.887326,-161.08046
-15.099307,-158.09085
-15.03882,-158.94777
-14.885412,-158.01958
-14.974092,-157.59781
-14.846018,-157.92009
-14.922601,-159.06749
-15.123481,-158.48372
-14.984103,-158.8443
-14.972759,-159.98608
-15.254086,-158.05739
-15.060328,-160.55099
-15.282497,-159.94441
-14.714023,-158.04105
-14.923372,-159.58748
-14.943386,-159.49608
-14.946707,-158.74406
-14.929464,-159.66589
-15.081981,-157.92918
-15.1038,-159.30811
-15.179494,-159.35385
-15.105865,-159.04518
-14.987004,-157.62149
-15.117068,-158.98936
-15.04217,-157.47072
-15.03752,-160.97771
-14.89586,-158.24297
-15.163666,-158.85851
-14.999631,-159.20692
-15.013715,-159.01627
-15.127701,-158.21921
-15.057487,-158.01236
-15.166198,-158.31073
-15.241513,-158.79909
-14.845257,-159.50516
-15.017792,-157.58253
-15.041376,-157.54202
-14.813434,-158.78534
-15.001963,-158.00256
-14.995281,-160.2375
-15.05959,-160.19412
-15.02667,-159.26999
-14.962682,-158.65118
-14.911388,-159.3857
-14.953122,-158.22719
-15.043642,-158.75507
-15.124402,-158.72801
-14.901638,-157.84381
-15.126962,-157.56862
-15.093826,-158.52034
-15.168941,-159.16295
-15.058101,-158.82233
-15.033672,-158.86121
-14.898108,-158.88808
-15.06293,-159.88161
-15.124812,-158.16043
-14.849599,-160.31184
-14.984056,-157.7135
-15.161027,-158.1282
-14.880698,-158.32457
-15.010654,-159.5954
-15.011241,-157.93404
-15.061749,-160.51448
-15.15075,-157.07076
-14.955672,-158.30528
-15.054654,-158.73421
-14.978322,-158.85004
-14.986491,-159.70215
-15.043573,-159.23975
-14.998538,-158.29579
-15.162451,-157.49979
-15.121209,-159.58928
-15.082972,-158.18642
-14.988236,-159.3968
-15.064829,-159.25334
-15.228938,-159.87068
-15.10301,-159.80017
-15.078572,-159.25487
-14.98035,-157.25514
-15.08448,-160.29373
-14.957985,-160.16734
-15.031952,-157.60887
-14.975593,-159.50703
-15.137602,-159.47774
-14.990639,-159.94049
-15.040992,-159.29402
-15.032137,-159.05806
-15.117575,-160.33525
-14.820459,-159.06831
-15.102684,-158.92146
-15.198195,-158.14891
-15.083422,-158.46861
-15.152027,-158.3494
-14.897365,-158.80597
-15.09976,-158.89424
-14.946609,-158.76875
-15.022161,-158.93977
-15.040739,-159.57079
-15.064621,-158.85919
-15.109493,-159.8371
-15.041387,-159.19191
-14.983587,-158.69702
-15.127415,-158.38901
-15.169529,-158.82944
-15.086218,-159.31985
-14.988985,-158.82159
-14.914361,-158.9059
-15.2155,-158.69254
-14.969614,-157.51311
-15.079491,-159.65591
