CITIFILE A.01.01
!Agilent Technologies,N5230C,MY48100142,A.08.04.10
!Agilent N5230C: A.08.04.10
!Format: LogMag/Angle
!Date: Thursday, August 13, 2020 16:19:54
NAME CH1_DATA
VAR Power MAG 801
DATA S11 DBANGLE
DATA S21 DBANGLE
DATA S12 DBANGLE
DATA S22 DBANGLE
VAR_LIST_BEGIN
-40
-39.975
-39.95
-39.925
-39.9
-39.875
-39.85
-39.825
-39.8
-39.775
-39.75
-39.725
-39.7
-39.675
-39.65
-39.625
-39.6
-39.575
-39.55
-39.525
-39.5
-39.475
-39.45
-39.425
-39.4
-39.375
-39.35
-39.325
-39.3
-39.275
-39.25
-39.225
-39.2
-39.175
-39.15
-39.125
-39.1
-39.075
-39.05
-39.025
-39
-38.975
-38.95
-38.925
-38.9
-38.875
-38.85
-38.825
-38.8
-38.775
-38.75
-38.725
-38.7
-38.675
-38.65
-38.625
-38.6
-38.575
-38.55
-38.525
-38.5
-38.475
-38.45
-38.425
-38.4
-38.375
-38.35
-38.325
-38.3
-38.275
-38.25
-38.225
-38.2
-38.175
-38.15
-38.125
-38.1
-38.075
-38.05
-38.025
-38
-37.975
-37.95
-37.925
-37.9
-37.875
-37.85
-37.825
-37.8
-37.775
-37.75
-37.725
-37.7
-37.675
-37.65
-37.625
-37.6
-37.575
-37.55
-37.525
-37.5
-37.475
-37.45
-37.425
-37.4
-37.375
-37.35
-37.325
-37.3
-37.275
-37.25
-37.225
-37.2
-37.175
-37.15
-37.125
-37.1
-37.075
-37.05
-37.025
-37
-36.975
-36.95
-36.925
-36.9
-36.875
-36.85
-36.825
-36.8
-36.775
-36.75
-36.725
-36.7
-36.675
-36.65
-36.625
-36.6
-36.575
-36.55
-36.525
-36.5
-36.475
-36.45
-36.425
-36.4
-36.375
-36.35
-36.325
-36.3
-36.275
-36.25
-36.225
-36.2
-36.175
-36.15
-36.125
-36.1
-36.075
-36.05
-36.025
-36
-35.975
-35.95
-35.925
-35.9
-35.875
-35.85
-35.825
-35.8
-35.775
-35.75
-35.725
-35.7
-35.675
-35.65
-35.625
-35.6
-35.575
-35.55
-35.525
-35.5
-35.475
-35.45
-35.425
-35.4
-35.375
-35.35
-35.325
-35.3
-35.275
-35.25
-35.225
-35.2
-35.175
-35.15
-35.125
-35.1
-35.075
-35.05
-35.025
-35
-34.975
-34.95
-34.925
-34.9
-34.875
-34.85
-34.825
-34.8
-34.775
-34.75
-34.725
-34.7
-34.675
-34.65
-34.625
-34.6
-34.575
-34.55
-34.525
-34.5
-34.475
-34.45
-34.425
-34.4
-34.375
-34.35
-34.325
-34.3
-34.275
-34.25
-34.225
-34.2
-34.175
-34.15
-34.125
-34.1
-34.075
-34.05
-34.025
-34
-33.975
-33.95
-33.925
-33.9
-33.875
-33.85
-33.825
-33.8
-33.775
-33.75
-33.725
-33.7
-33.675
-33.65
-33.625
-33.6
-33.575
-33.55
-33.525
-33.5
-33.475
-33.45
-33.425
-33.4
-33.375
-33.35
-33.325
-33.3
-33.275
-33.25
-33.225
-33.2
-33.175
-33.15
-33.125
-33.1
-33.075
-33.05
-33.025
-33
-32.975
-32.95
-32.925
-32.9
-32.875
-32.85
-32.825
-32.8
-32.775
-32.75
-32.725
-32.7
-32.675
-32.65
-32.625
-32.6
-32.575
-32.55
-32.525
-32.5
-32.475
-32.45
-32.425
-32.4
-32.375
-32.35
-32.325
-32.3
-32.275
-32.25
-32.225
-32.2
-32.175
-32.15
-32.125
-32.1
-32.075
-32.05
-32.025
-32
-31.975
-31.95
-31.925
-31.9
-31.875
-31.85
-31.825
-31.8
-31.775
-31.75
-31.725
-31.7
-31.675
-31.65
-31.625
-31.6
-31.575
-31.55
-31.525
-31.5
-31.475
-31.45
-31.425
-31.4
-31.375
-31.35
-31.325
-31.3
-31.275
-31.25
-31.225
-31.2
-31.175
-31.15
-31.125
-31.1
-31.075
-31.05
-31.025
-31
-30.975
-30.95
-30.925
-30.9
-30.875
-30.85
-30.825
-30.8
-30.775
-30.75
-30.725
-30.7
-30.675
-30.65
-30.625
-30.6
-30.575
-30.55
-30.525
-30.5
-30.475
-30.45
-30.425
-30.4
-30.375
-30.35
-30.325
-30.3
-30.275
-30.25
-30.225
-30.2
-30.175
-30.15
-30.125
-30.1
-30.075
-30.05
-30.025
-30
-29.975
-29.95
-29.925
-29.9
-29.875
-29.85
-29.825
-29.8
-29.775
-29.75
-29.725
-29.7
-29.675
-29.65
-29.625
-29.6
-29.575
-29.55
-29.525
-29.5
-29.475
-29.45
-29.425
-29.4
-29.375
-29.35
-29.325
-29.3
-29.275
-29.25
-29.225
-29.2
-29.175
-29.15
-29.125
-29.1
-29.075
-29.05
-29.025
-29
-28.975
-28.95
-28.925
-28.9
-28.875
-28.85
-28.825
-28.8
-28.775
-28.75
-28.725
-28.7
-28.675
-28.65
-28.625
-28.6
-28.575
-28.55
-28.525
-28.5
-28.475
-28.45
-28.425
-28.4
-28.375
-28.35
-28.325
-28.3
-28.275
-28.25
-28.225
-28.2
-28.175
-28.15
-28.125
-28.1
-28.075
-28.05
-28.025
-28
-27.975
-27.95
-27.925
-27.9
-27.875
-27.85
-27.825
-27.8
-27.775
-27.75
-27.725
-27.7
-27.675
-27.65
-27.625
-27.6
-27.575
-27.55
-27.525
-27.5
-27.475
-27.45
-27.425
-27.4
-27.375
-27.35
-27.325
-27.3
-27.275
-27.25
-27.225
-27.2
-27.175
-27.15
-27.125
-27.1
-27.075
-27.05
-27.025
-27
-26.975
-26.95
-26.925
-26.9
-26.875
-26.85
-26.825
-26.8
-26.775
-26.75
-26.725
-26.7
-26.675
-26.65
-26.625
-26.6
-26.575
-26.55
-26.525
-26.5
-26.475
-26.45
-26.425
-26.4
-26.375
-26.35
-26.325
-26.3
-26.275
-26.25
-26.225
-26.2
-26.175
-26.15
-26.125
-26.1
-26.075
-26.05
-26.025
-26
-25.975
-25.95
-25.925
-25.9
-25.875
-25.85
-25.825
-25.8
-25.775
-25.75
-25.725
-25.7
-25.675
-25.65
-25.625
-25.6
-25.575
-25.55
-25.525
-25.5
-25.475
-25.45
-25.425
-25.4
-25.375
-25.35
-25.325
-25.3
-25.275
-25.25
-25.225
-25.2
-25.175
-25.15
-25.125
-25.1
-25.075
-25.05
-25.025
-25
-24.975
-24.95
-24.925
-24.9
-24.875
-24.85
-24.825
-24.8
-24.775
-24.75
-24.725
-24.7
-24.675
-24.65
-24.625
-24.6
-24.575
-24.55
-24.525
-24.5
-24.475
-24.45
-24.425
-24.4
-24.375
-24.35
-24.325
-24.3
-24.275
-24.25
-24.225
-24.2
-24.175
-24.15
-24.125
-24.1
-24.075
-24.05
-24.025
-24
-23.975
-23.95
-23.925
-23.9
-23.875
-23.85
-23.825
-23.8
-23.775
-23.75
-23.725
-23.7
-23.675
-23.65
-23.625
-23.6
-23.575
-23.55
-23.525
-23.5
-23.475
-23.45
-23.425
-23.4
-23.375
-23.35
-23.325
-23.3
-23.275
-23.25
-23.225
-23.2
-23.175
-23.15
-23.125
-23.1
-23.075
-23.05
-23.025
-23
-22.975
-22.95
-22.925
-22.9
-22.875
-22.85
-22.825
-22.8
-22.775
-22.75
-22.725
-22.7
-22.675
-22.65
-22.625
-22.6
-22.575
-22.55
-22.525
-22.5
-22.475
-22.45
-22.425
-22.4
-22.375
-22.35
-22.325
-22.3
-22.275
-22.25
-22.225
-22.2
-22.175
-22.15
-22.125
-22.1
-22.075
-22.05
-22.025
-22
-21.975
-21.95
-21.925
-21.9
-21.875
-21.85
-21.825
-21.8
-21.775
-21.75
-21.725
-21.7
-21.675
-21.65
-21.625
-21.6
-21.575
-21.55
-21.525
-21.5
-21.475
-21.45
-21.425
-21.4
-21.375
-21.35
-21.325
-21.3
-21.275
-21.25
-21.225
-21.2
-21.175
-21.15
-21.125
-21.1
-21.075
-21.05
-21.025
-21
-20.975
-20.95
-20.925
-20.9
-20.875
-20.85
-20.825
-20.8
-20.775
-20.75
-20.725
-20.7
-20.675
-20.65
-20.625
-20.6
-20.575
-20.55
-20.525
-20.5
-20.475
-20.45
-20.425
-20.4
-20.375
-20.35
-20.325
-20.3
-20.275
-20.25
-20.225
-20.2
-20.175
-20.15
-20.125
-20.1
-20.075
-20.05
-20.025
-20
VAR_LIST_END
BEGIN
-14.981606,-159.96237
-15.082501,-157.38545
-14.637524,-155.25575
-14.838523,-156.82056
-15.143044,-155.7793
-14.745927,-157.93573
-15.177179,-160.37534
-14.965797,-157.23273
-15.326819,-161.00906
-14.904637,-158.31648
-15.39797,-157.35368
-15.14764,-158.34137
-15.053011,-158.10303
-15.308837,-154.29353
-15.570449,-158.28938
-14.407593,-159.5919
-15.256599,-153.69345
-15.257669,-156.59766
-15.321891,-158.01257
-14.98265,-160.94165
-15.539903,-158.89265
-14.805266,-156.97015
-14.894155,-157.21333
-14.845307,-156.98112
-15.513529,-158.63617
-14.585798,-162.44853
-15.230308,-159.23543
-15.124397,-153.99207
-14.505893,-160.12215
-15.097059,-159.90291
-14.969178,-154.35426
-15.023354,-161.72125
-15.498016,-161.06531
-15.39735,-159.49623
-14.759521,-159.41031
-15.01497,-157.41681
-15.324924,-156.78918
-14.832655,-156.6069
-14.800748,-155.93573
-15.266995,-162.23962
-15.375556,-160.82719
-14.898878,-158.69202
-15.112526,-156.40121
-14.985203,-157.58859
-15.349967,-162.25446
-14.717952,-159.40225
-14.629473,-156.00278
-15.580462,-160.4231
-15.110885,-158.65968
-14.953958,-158.22664
-15.975281,-161.26811
-15.311428,-159.0351
-14.964147,-154.95453
-14.892805,-159.13954
-14.412655,-158.28081
-15.293136,-159.79373
-15.089213,-156.88666
-14.332402,-159.01286
-15.341729,-158.18971
-15.102981,-160.77309
-14.855575,-160.00983
-15.046865,-161.47836
-15.282097,-156.58711
-16.059113,-158.02495
-14.692619,-158.14671
-14.800161,-158.5835
-15.300964,-160.40529
-15.434409,-159.59674
-14.713421,-158.65445
-15.281123,-159.09679
-14.833517,-160.67296
-14.90455,-157.93065
-15.252359,-159.03481
-14.507536,-160.83643
-14.743394,-156.7493
-15.408446,-159.75858
-15.035028,-159.922
-15.394367,-161.50111
-15.012392,-162.62206
-15.056429,-156.9007
-15.866032,-159.95006
-15.234206,-157.53465
-15.098509,-159.87181
-14.473004,-158.95667
-15.718596,-157.93301
-14.803698,-160.146
-14.883718,-159.74013
-14.691556,-162.78394
-14.56834,-159.45842
-14.709347,-156.46237
-14.857586,-161.97354
-14.97135,-159.7558
-14.793955,-161.01323
-15.351071,-158.53969
-14.890518,-156.83667
-15.25457,-160.50603
-14.613047,-162.26967
-15.558593,-158.41496
-15.548038,-157.55147
-15.850471,-152.57805
-15.339645,-154.97633
-15.356237,-158.41751
-14.830062,-158.60249
-15.460777,-156.50771
-14.921041,-160.60876
-15.027739,-158.75861
-15.150251,-161.84647
-14.705399,-155.26457
-14.919918,-162.88414
-14.917505,-159.32819
-14.650063,-157.14136
-15.674491,-161.46358
-15.683867,-158.27335
-14.9008,-161.00168
-14.630454,-157.29575
-14.953687,-157.31026
-15.311088,-161.43193
-15.177486,-159.48546
-14.844287,-160.80901
-14.583211,-160.19235
-14.939194,-160.17615
-14.745249,-157.76634
-15.0644,-161.05013
-14.832563,-158.15364
-14.458088,-158.71387
-15.05792,-159.39679
-15.037506,-159.15622
-14.322058,-157.07938
-15.196959,-160.16951
-14.959317,-156.08124
-14.838561,-161.53265
-15.243986,-160.37413
-15.044258,-158.97192
-15.512008,-159.7567
-14.403341,-156.23692
-15.333875,-157.92099
-14.799425,-159.43886
-15.337667,-158.6282
-15.050707,-160.62303
-15.128493,-159.96442
-15.168812,-155.82855
-14.694486,-160.17126
-14.560261,-160.80746
-14.660069,-161.98416
-15.40616,-160.94299
-14.664826,-159.21474
-14.660434,-156.5994
-14.936769,-160.08282
-15.403746,-160.76801
-15.394455,-160.58832
-14.909246,-156.21907
-14.715135,-160.48846
-15.17484,-161.39456
-14.950063,-158.93359
-14.669178,-160.0721
-14.349976,-158.90842
-15.449891,-159.6481
-15.267303,-160.66714
-14.875385,-162.75233
-15.1143,-158.74069
-15.132311,-161.00102
-15.144598,-156.7005
-15.648523,-155.82829
-15.227407,-159.65849
-15.2013,-157.8718
-14.741576,-160.02991
-15.184592,-160.04193
-15.53045,-156.62177
-15.184981,-160.56548
-14.959645,-159.70087
-14.990438,-157.44775
-15.024905,-156.8517
-14.819299,-159.89592
-15.202759,-156.71603
-15.479274,-156.99684
-15.067575,-157.23932
-15.084189,-155.46191
-14.969604,-157.47281
-14.896738,-161.683
-14.895455,-160.68909
-14.688947,-158.24797
-15.598723,-160.20203
-15.597059,-157.0396
-15.415322,-158.46989
-15.244416,-162.03256
-14.688879,-158.8903
-14.706664,-160.79536
-14.864053,-158.11555
-14.671675,-159.23926
-14.678629,-160.45461
-15.396161,-156.418
-15.15795,-159.55751
-14.813578,-156.71083
-15.421309,-160.97974
-14.816184,-159.88423
-14.934635,-160.14322
-14.71976,-160.72879
-14.70275,-159.65144
-15.336821,-158.37115
-15.343404,-157.1666
-15.18075,-160.18489
-14.735045,-157.13582
-15.227737,-158.84207
-14.93974,-156.00195
-15.236332,-157.57025
-15.059067,-158.49828
-15.004247,-159.59163
-15.495434,-160.28458
-14.543318,-160.09515
-14.935234,-159.56396
-14.814201,-159.48422
-15.169396,-156.84254
-14.734398,-158.42863
-14.99247,-158.13921
-15.448574,-156.98097
-15.405301,-160.29706
-15.347346,-157.81918
-15.399958,-157.29286
-15.273338,-158.82916
-14.985599,-154.77661
-15.006025,-158.46846
-15.244542,-158.4906
-14.898723,-157.98782
-14.965204,-159.63846
-15.230185,-159.55405
-15.358882,-156.87924
-15.077881,-158.43709
-15.549594,-158.15956
-14.993922,-158.00591
-14.536235,-158.9847
-14.429331,-157.69002
-15.019526,-155.28773
-14.872066,-158.96906
-15.37485,-161.4646
-15.336053,-159.10378
-14.755833,-159.57205
-15.065988,-156.44252
-15.081232,-159.82803
-14.850821,-159.57834
-15.080157,-161.59138
-15.078175,-159.15085
-15.07259,-157.71381
-14.943061,-155.53535
-15.1696,-156.00935
-15.072425,-161.41345
-15.089883,-157.69307
-14.950404,-156.94498
-15.066892,-160.48157
-15.504191,-161.31654
-15.208933,-156.79604
-15.026308,-160.23138
-14.982281,-159.25136
-15.016872,-160.91635
-15.299455,-161.07143
-14.813773,-156.75839
-14.99301,-157.48622
-15.0276,-159.75502
-14.902083,-159.54175
-15.406713,-158.99327
-15.064246,-158.86726
-15.329709,-158.18571
-15.319149,-159.85078
-14.893439,-158.60736
-14.77271,-158.42549
-14.792456,-158.24249
-15.284512,-158.6553
-14.782207,-159.87321
-15.247384,-158.77576
-14.988497,-157.23071
-15.189003,-159.12158
-15.200743,-160.74947
-14.963183,-159.18668
-14.912752,-158.41054
-15.126409,-157.8551
-14.97884,-159.97765
-14.980601,-155.68381
-14.974052,-160.4162
-14.611656,-159.2215
-15.076828,-156.56558
-14.786991,-158.16922
-15.517832,-161.10226
-15.235968,-159.9791
-15.172696,-159.52274
-15.02617,-159.05051
-15.506711,-157.77254
-15.489536,-159.16628
-15.114251,-159.56996
-15.385465,-159.56154
-15.052902,-160.66351
-15.084416,-158.91695
-15.304575,-157.76689
-15.227285,-157.43047
-15.153659,-159.77557
-14.855794,-159.17174
-14.980245,-159.16072
-14.794822,-159.20969
-14.994312,-157.87875
-15.039487,-157.93475
-15.330352,-156.8719
-15.171989,-158.85793
-15.246606,-159.05162
-14.793167,-157.43118
-14.821188,-160.7636
-14.912777,-159.03136
-14.797643,-160.22331
-15.036573,-158.97768
-15.213259,-159.69946
-14.940798,-159.80574
-15.479895,-157.85378
-15.192619,-158.30722
-14.712646,-159.15298
-15.069501,-160.45775
-15.100487,-159.48172
-14.961789,-158.97981
-14.621425,-158.74783
-15.047679,-158.54941
-15.018544,-160.02643
-14.762357,-158.3775
-15.346758,-157.36249
-14.970409,-156.55156
-14.989255,-156.59084
-14.781071,-159.72115
-15.223828,-159.92935
-15.022736,-158.82692
-15.026015,-159.93967
-14.899163,-157.17336
-14.86924,-159.63036
-15.121313,-160.04555
-15.065917,-158.84021
-14.997916,-159.04619
-14.726213,-159.31775
-15.251395,-159.64217
-15.184896,-157.15804
-15.069312,-158.99529
-14.85754,-159.52132
-14.756719,-159.60515
-14.939523,-158.31479
-15.151633,-160.73593
-15.149149,-159.42221
-15.046514,-158.93959
-15.039391,-159.1384
-15.040604,-158.66779
-15.074838,-157.41595
-15.292008,-156.84602
-14.856607,-158.67125
-15.13086,-158.65544
-14.811983,-158.50865
-15.09215,-158.5901
-15.079201,-158.95511
-15.060243,-159.19545
-14.868724,-160.3028
-15.294354,-158.21745
-15.183984,-156.43633
-14.929272,-159.58214
-14.952991,-157.47687
-15.501844,-158.28204
-15.013086,-159.08073
-15.155976,-159.02768
-15.179015,-158.6032
-14.883031,-159.33383
-15.165836,-159.28369
-15.07699,-156.20792
-15.032692,-158.27022
-15.253959,-159.10771
-15.258793,-158.10283
-14.924232,-158.75923
-15.041069,-157.59912
-15.052585,-157.23926
-15.11808,-159.03317
-15.12038,-158.60432
-15.037392,-159.59616
-14.896343,-158.12804
-15.057786,-159.36667
-15.075521,-158.43646
-14.875456,-158.0025
-15.026418,-158.05502
-15.27031,-159.1631
-15.209186,-159.0786
-15.176845,-158.86948
-15.031323,-158.96106
-14.51346,-158.70537
-15.155868,-158.92894
-14.968535,-159.55962
-14.960291,-159.33337
-15.15603,-159.19788
-14.999108,-159.33205
-15.008537,-159.1998
-15.038672,-158.51802
-14.899817,-159.56883
-15.261705,-159.20695
-15.030403,-158.47878
-14.836352,-156.95082
-15.029256,-157.58057
-14.792983,-158.60799
-14.985251,-159.94434
-15.112006,-159.93753
-14.981254,-158.49971
-15.154778,-160.40199
-15.225665,-157.43051
-15.020072,-159.27754
-15.075654,-156.84946
-15.107965,-157.14322
-15.05485,-159.28038
-14.924048,-159.28412
-14.869007,-158.92497
-15.036552,-159.05113
-15.23324,-159.49518
-14.931534,-159.64822
-14.964011,-158.82236
-14.841852,-157.4388
-15.186243,-160.01492
-15.077481,-159.02153
-15.251302,-158.44438
-14.983171,-158.58592
-15.115644,-158.46465
-14.8318,-159.48387
-15.250943,-157.78276
-14.945843,-159.06195
-14.963472,-157.35699
-15.004785,-158.16719
-14.85518,-159.21069
-15.124238,-159.98126
-14.732118,-157.50839
-15.088239,-158.66751
-15.018617,-157.7677
-15.13928,-159.73204
-15.350109,-159.60423
-14.95304,-158.40778
-15.106153,-158.63382
-15.171539,-158.34369
-14.968963,-158.87233
-15.067174,-159.7149
-15.145276,-158.86606
-15.230105,-159.40649
-14.813627,-158.88156
-15.034286,-158.61615
-14.994273,-159.31769
-14.879003,-159.1208
-15.104998,-159.83679
-15.295461,-158.98035
-15.138557,-159.54675
-14.987963,-157.51321
-14.980592,-159.17157
-15.02882,-158.00975
-14.921758,-158.08813
-15.052897,-158.54967
-15.016975,-159.35075
-15.03415,-157.76772
-15.114285,-158.36758
-15.016544,-159.02644
-14.913522,-159.67772
-15.121554,-158.53827
-15.002863,-159.55745
-15.002825,-157.02689
-15.174831,-159.92053
-15.055849,-160.39618
-15.104694,-158.92072
-15.172691,-158.92032
-14.8959,-159.07117
-14.947835,-158.60068
-15.08645,-158.03236
-15.184958,-158.46857
-15.145164,-158.01906
-14.883944,-158.5661
-14.855131,-159.40147
-15.19972,-159.60455
-14.894262,-158.27769
-14.926569,-158.28284
-15.220482,-158.23384
-15.210456,-158.26529
-15.095624,-159.25304
-15.245899,-159.76048
-15.252657,-157.73167
-15.273286,-158.85248
-15.06802,-158.86008
-15.118925,-157.8541
-14.907427,-159.0885
-14.886545,-159.59824
-15.086361,-159.65526
-15.105695,-159.38306
-15.012878,-158.00543
-15.222461,-159.28955
-15.03299,-160.78703
-15.084842,-158.627
-15.236688,-158.85216
-15.035826,-159.09377
-15.042944,-158.83684
-15.186855,-158.90175
-15.123847,-157.37111
-14.941079,-159.70203
-15.074001,-159.85275
-15.176378,-158.30101
-14.918832,-159.05943
-14.910859,-157.74298
-15.022462,-159.63313
-14.988883,-158.67938
-15.056218,-158.45886
-14.828331,-159.00905
-15.02371,-158.42151
-14.893713,-158.59692
-15.133251,-158.29143
-15.197092,-160.37012
-15.156731,-159.41406
-15.046144,-158.5457
-15.021236,-159.36234
-15.128781,-159.59052
-15.197639,-158.6758
-15.111032,-157.61026
-14.945788,-159.1244
-15.066424,-158.35928
-14.926097,-159.53993
-15.040209,-158.73602
-15.224728,-158.57503
-14.934976,-160.32079
-15.060616,-158.22058
-14.949256,-159.22673
-15.028968,-158.47157
-15.073237,-157.70152
-15.122482,-158.4877
-14.986865,-159.6942
-15.023668,-159.96593
-14.982723,-159.48511
-15.122077,-159.10426
-14.994307,-159.03951
-14.96915,-158.40141
-15.240726,-158.12918
-15.192048,-159.33568
-14.966644,-158.85091
-15.149002,-160.18434
-15.025083,-158.54401
-15.022809,-158.06645
-14.924915,-158.15211
-15.311671,-159.28725
-15.145569,-158.90898
-15.130558,-159.57477
-15.115818,-159.60168
-15.116583,-159.28644
-15.079179,-159.04475
-15.167632,-159.44838
-15.133113,-158.79822
-14.858819,-159.6642
-15.147779,-158.87585
-14.949507,-159.80276
-15.129577,-159.12747
-14.942549,-158.26137
-14.895995,-158.25468
-15.047087,-159.59648
-15.043399,-160.25824
-15.038953,-159.34773
-15.052069,-159.6035
-14.901427,-158.78271
-14.771598,-158.54897
-14.952772,-158.62247
-15.087689,-159.04568
-15.034925,-159.16609
-14.942558,-159.82269
-15.123499,-158.35028
-14.892374,-159.48289
-14.930437,-158.37881
-15.082675,-159.15482
-15.051346,-158.89917
-15.018389,-158.79468
-14.874312,-159.34039
-14.990225,-159.46953
-14.987025,-159.13533
-15.027944,-158.08438
-15.063828,-158.412
-14.953502,-158.48436
-14.846074,-158.53522
-15.137707,-159.18347
-15.187304,-158.83809
-15.061871,-158.55075
-15.001099,-157.81931
-14.931409,-159.07182
-15.177142,-158.01677
-15.010113,-158.9184
