CITIFILE A.01.01
!Agilent Technologies,N5230C,MY48100142,A.08.04.10
!Agilent N5230C: A.08.04.10
!Format: LogMag/Angle
!Date: Wednesday, September 04, 2019 12:51:27
NAME CH1_DATA
VAR Power MAG 801
DATA S11 DBANGLE
DATA S21 DBANGLE
DATA S12 DBANGLE
DATA S22 DBANGLE
VAR_LIST_BEGIN
-40
-39.975
-39.95
-39.925
-39.9
-39.875
-39.85
-39.825
-39.8
-39.775
-39.75
-39.725
-39.7
-39.675
-39.65
-39.625
-39.6
-39.575
-39.55
-39.525
-39.5
-39.475
-39.45
-39.425
-39.4
-39.375
-39.35
-39.325
-39.3
-39.275
-39.25
-39.225
-39.2
-39.175
-39.15
-39.125
-39.1
-39.075
-39.05
-39.025
-39
-38.975
-38.95
-38.925
-38.9
-38.875
-38.85
-38.825
-38.8
-38.775
-38.75
-38.725
-38.7
-38.675
-38.65
-38.625
-38.6
-38.575
-38.55
-38.525
-38.5
-38.475
-38.45
-38.425
-38.4
-38.375
-38.35
-38.325
-38.3
-38.275
-38.25
-38.225
-38.2
-38.175
-38.15
-38.125
-38.1
-38.075
-38.05
-38.025
-38
-37.975
-37.95
-37.925
-37.9
-37.875
-37.85
-37.825
-37.8
-37.775
-37.75
-37.725
-37.7
-37.675
-37.65
-37.625
-37.6
-37.575
-37.55
-37.525
-37.5
-37.475
-37.45
-37.425
-37.4
-37.375
-37.35
-37.325
-37.3
-37.275
-37.25
-37.225
-37.2
-37.175
-37.15
-37.125
-37.1
-37.075
-37.05
-37.025
-37
-36.975
-36.95
-36.925
-36.9
-36.875
-36.85
-36.825
-36.8
-36.775
-36.75
-36.725
-36.7
-36.675
-36.65
-36.625
-36.6
-36.575
-36.55
-36.525
-36.5
-36.475
-36.45
-36.425
-36.4
-36.375
-36.35
-36.325
-36.3
-36.275
-36.25
-36.225
-36.2
-36.175
-36.15
-36.125
-36.1
-36.075
-36.05
-36.025
-36
-35.975
-35.95
-35.925
-35.9
-35.875
-35.85
-35.825
-35.8
-35.775
-35.75
-35.725
-35.7
-35.675
-35.65
-35.625
-35.6
-35.575
-35.55
-35.525
-35.5
-35.475
-35.45
-35.425
-35.4
-35.375
-35.35
-35.325
-35.3
-35.275
-35.25
-35.225
-35.2
-35.175
-35.15
-35.125
-35.1
-35.075
-35.05
-35.025
-35
-34.975
-34.95
-34.925
-34.9
-34.875
-34.85
-34.825
-34.8
-34.775
-34.75
-34.725
-34.7
-34.675
-34.65
-34.625
-34.6
-34.575
-34.55
-34.525
-34.5
-34.475
-34.45
-34.425
-34.4
-34.375
-34.35
-34.325
-34.3
-34.275
-34.25
-34.225
-34.2
-34.175
-34.15
-34.125
-34.1
-34.075
-34.05
-34.025
-34
-33.975
-33.95
-33.925
-33.9
-33.875
-33.85
-33.825
-33.8
-33.775
-33.75
-33.725
-33.7
-33.675
-33.65
-33.625
-33.6
-33.575
-33.55
-33.525
-33.5
-33.475
-33.45
-33.425
-33.4
-33.375
-33.35
-33.325
-33.3
-33.275
-33.25
-33.225
-33.2
-33.175
-33.15
-33.125
-33.1
-33.075
-33.05
-33.025
-33
-32.975
-32.95
-32.925
-32.9
-32.875
-32.85
-32.825
-32.8
-32.775
-32.75
-32.725
-32.7
-32.675
-32.65
-32.625
-32.6
-32.575
-32.55
-32.525
-32.5
-32.475
-32.45
-32.425
-32.4
-32.375
-32.35
-32.325
-32.3
-32.275
-32.25
-32.225
-32.2
-32.175
-32.15
-32.125
-32.1
-32.075
-32.05
-32.025
-32
-31.975
-31.95
-31.925
-31.9
-31.875
-31.85
-31.825
-31.8
-31.775
-31.75
-31.725
-31.7
-31.675
-31.65
-31.625
-31.6
-31.575
-31.55
-31.525
-31.5
-31.475
-31.45
-31.425
-31.4
-31.375
-31.35
-31.325
-31.3
-31.275
-31.25
-31.225
-31.2
-31.175
-31.15
-31.125
-31.1
-31.075
-31.05
-31.025
-31
-30.975
-30.95
-30.925
-30.9
-30.875
-30.85
-30.825
-30.8
-30.775
-30.75
-30.725
-30.7
-30.675
-30.65
-30.625
-30.6
-30.575
-30.55
-30.525
-30.5
-30.475
-30.45
-30.425
-30.4
-30.375
-30.35
-30.325
-30.3
-30.275
-30.25
-30.225
-30.2
-30.175
-30.15
-30.125
-30.1
-30.075
-30.05
-30.025
-30
-29.975
-29.95
-29.925
-29.9
-29.875
-29.85
-29.825
-29.8
-29.775
-29.75
-29.725
-29.7
-29.675
-29.65
-29.625
-29.6
-29.575
-29.55
-29.525
-29.5
-29.475
-29.45
-29.425
-29.4
-29.375
-29.35
-29.325
-29.3
-29.275
-29.25
-29.225
-29.2
-29.175
-29.15
-29.125
-29.1
-29.075
-29.05
-29.025
-29
-28.975
-28.95
-28.925
-28.9
-28.875
-28.85
-28.825
-28.8
-28.775
-28.75
-28.725
-28.7
-28.675
-28.65
-28.625
-28.6
-28.575
-28.55
-28.525
-28.5
-28.475
-28.45
-28.425
-28.4
-28.375
-28.35
-28.325
-28.3
-28.275
-28.25
-28.225
-28.2
-28.175
-28.15
-28.125
-28.1
-28.075
-28.05
-28.025
-28
-27.975
-27.95
-27.925
-27.9
-27.875
-27.85
-27.825
-27.8
-27.775
-27.75
-27.725
-27.7
-27.675
-27.65
-27.625
-27.6
-27.575
-27.55
-27.525
-27.5
-27.475
-27.45
-27.425
-27.4
-27.375
-27.35
-27.325
-27.3
-27.275
-27.25
-27.225
-27.2
-27.175
-27.15
-27.125
-27.1
-27.075
-27.05
-27.025
-27
-26.975
-26.95
-26.925
-26.9
-26.875
-26.85
-26.825
-26.8
-26.775
-26.75
-26.725
-26.7
-26.675
-26.65
-26.625
-26.6
-26.575
-26.55
-26.525
-26.5
-26.475
-26.45
-26.425
-26.4
-26.375
-26.35
-26.325
-26.3
-26.275
-26.25
-26.225
-26.2
-26.175
-26.15
-26.125
-26.1
-26.075
-26.05
-26.025
-26
-25.975
-25.95
-25.925
-25.9
-25.875
-25.85
-25.825
-25.8
-25.775
-25.75
-25.725
-25.7
-25.675
-25.65
-25.625
-25.6
-25.575
-25.55
-25.525
-25.5
-25.475
-25.45
-25.425
-25.4
-25.375
-25.35
-25.325
-25.3
-25.275
-25.25
-25.225
-25.2
-25.175
-25.15
-25.125
-25.1
-25.075
-25.05
-25.025
-25
-24.975
-24.95
-24.925
-24.9
-24.875
-24.85
-24.825
-24.8
-24.775
-24.75
-24.725
-24.7
-24.675
-24.65
-24.625
-24.6
-24.575
-24.55
-24.525
-24.5
-24.475
-24.45
-24.425
-24.4
-24.375
-24.35
-24.325
-24.3
-24.275
-24.25
-24.225
-24.2
-24.175
-24.15
-24.125
-24.1
-24.075
-24.05
-24.025
-24
-23.975
-23.95
-23.925
-23.9
-23.875
-23.85
-23.825
-23.8
-23.775
-23.75
-23.725
-23.7
-23.675
-23.65
-23.625
-23.6
-23.575
-23.55
-23.525
-23.5
-23.475
-23.45
-23.425
-23.4
-23.375
-23.35
-23.325
-23.3
-23.275
-23.25
-23.225
-23.2
-23.175
-23.15
-23.125
-23.1
-23.075
-23.05
-23.025
-23
-22.975
-22.95
-22.925
-22.9
-22.875
-22.85
-22.825
-22.8
-22.775
-22.75
-22.725
-22.7
-22.675
-22.65
-22.625
-22.6
-22.575
-22.55
-22.525
-22.5
-22.475
-22.45
-22.425
-22.4
-22.375
-22.35
-22.325
-22.3
-22.275
-22.25
-22.225
-22.2
-22.175
-22.15
-22.125
-22.1
-22.075
-22.05
-22.025
-22
-21.975
-21.95
-21.925
-21.9
-21.875
-21.85
-21.825
-21.8
-21.775
-21.75
-21.725
-21.7
-21.675
-21.65
-21.625
-21.6
-21.575
-21.55
-21.525
-21.5
-21.475
-21.45
-21.425
-21.4
-21.375
-21.35
-21.325
-21.3
-21.275
-21.25
-21.225
-21.2
-21.175
-21.15
-21.125
-21.1
-21.075
-21.05
-21.025
-21
-20.975
-20.95
-20.925
-20.9
-20.875
-20.85
-20.825
-20.8
-20.775
-20.75
-20.725
-20.7
-20.675
-20.65
-20.625
-20.6
-20.575
-20.55
-20.525
-20.5
-20.475
-20.45
-20.425
-20.4
-20.375
-20.35
-20.325
-20.3
-20.275
-20.25
-20.225
-20.2
-20.175
-20.15
-20.125
-20.1
-20.075
-20.05
-20.025
-20
VAR_LIST_END
BEGIN
-14.158478,-160.64938
-14.510579,-153.29166
-14.137914,-163.23776
-14.092483,-161.50594
-14.659861,-158.02167
-16.76058,-155.90575
-13.269513,-177.70056
-14.557733,-154.54816
-13.874359,-170.12578
-14.033925,-170.3083
-12.466138,-154.17519
-13.817614,-165.11143
-12.524455,-164.42339
-13.628633,-165.17958
-14.553669,-162.9353
-12.326268,-154.3192
-14.458261,-159.43639
-13.763285,-167.8663
-14.468788,-162.08478
-13.385799,-157.59036
-14.41273,-160.46667
-13.217397,-153.2778
-12.661863,-170.12529
-16.135565,-163.573
-16.198639,-157.06557
-14.634916,-145.31404
-13.767781,-163.94228
-14.328879,-165.16727
-14.093327,-162.6684
-14.110864,-161.20488
-15.308754,-161.77872
-16.28051,-161.44179
-14.028271,-163.1283
-14.150755,-166.0148
-13.076876,-157.51785
-14.786174,-162.01974
-13.805679,-158.39661
-15.412514,-164.63321
-14.424045,-172.95366
-14.318541,-161.07014
-13.902041,-161.72806
-14.83213,-150.54492
-14.808725,-165.83817
-13.359784,-164.28169
-14.512823,-170.51616
-13.586137,-161.36539
-15.397784,-169.62048
-15.036687,-159.3047
-14.665584,-163.18652
-14.787974,-160.87053
-13.326395,-170.48032
-15.588432,-147.73622
-12.398499,-162.67307
-13.19479,-166.69893
-12.907379,-155.47571
-15.492159,-173.60416
-14.177797,-170.2084
-13.100241,-163.40758
-15.148666,-163.46587
-14.910244,-154.55403
-15.155562,-161.24419
-14.920332,-165.0247
-14.762437,-161.59702
-15.288946,-155.81152
-15.299024,-158.28709
-14.072904,-170.87839
-15.415367,-172.37973
-14.579028,-159.67023
-13.041168,-166.0417
-14.101557,-152.73912
-13.157572,-160.63901
-13.107918,-160.37886
-13.931509,-159.67122
-14.615247,-159.26913
-14.620733,-166.98314
-13.189252,-154.18057
-14.000713,-153.42584
-14.518147,-163.32756
-14.034597,-157.88487
-13.457351,-162.23396
-13.653551,-163.48752
-13.552505,-157.97281
-14.810469,-163.79198
-14.768907,-162.14874
-13.025849,-168.37053
-14.3322,-161.22054
-14.787997,-172.22333
-14.225117,-160.73032
-13.81668,-166.14679
-14.26871,-152.33937
-15.172416,-158.81831
-14.065988,-163.12117
-15.148682,-164.27045
-13.347286,-159.50893
-13.829806,-159.57819
-14.066175,-157.2428
-12.957397,-155.0204
-14.703393,-144.56168
-13.736943,-165.81985
-12.553535,-164.74211
-14.83862,-155.29176
-14.728968,-163.54405
-14.064127,-165.41446
-14.815104,-159.36983
-14.34463,-165.97325
-13.560266,-155.78746
-13.426827,-166.52074
-15.614633,-163.87442
-14.200623,-159.94995
-14.110044,-161.62492
-14.373265,-160.37259
-15.229378,-168.88548
-14.171652,-163.02766
-13.859184,-166.86317
-14.013992,-165.48973
-14.336726,-171.93835
-15.335777,-160.34598
-14.250462,-162.66458
-13.085805,-169.37999
-13.332565,-157.02156
-13.191487,-167.24539
-14.282241,-160.58992
-13.835324,-165.10533
-15.670032,-157.59908
-13.354203,-163.43503
-13.978461,-163.88861
-14.287607,-170.39786
-13.691397,-156.96497
-13.705317,-161.30013
-14.13718,-157.14116
-12.77894,-164.40814
-14.052657,-161.65773
-14.127065,-169.61578
-14.417753,-162.03487
-13.657753,-170.25021
-13.38676,-160.05598
-14.711694,-165.67622
-12.569194,-165.89905
-12.991528,-156.8828
-15.579835,-159.70837
-14.045808,-167.80002
-13.086627,-159.60022
-13.929679,-154.66151
-14.646492,-164.97861
-13.532974,-158.85193
-14.650186,-167.77057
-13.433955,-165.59872
-14.968552,-147.65968
-13.943995,-165.0372
-14.253981,-163.74825
-13.612029,-166.4388
-14.374901,-157.6581
-15.084379,-163.90283
-14.579129,-162.21657
-13.597936,-164.89999
-14.074973,-159.85019
-13.414459,-162.74112
-14.434911,-161.49203
-13.671627,-159.72003
-13.028016,-166.75122
-14.703184,-149.81003
-13.189445,-166.42058
-15.928767,-165.56139
-14.213139,-162.25496
-13.426992,-168.07712
-13.172273,-165.61778
-13.764231,-165.6882
-13.623453,-165.59767
-13.649376,-152.15883
-14.781008,-166.36205
-13.468566,-163.32222
-13.099912,-160.1931
-13.988194,-170.4136
-13.859923,-164.39323
-13.929949,-156.60822
-14.736126,-155.00981
-14.59378,-166.0743
-14.632514,-158.18025
-13.373061,-156.04582
-13.697879,-160.00146
-14.857259,-167.91281
-13.544975,-162.72667
-14.288743,-161.90736
-14.639101,-158.79355
-13.452314,-163.65489
-14.724609,-158.58754
-14.260612,-168.92249
-13.685191,-165.66266
-13.797747,-161.50543
-14.703428,-166.5999
-13.652712,-168.01361
-14.133505,-161.43275
-12.996,-159.40227
-13.009093,-156.78581
-13.578195,-163.23805
-14.07694,-163.69746
-14.028953,-171.85789
-14.05585,-166.97937
-14.296615,-159.42581
-13.122752,-165.84392
-13.325994,-173.45572
-13.858326,-166.592
-13.617182,-163.91135
-14.834894,-157.9003
-15.258723,-169.13875
-15.070417,-159.19098
-13.303555,-163.52147
-14.608125,-161.15631
-13.37603,-161.94716
-14.529197,-163.10493
-13.316602,-157.16135
-13.533003,-170.52484
-13.38488,-158.23985
-14.572622,-162.9697
-13.294776,-161.47636
-14.363672,-161.05658
-14.781203,-166.08113
-14.174965,-162.07008
-13.446193,-170.8571
-14.56705,-163.76984
-14.648933,-163.45624
-14.801819,-162.96306
-13.091308,-162.12138
-14.474709,-159.67873
-15.008834,-162.05481
-13.550782,-159.49312
-13.483807,-170.49809
-13.66276,-162.57295
-14.570443,-164.26459
-14.019301,-166.44232
-13.807497,-159.2119
-13.976886,-162.43336
-14.26572,-158.7338
-14.035123,-159.67079
-14.670598,-160.88538
-13.430406,-163.03125
-13.825029,-156.6299
-14.171109,-165.35284
-14.386338,-163.48087
-14.010055,-168.06879
-12.712568,-158.25705
-13.479461,-164.47502
-13.112564,-160.53505
-14.12971,-161.90807
-15.238136,-164.76154
-14.384933,-156.76242
-14.414446,-159.74734
-14.606671,-165.79889
-13.883009,-155.67123
-13.907821,-159.61806
-14.065533,-161.82903
-14.238865,-168.40176
-13.534665,-161.33957
-14.31564,-163.70946
-13.659215,-161.60571
-14.834933,-168.12769
-14.157821,-161.41963
-14.191068,-167.54276
-13.373532,-162.69812
-14.810182,-166.59749
-14.176328,-163.55128
-13.519232,-156.45694
-13.627904,-157.72643
-13.883033,-160.67705
-14.236071,-161.69859
-13.799314,-164.18437
-15.021682,-160.30096
-13.935548,-164.49144
-14.667665,-162.14609
-14.628349,-164.69833
-14.179854,-156.27142
-13.716885,-161.94345
-14.487369,-163.27969
-13.845394,-161.37921
-14.172657,-162.23051
-14.091568,-160.2838
-13.729575,-157.82286
-14.225631,-160.74916
-14.627378,-165.20499
-14.48745,-160.19504
-14.061299,-163.17073
-14.549326,-159.1001
-14.908602,-159.11301
-13.805399,-166.68922
-14.017007,-163.67889
-14.424003,-158.88406
-14.045175,-160.54999
-14.156219,-161.67604
-13.509671,-163.67683
-13.345028,-159.82257
-14.674618,-164.53008
-13.401361,-162.83815
-14.627633,-162.88078
-13.649768,-161.94568
-13.686989,-162.17259
-13.677894,-159.98022
-14.322029,-161.47392
-13.692487,-164.03741
-14.262196,-160.72444
-14.558285,-160.6472
-14.180091,-164.57034
-14.65177,-158.82924
-13.168423,-161.26714
-14.701987,-154.8324
-13.827958,-159.74106
-14.870605,-167.25049
-13.428314,-163.31978
-13.905083,-161.31427
-14.135653,-160.28838
-14.18393,-157.46083
-14.126373,-162.71294
-13.220876,-160.92493
-14.151169,-162.74651
-13.898081,-160.52464
-13.375082,-160.07909
-14.235506,-163.33249
-15.078699,-161.4137
-13.663968,-161.27451
-14.328007,-159.89366
-13.750466,-159.73106
-13.952028,-162.07777
-14.017932,-168.59167
-14.493844,-163.50885
-14.086633,-164.40131
-14.623926,-161.00282
-13.980012,-160.91493
-14.310698,-161.5303
-14.436188,-160.01321
-14.367709,-162.4968
-14.054997,-158.7948
-14.421791,-163.3613
-13.504333,-165.3277
-13.509652,-162.48903
-14.908886,-164.35184
-13.702253,-164.38945
-14.095438,-162.68835
-14.758086,-168.46378
-13.865808,-167.80635
-13.943554,-166.79877
-13.227867,-159.30943
-13.900761,-160.93321
-14.643848,-164.7532
-13.317026,-161.57289
-13.37951,-161.27837
-14.345849,-155.75034
-13.824219,-160.71361
-13.8179,-158.95139
-13.808196,-162.76674
-13.632791,-162.38905
-14.529189,-163.26564
-14.120535,-157.91011
-14.096018,-156.20616
-13.988441,-159.82291
-14.228431,-162.65421
-13.31694,-156.63458
-14.229286,-161.25804
-14.876398,-161.2719
-13.962206,-160.27049
-14.575745,-164.74533
-14.412679,-161.79497
-13.705282,-160.07513
-14.009644,-158.22841
-14.080841,-159.31493
-13.847427,-161.34357
-13.741019,-162.81555
-13.708405,-166.75624
-14.626715,-160.4594
-14.1023,-161.84798
-14.193137,-160.51091
-14.320522,-160.31113
-14.278905,-161.23135
-13.747889,-163.44595
-14.335005,-164.02365
-14.510475,-159.49721
-13.85974,-165.54799
-14.226257,-167.25989
-14.584042,-164.15672
-15.040719,-155.46037
-14.207919,-164.53821
-14.509871,-161.52036
-14.344456,-163.56464
-14.402505,-165.12486
-13.886565,-163.1676
-13.304304,-164.18692
-13.681831,-163.35867
-14.047244,-162.62711
-14.157928,-166.07181
-14.668808,-162.3412
-14.298081,-161.80785
-14.133927,-161.71579
-14.805574,-162.84274
-14.279744,-161.24644
-13.658778,-161.48573
-13.96306,-158.88177
-13.659945,-162.608
-13.80922,-164.95804
-14.546269,-164.18634
-14.197908,-163.1848
-14.07154,-160.46793
-13.859586,-165.76028
-14.405238,-158.93965
-13.993377,-161.9359
-14.439028,-161.74147
-13.91558,-160.65363
-14.407677,-162.68587
-14.105242,-164.07135
-14.803736,-166.2674
-13.57775,-161.81963
-14.366377,-160.31723
-14.599933,-159.24956
-14.414041,-162.15642
-14.306892,-164.03882
-13.970531,-164.59389
-13.945653,-163.52399
-14.722022,-161.25751
-14.484354,-163.25899
-13.664667,-159.18085
-13.823211,-158.5558
-13.698713,-160.4373
-13.635456,-157.24197
-14.440428,-161.14578
-14.361599,-162.65367
-13.706177,-162.30986
-14.22219,-160.67265
-13.771406,-161.08424
-14.02832,-159.97655
-14.188996,-160.18143
-14.002964,-164.39449
-13.723017,-164.48708
-14.031128,-158.79497
-14.561075,-160.27089
-14.29274,-157.1516
-14.058983,-159.41418
-14.043627,-164.67635
-13.186048,-164.29195
-13.550956,-161.85951
-14.318451,-162.30275
-14.100452,-163.57339
-14.36815,-160.71315
-13.923421,-161.29369
-14.371481,-162.37003
-14.5977,-161.97612
-13.813666,-162.76526
-14.281117,-160.99664
-14.062337,-162.59993
-14.416717,-160.51096
-14.23445,-164.3185
-13.84061,-163.13422
-14.031487,-162.70605
-14.537745,-166.81485
-14.085335,-164.07028
-13.959962,-161.21394
-14.49988,-160.72107
-14.389783,-161.24716
-13.438983,-157.92978
-14.187657,-159.37532
-14.488669,-161.86102
-13.972971,-163.4362
-14.102395,-160.43689
-13.756731,-161.62711
-14.62388,-161.51704
-14.160597,-165.7556
-14.374417,-161.48892
-14.442993,-162.15576
-13.515875,-162.918
-13.699917,-161.96936
-14.161554,-163.87659
-14.146481,-162.14027
-14.021746,-163.48164
-13.792084,-158.39142
-14.362042,-162.24678
-14.127785,-163.90923
-13.885878,-162.76567
-14.135546,-165.4848
-14.451406,-161.46768
-13.641803,-164.41451
-14.071937,-159.11989
-14.271732,-159.98888
-14.004338,-163.50005
-13.811682,-163.35831
-14.131582,-164.73016
-13.805566,-165.26608
-14.059089,-163.22522
-13.333511,-163.64374
-14.485913,-158.62029
-14.289867,-161.15953
-14.578324,-160.11299
-14.269958,-162.37744
-14.268131,-162.39116
-13.804127,-162.36317
-14.183485,-162.86766
-13.718202,-160.57184
-14.291328,-161.37543
-14.333129,-159.98517
-13.881076,-162.85683
-14.173362,-163.95377
-14.044994,-160.01801
-14.250605,-161.83673
-14.042447,-159.63297
-14.48127,-161.77226
-14.435537,-160.56619
-14.134832,-161.70911
-13.849871,-165.64694
-14.292512,-159.88684
-13.982008,-161.67783
-13.7815,-163.31633
-14.451638,-165.29411
-13.845983,-161.62759
-13.549457,-162.68835
-14.691341,-158.74953
-13.488881,-162.68527
-14.277544,-161.50943
-14.139196,-160.82961
-13.851656,-161.45808
-14.283489,-162.07605
-13.562954,-160.59082
-14.194383,-160.42017
-13.978734,-160.03673
-13.815822,-160.43663
-13.86605,-160.96671
-14.482552,-161.66045
-14.045111,-165.42068
-13.969267,-163.90121
-14.246645,-161.02921
-14.105096,-162.71809
-14.842982,-163.161
-14.653845,-165.81233
-14.291579,-160.87839
-13.795776,-161.73827
-13.73632,-162.36481
-14.37598,-162.67909
-13.783171,-162.29655
-13.680793,-162.43336
-14.539364,-164.09296
-14.339856,-164.9213
-14.193052,-162.20728
-13.71887,-161.0031
-14.073421,-162.8844
-13.78729,-160.2074
-13.862786,-162.38785
-14.150039,-160.51175
-13.92667,-162.11449
-14.12888,-163.23682
-14.061703,-163.75327
-14.334019,-163.73763
-14.217619,-159.8109
-13.849959,-162.59865
-14.071941,-163.87312
-13.930772,-160.83701
-13.998231,-163.52893
-13.756421,-162.81454
-14.027565,-160.74229
-13.741369,-163.1169
-13.941823,-163.72766
-14.131533,-160.91522
-14.01462,-162.75732
-14.371131,-161.64252
-14.369604,-163.51389
-14.377703,-162.92342
-14.177781,-164.71474
-13.803202,-162.3665
-13.972327,-161.66655
-14.208549,-161.81393
-14.064252,-164.62733
-13.716027,-162.64789
-14.060709,-162.71083
-13.888237,-162.22607
-14.173915,-164.69066
-14.13196,-163.70833
-13.964545,-163.83836
-14.050404,-165.18779
-14.050228,-161.31416
-14.158422,-161.93571
-14.000609,-161.21094
-13.989054,-160.48132
-13.770356,-161.549
