CITIFILE A.01.01
!Agilent Technologies,N5230C,MY48100142,A.08.04.10
!Agilent N5230C: A.08.04.10
!Format: LogMag/Angle
!Date: Friday, September 11, 2020 13:10:10
NAME CH1_DATA
VAR Power MAG 801
DATA S11 DBANGLE
DATA S21 DBANGLE
DATA S12 DBANGLE
DATA S22 DBANGLE
VAR_LIST_BEGIN
-40
-39.975
-39.95
-39.925
-39.9
-39.875
-39.85
-39.825
-39.8
-39.775
-39.75
-39.725
-39.7
-39.675
-39.65
-39.625
-39.6
-39.575
-39.55
-39.525
-39.5
-39.475
-39.45
-39.425
-39.4
-39.375
-39.35
-39.325
-39.3
-39.275
-39.25
-39.225
-39.2
-39.175
-39.15
-39.125
-39.1
-39.075
-39.05
-39.025
-39
-38.975
-38.95
-38.925
-38.9
-38.875
-38.85
-38.825
-38.8
-38.775
-38.75
-38.725
-38.7
-38.675
-38.65
-38.625
-38.6
-38.575
-38.55
-38.525
-38.5
-38.475
-38.45
-38.425
-38.4
-38.375
-38.35
-38.325
-38.3
-38.275
-38.25
-38.225
-38.2
-38.175
-38.15
-38.125
-38.1
-38.075
-38.05
-38.025
-38
-37.975
-37.95
-37.925
-37.9
-37.875
-37.85
-37.825
-37.8
-37.775
-37.75
-37.725
-37.7
-37.675
-37.65
-37.625
-37.6
-37.575
-37.55
-37.525
-37.5
-37.475
-37.45
-37.425
-37.4
-37.375
-37.35
-37.325
-37.3
-37.275
-37.25
-37.225
-37.2
-37.175
-37.15
-37.125
-37.1
-37.075
-37.05
-37.025
-37
-36.975
-36.95
-36.925
-36.9
-36.875
-36.85
-36.825
-36.8
-36.775
-36.75
-36.725
-36.7
-36.675
-36.65
-36.625
-36.6
-36.575
-36.55
-36.525
-36.5
-36.475
-36.45
-36.425
-36.4
-36.375
-36.35
-36.325
-36.3
-36.275
-36.25
-36.225
-36.2
-36.175
-36.15
-36.125
-36.1
-36.075
-36.05
-36.025
-36
-35.975
-35.95
-35.925
-35.9
-35.875
-35.85
-35.825
-35.8
-35.775
-35.75
-35.725
-35.7
-35.675
-35.65
-35.625
-35.6
-35.575
-35.55
-35.525
-35.5
-35.475
-35.45
-35.425
-35.4
-35.375
-35.35
-35.325
-35.3
-35.275
-35.25
-35.225
-35.2
-35.175
-35.15
-35.125
-35.1
-35.075
-35.05
-35.025
-35
-34.975
-34.95
-34.925
-34.9
-34.875
-34.85
-34.825
-34.8
-34.775
-34.75
-34.725
-34.7
-34.675
-34.65
-34.625
-34.6
-34.575
-34.55
-34.525
-34.5
-34.475
-34.45
-34.425
-34.4
-34.375
-34.35
-34.325
-34.3
-34.275
-34.25
-34.225
-34.2
-34.175
-34.15
-34.125
-34.1
-34.075
-34.05
-34.025
-34
-33.975
-33.95
-33.925
-33.9
-33.875
-33.85
-33.825
-33.8
-33.775
-33.75
-33.725
-33.7
-33.675
-33.65
-33.625
-33.6
-33.575
-33.55
-33.525
-33.5
-33.475
-33.45
-33.425
-33.4
-33.375
-33.35
-33.325
-33.3
-33.275
-33.25
-33.225
-33.2
-33.175
-33.15
-33.125
-33.1
-33.075
-33.05
-33.025
-33
-32.975
-32.95
-32.925
-32.9
-32.875
-32.85
-32.825
-32.8
-32.775
-32.75
-32.725
-32.7
-32.675
-32.65
-32.625
-32.6
-32.575
-32.55
-32.525
-32.5
-32.475
-32.45
-32.425
-32.4
-32.375
-32.35
-32.325
-32.3
-32.275
-32.25
-32.225
-32.2
-32.175
-32.15
-32.125
-32.1
-32.075
-32.05
-32.025
-32
-31.975
-31.95
-31.925
-31.9
-31.875
-31.85
-31.825
-31.8
-31.775
-31.75
-31.725
-31.7
-31.675
-31.65
-31.625
-31.6
-31.575
-31.55
-31.525
-31.5
-31.475
-31.45
-31.425
-31.4
-31.375
-31.35
-31.325
-31.3
-31.275
-31.25
-31.225
-31.2
-31.175
-31.15
-31.125
-31.1
-31.075
-31.05
-31.025
-31
-30.975
-30.95
-30.925
-30.9
-30.875
-30.85
-30.825
-30.8
-30.775
-30.75
-30.725
-30.7
-30.675
-30.65
-30.625
-30.6
-30.575
-30.55
-30.525
-30.5
-30.475
-30.45
-30.425
-30.4
-30.375
-30.35
-30.325
-30.3
-30.275
-30.25
-30.225
-30.2
-30.175
-30.15
-30.125
-30.1
-30.075
-30.05
-30.025
-30
-29.975
-29.95
-29.925
-29.9
-29.875
-29.85
-29.825
-29.8
-29.775
-29.75
-29.725
-29.7
-29.675
-29.65
-29.625
-29.6
-29.575
-29.55
-29.525
-29.5
-29.475
-29.45
-29.425
-29.4
-29.375
-29.35
-29.325
-29.3
-29.275
-29.25
-29.225
-29.2
-29.175
-29.15
-29.125
-29.1
-29.075
-29.05
-29.025
-29
-28.975
-28.95
-28.925
-28.9
-28.875
-28.85
-28.825
-28.8
-28.775
-28.75
-28.725
-28.7
-28.675
-28.65
-28.625
-28.6
-28.575
-28.55
-28.525
-28.5
-28.475
-28.45
-28.425
-28.4
-28.375
-28.35
-28.325
-28.3
-28.275
-28.25
-28.225
-28.2
-28.175
-28.15
-28.125
-28.1
-28.075
-28.05
-28.025
-28
-27.975
-27.95
-27.925
-27.9
-27.875
-27.85
-27.825
-27.8
-27.775
-27.75
-27.725
-27.7
-27.675
-27.65
-27.625
-27.6
-27.575
-27.55
-27.525
-27.5
-27.475
-27.45
-27.425
-27.4
-27.375
-27.35
-27.325
-27.3
-27.275
-27.25
-27.225
-27.2
-27.175
-27.15
-27.125
-27.1
-27.075
-27.05
-27.025
-27
-26.975
-26.95
-26.925
-26.9
-26.875
-26.85
-26.825
-26.8
-26.775
-26.75
-26.725
-26.7
-26.675
-26.65
-26.625
-26.6
-26.575
-26.55
-26.525
-26.5
-26.475
-26.45
-26.425
-26.4
-26.375
-26.35
-26.325
-26.3
-26.275
-26.25
-26.225
-26.2
-26.175
-26.15
-26.125
-26.1
-26.075
-26.05
-26.025
-26
-25.975
-25.95
-25.925
-25.9
-25.875
-25.85
-25.825
-25.8
-25.775
-25.75
-25.725
-25.7
-25.675
-25.65
-25.625
-25.6
-25.575
-25.55
-25.525
-25.5
-25.475
-25.45
-25.425
-25.4
-25.375
-25.35
-25.325
-25.3
-25.275
-25.25
-25.225
-25.2
-25.175
-25.15
-25.125
-25.1
-25.075
-25.05
-25.025
-25
-24.975
-24.95
-24.925
-24.9
-24.875
-24.85
-24.825
-24.8
-24.775
-24.75
-24.725
-24.7
-24.675
-24.65
-24.625
-24.6
-24.575
-24.55
-24.525
-24.5
-24.475
-24.45
-24.425
-24.4
-24.375
-24.35
-24.325
-24.3
-24.275
-24.25
-24.225
-24.2
-24.175
-24.15
-24.125
-24.1
-24.075
-24.05
-24.025
-24
-23.975
-23.95
-23.925
-23.9
-23.875
-23.85
-23.825
-23.8
-23.775
-23.75
-23.725
-23.7
-23.675
-23.65
-23.625
-23.6
-23.575
-23.55
-23.525
-23.5
-23.475
-23.45
-23.425
-23.4
-23.375
-23.35
-23.325
-23.3
-23.275
-23.25
-23.225
-23.2
-23.175
-23.15
-23.125
-23.1
-23.075
-23.05
-23.025
-23
-22.975
-22.95
-22.925
-22.9
-22.875
-22.85
-22.825
-22.8
-22.775
-22.75
-22.725
-22.7
-22.675
-22.65
-22.625
-22.6
-22.575
-22.55
-22.525
-22.5
-22.475
-22.45
-22.425
-22.4
-22.375
-22.35
-22.325
-22.3
-22.275
-22.25
-22.225
-22.2
-22.175
-22.15
-22.125
-22.1
-22.075
-22.05
-22.025
-22
-21.975
-21.95
-21.925
-21.9
-21.875
-21.85
-21.825
-21.8
-21.775
-21.75
-21.725
-21.7
-21.675
-21.65
-21.625
-21.6
-21.575
-21.55
-21.525
-21.5
-21.475
-21.45
-21.425
-21.4
-21.375
-21.35
-21.325
-21.3
-21.275
-21.25
-21.225
-21.2
-21.175
-21.15
-21.125
-21.1
-21.075
-21.05
-21.025
-21
-20.975
-20.95
-20.925
-20.9
-20.875
-20.85
-20.825
-20.8
-20.775
-20.75
-20.725
-20.7
-20.675
-20.65
-20.625
-20.6
-20.575
-20.55
-20.525
-20.5
-20.475
-20.45
-20.425
-20.4
-20.375
-20.35
-20.325
-20.3
-20.275
-20.25
-20.225
-20.2
-20.175
-20.15
-20.125
-20.1
-20.075
-20.05
-20.025
-20
VAR_LIST_END
BEGIN
-14.516582,-149.98596
-16.019426,-163.8042
-14.758852,-156.32732
-13.718465,-157.78615
-14.743043,-158.63989
-14.396277,-171.21881
-14.319773,-152.42793
-14.9282,-160.52142
-16.30015,-165.34387
-15.131888,-162.92773
-14.231384,-161.71989
-14.88464,-160.46089
-14.826233,-153.26009
-13.409238,-167.72394
-15.085775,-158.54416
-13.585136,-161.77946
-15.551661,-162.5602
-16.279793,-152.16405
-14.815447,-167.16684
-14.262452,-159.8665
-14.472694,-163.57246
-14.677304,-167.03056
-14.635295,-167.55823
-13.706646,-161.59093
-15.05082,-156.13112
-15.949172,-162.66133
-14.844123,-153.30109
-16.23596,-170.08447
-14.584615,-151.64961
-15.742162,-161.32088
-15.35883,-163.37111
-13.649873,-168.60117
-15.338333,-166.06956
-14.201945,-155.2946
-15.668672,-156.26947
-14.260048,-168.28452
-14.032772,-157.23004
-13.930566,-158.4593
-13.753393,-159.89212
-13.665033,-154.89311
-14.964208,-156.12724
-16.09293,-165.38484
-15.007991,-161.14949
-16.282938,-155.28798
-17.011892,-156.24654
-14.53573,-163.3624
-13.961672,-154.46777
-15.289022,-158.74666
-15.690153,-159.9091
-15.164284,-156.78247
-13.886202,-163.96445
-16.356398,-165.97253
-14.914427,-158.56575
-16.323969,-160.54385
-15.007665,-157.64021
-15.582854,-156.49608
-14.37951,-160.42607
-14.615191,-151.27211
-13.728785,-158.82431
-15.215202,-157.40936
-16.575808,-163.73917
-15.444209,-156.2625
-15.762722,-156.30092
-14.836848,-162.78075
-15.626541,-158.62265
-15.704377,-160.69783
-15.627192,-159.22778
-14.923765,-161.66211
-15.220658,-155.28271
-15.034899,-158.50719
-16.347397,-166.52664
-14.903554,-156.67746
-15.349994,-161.57216
-15.294083,-163.97491
-15.705608,-166.33316
-14.921457,-157.41566
-15.377892,-153.01433
-15.183522,-157.25626
-14.513994,-163.70534
-15.680775,-162.78387
-14.315536,-169.38527
-15.913445,-153.79066
-15.774845,-165.40977
-15.943451,-159.36938
-15.270867,-156.69214
-15.42592,-169.57549
-14.207713,-161.75311
-14.5629,-159.63326
-14.815061,-158.62059
-15.597375,-156.94366
-15.521969,-154.80809
-15.664362,-158.96312
-14.188644,-160.65173
-15.251111,-155.26898
-14.715772,-157.95869
-15.41365,-154.90182
-14.20407,-162.59752
-14.346746,-162.33247
-15.288218,-160.356
-15.07678,-159.81462
-14.140614,-160.80408
-15.955082,-155.35741
-15.373745,-157.24698
-14.756811,-163.84462
-14.571727,-157.99054
-14.953506,-161.52609
-14.770417,-168.38231
-15.2707,-161.4608
-14.549999,-163.2352
-15.746995,-166.14429
-14.345682,-162.78223
-15.194388,-162.89992
-15.648888,-151.55731
-15.907475,-162.05203
-14.004814,-150.4277
-15.397534,-160.62354
-15.684846,-159.89212
-14.830462,-160.54092
-15.113259,-165.60533
-15.372337,-161.45543
-15.02048,-161.48009
-14.779993,-162.04547
-15.525132,-162.59062
-15.442572,-157.91508
-15.262505,-162.4274
-15.891757,-157.29857
-14.988555,-152.9836
-14.340765,-162.36462
-14.78165,-155.72821
-14.603747,-161.87637
-14.793283,-158.5407
-14.373576,-163.089
-14.986687,-158.49083
-14.592906,-153.11586
-14.71265,-159.73518
-15.389924,-159.29301
-14.809503,-169.28384
-15.147053,-166.14653
-13.692722,-159.84592
-14.632937,-158.78166
-15.421677,-157.81892
-15.324191,-163.71587
-15.797092,-155.72717
-14.644653,-157.78908
-15.763851,-160.89996
-15.595942,-166.49408
-15.577407,-162.50172
-15.161349,-165.42931
-14.963345,-157.1071
-15.283129,-165.47296
-14.94918,-161.75774
-16.202122,-155.65445
-14.665252,-166.89716
-14.208119,-161.4478
-14.946558,-159.86514
-15.853316,-157.50928
-14.585293,-157.681
-14.099178,-162.81139
-14.645063,-156.96875
-14.824088,-156.81982
-15.222478,-160.5052
-14.691299,-162.69838
-15.498677,-165.71863
-14.492527,-154.9213
-16.014717,-159.12828
-15.057599,-156.24648
-15.284321,-163.78317
-14.738391,-160.41554
-15.598684,-161.24406
-15.355285,-159.87511
-14.802103,-162.40137
-15.590053,-159.54871
-14.96652,-156.42815
-15.95204,-162.23975
-15.158149,-163.52541
-14.270594,-162.79463
-14.989815,-155.28136
-15.192263,-159.80017
-15.598547,-162.81117
-14.026806,-153.96144
-14.303045,-160.91512
-14.845609,-161.28726
-15.81663,-159.08972
-14.417603,-157.68851
-14.648829,-168.69434
-14.636119,-157.69159
-14.822858,-153.15077
-16.334074,-159.45705
-14.877405,-160.55733
-14.7442,-161.09337
-15.237288,-164.41232
-15.440418,-161.28958
-14.275134,-160.85898
-15.149414,-156.60957
-15.302615,-155.49777
-14.472954,-155.69748
-16.171846,-162.77205
-14.823205,-163.46947
-14.415783,-160.55113
-14.901467,-158.49231
-15.411431,-167.30928
-15.331204,-155.83464
-15.453136,-160.6179
-15.418024,-157.21091
-14.379257,-157.89482
-15.68128,-162.80457
-14.769983,-154.42737
-15.844501,-156.60506
-15.120016,-157.21062
-15.280085,-159.21149
-15.133037,-159.15607
-15.348103,-162.08261
-15.113406,-164.83453
-15.102023,-164.66983
-15.157419,-157.63869
-14.977284,-157.43076
-14.630547,-159.54884
-15.692496,-160.46181
-15.437882,-161.88399
-14.950342,-161.33304
-14.721249,-156.32487
-14.320932,-158.31688
-15.261003,-161.65892
-14.462297,-161.17445
-14.722563,-160.9873
-15.802685,-157.23605
-15.307637,-157.30418
-14.476203,-163.11954
-14.208817,-159.39346
-14.6083,-164.97342
-15.312132,-160.93053
-15.19452,-158.97571
-15.020272,-159.38994
-15.362303,-160.59612
-14.395748,-159.41936
-14.143844,-158.7002
-15.8196,-160.14632
-15.175095,-160.1993
-15.938035,-161.57425
-15.145129,-163.70657
-15.149781,-165.83675
-14.745207,-163.52716
-14.567147,-160.73488
-15.321324,-160.91264
-15.507692,-163.14005
-14.919183,-159.16547
-15.529778,-159.79439
-15.049737,-163.6465
-14.818922,-158.31979
-15.073315,-157.23256
-15.133025,-164.12032
-14.437318,-158.26208
-15.238128,-163.16063
-14.975929,-163.64903
-14.775343,-162.9949
-15.322618,-158.17725
-15.126337,-157.53654
-14.917525,-156.07475
-15.152684,-161.93259
-15.607168,-159.38141
-14.853464,-154.22864
-14.965228,-158.93713
-15.028126,-158.3053
-14.301762,-162.79462
-14.975903,-160.63881
-15.783955,-162.14993
-14.871758,-158.98593
-15.023355,-161.98572
-14.631345,-157.34578
-14.632729,-162.48473
-15.15755,-161.8139
-14.44493,-158.89116
-15.104416,-157.93448
-15.086589,-156.85722
-15.334542,-159.08208
-15.036879,-155.74603
-15.333705,-154.68332
-15.645873,-157.78758
-14.881768,-157.23828
-15.570784,-158.91811
-15.145715,-160.57578
-14.82028,-157.50056
-15.306515,-163.92085
-14.737359,-158.69408
-15.477819,-159.6243
-15.376633,-164.6272
-14.597322,-157.05785
-15.347404,-158.90662
-15.236027,-164.1667
-14.817545,-162.50937
-15.638704,-159.79065
-14.856725,-160.94064
-14.76331,-157.81332
-14.841961,-158.01733
-15.09306,-163.35796
-14.843655,-157.96703
-15.646501,-162.47398
-14.775583,-157.72234
-15.097199,-160.03596
-14.915807,-160.01848
-14.953777,-160.23387
-14.692137,-157.67009
-14.946073,-160.18631
-14.649078,-159.13197
-15.276279,-162.07863
-14.682046,-160.87753
-15.366531,-156.93611
-14.814175,-160.04309
-14.99588,-153.49513
-15.242048,-159.20227
-14.706926,-150.37175
-15.748968,-157.94855
-15.088225,-161.86534
-15.032287,-157.64653
-14.906335,-165.02008
-14.895268,-158.81996
-15.221499,-162.24681
-15.576959,-157.98372
-15.140734,-160.70168
-15.440608,-164.24113
-15.38772,-160.09074
-15.521719,-161.25278
-15.412969,-164.28841
-15.388328,-155.1288
-15.175707,-159.60594
-15.820995,-160.94493
-14.308309,-158.06703
-14.824637,-158.53645
-15.1612,-160.42603
-15.386002,-159.5945
-14.863721,-158.2933
-15.394579,-159.73622
-15.218245,-161.51404
-15.515205,-160.00195
-15.168777,-162.70805
-14.748575,-163.18935
-15.896096,-158.69495
-14.569811,-162.10146
-14.803632,-160.21236
-14.9025,-162.5345
-14.785723,-159.56094
-14.759171,-160.31195
-15.140978,-159.75522
-15.089174,-161.48734
-14.478132,-162.34715
-14.876906,-157.29065
-15.07339,-158.30072
-15.231205,-160.25029
-14.708887,-159.40054
-14.774953,-160.23091
-14.753482,-159.50565
-14.553546,-162.90245
-15.263456,-160.27118
-14.851786,-157.63095
-14.870054,-161.0209
-14.669825,-163.53723
-15.106418,-155.79202
-15.133602,-157.3578
-14.592828,-162.13849
-14.679542,-158.69182
-15.41882,-158.92523
-15.278021,-165.17561
-14.565678,-159.80737
-15.166345,-162.71275
-14.712564,-159.2972
-14.951293,-164.68442
-15.016477,-163.14236
-14.889825,-158.72768
-15.50376,-160.46315
-15.150955,-159.09814
-14.779965,-157.19476
-15.146826,-157.6922
-15.182606,-158.45761
-14.740533,-161.75031
-14.935008,-158.90956
-14.992235,-158.79788
-14.482903,-159.19829
-15.338985,-155.9926
-14.881531,-159.73946
-14.649609,-160.84631
-15.591971,-158.74374
-14.875212,-160.17664
-14.972952,-156.7699
-15.079947,-154.30299
-14.838673,-163.11394
-14.978673,-159.04935
-14.792101,-157.66315
-14.825466,-158.10283
-14.862618,-159.71066
-15.112464,-160.03622
-14.336892,-161.62962
-15.085721,-161.86565
-14.762252,-156.19434
-14.914084,-159.80327
-15.013294,-157.82921
-15.675885,-164.44984
-15.437889,-160.53355
-15.025896,-158.37132
-15.025305,-158.41498
-15.229253,-155.06667
-15.348134,-159.24994
-15.129733,-159.83316
-15.413039,-160.23839
-15.077229,-158.37579
-15.133155,-161.76573
-14.954748,-160.71201
-15.276129,-159.78589
-15.339154,-160.54153
-15.107343,-158.9503
-15.156313,-160.48621
-15.183944,-159.88034
-15.005377,-160.81783
-15.015119,-161.56676
-14.898946,-161.27649
-15.547812,-159.14154
-15.635739,-161.75073
-14.924832,-161.61569
-14.976091,-158.4502
-15.073528,-161.32635
-15.651917,-158.24908
-15.548047,-160.0116
-15.242219,-160.86432
-14.962376,-157.67998
-15.248184,-158.11285
-14.932073,-162.29185
-14.968755,-162.35027
-15.679396,-159.9064
-15.310382,-161.43628
-14.849553,-161.90839
-15.006552,-163.00504
-14.503055,-159.43996
-14.737431,-162.70897
-15.131156,-160.86499
-14.818653,-159.31737
-14.734518,-160.89374
-14.958739,-160.98651
-14.709933,-162.78906
-15.418262,-161.69283
-14.9043,-163.53624
-15.243617,-165.36575
-14.957138,-161.29678
-15.216833,-161.26511
-15.156925,-159.90028
-15.117268,-159.42664
-14.979946,-162.68616
-15.150258,-159.91725
-15.336181,-160.78432
-14.999584,-162.32524
-14.447221,-159.54167
-15.385307,-160.58029
-15.149067,-160.51889
-15.318301,-159.86806
-15.366709,-160.87537
-15.006529,-159.54379
-15.080967,-160.14619
-14.958104,-158.88452
-15.254089,-162.88107
-15.189688,-162.11929
-15.123316,-160.28404
-14.999748,-160.68414
-14.916975,-159.73994
-15.213039,-161.20316
-14.846914,-160.62531
-15.066539,-161.47517
-15.046701,-158.0636
-15.140474,-160.68745
-15.379224,-156.64626
-15.179667,-158.3983
-15.278847,-156.40527
-15.048767,-162.58118
-14.8751,-158.67804
-14.913994,-162.31717
-14.963385,-159.09161
-15.22156,-159.12465
-14.419646,-160.4532
-15.283585,-159.6642
-15.2578,-158.71921
-14.87765,-161.90849
-14.926553,-161.01656
-14.748345,-159.25522
-14.677195,-162.90671
-15.136879,-161.86996
-15.045949,-162.72438
-15.052018,-158.44247
-15.053175,-161.98676
-15.285995,-161.498
-14.663222,-160.92387
-14.995745,-162.11162
-15.332042,-159.14742
-15.079448,-161.07799
-15.225436,-158.71838
-14.944613,-159.42776
-15.354218,-157.62935
-14.675486,-159.46828
-14.933543,-158.57678
-14.98344,-162.1183
-15.1862,-160.70161
-15.157721,-156.72235
-15.18397,-157.75653
-15.098615,-161.53722
-14.80943,-158.52763
-14.93408,-158.90619
-14.946383,-158.56612
-14.861138,-163.32996
-15.327913,-162.34305
-15.016198,-161.19455
-14.95396,-159.04506
-14.931453,-161.46625
-14.939174,-162.91081
-14.89108,-160.21297
-14.778955,-160.89157
-15.154007,-158.04749
-15.80071,-156.72272
-15.120448,-162.28841
-15.338353,-160.62225
-15.452297,-160.37448
-14.976955,-163.0481
-14.682013,-161.5867
-15.221223,-158.52063
-14.798925,-160.16148
-15.10244,-161.82317
-14.715729,-160.38658
-15.178516,-160.32506
-14.846766,-160.3968
-15.364965,-156.94089
-15.094662,-160.84486
-15.364884,-160.48756
-15.076598,-158.28612
-15.31094,-160.64484
-14.781291,-162.28815
-15.124264,-160.92183
-14.83,-161.03763
-15.156744,-160.489
-15.202422,-161.14775
-15.191117,-160.06036
-14.827808,-157.64796
-15.013207,-158.60881
-15.104043,-161.00816
-15.442475,-163.34442
-15.212231,-159.83488
-14.971083,-158.46637
-14.887595,-157.27939
-15.08163,-160.38332
-15.039615,-159.82503
-14.578836,-161.67148
-15.064885,-159.83061
-15.338675,-159.8728
-15.141845,-160.08768
-15.347649,-157.85179
-14.819846,-158.4001
-15.312578,-164.28702
-15.425984,-158.50375
-15.031306,-158.73323
-15.157219,-161.45058
-14.956481,-159.04199
-15.000289,-159.95702
-14.86096,-160.35591
-14.927687,-160.0743
-14.738272,-160.41489
-14.946061,-158.85706
-15.245583,-160.03439
-15.31179,-160.96404
-15.246171,-160.63306
-14.985118,-159.29869
-15.045549,-160.51529
-15.148896,-158.92409
-14.79971,-159.49776
-15.090282,-157.76768
-15.254869,-160.66998
-15.348641,-160.04112
-15.581255,-160.14284
-14.980088,-157.17889
-15.116224,-160.82339
-15.156609,-159.63083
-14.89608,-161.17395
-14.991764,-159.61282
