CITIFILE A.01.01
!Agilent Technologies,N5230C,MY48100142,A.08.04.10
!Agilent N5230C: A.08.04.10
!Format: LogMag/Angle
!Date: Wednesday, September 16, 2020 12:19:49
NAME CH1_DATA
VAR Power MAG 801
DATA S11 DBANGLE
DATA S21 DBANGLE
DATA S12 DBANGLE
DATA S22 DBANGLE
VAR_LIST_BEGIN
-40
-39.975
-39.95
-39.925
-39.9
-39.875
-39.85
-39.825
-39.8
-39.775
-39.75
-39.725
-39.7
-39.675
-39.65
-39.625
-39.6
-39.575
-39.55
-39.525
-39.5
-39.475
-39.45
-39.425
-39.4
-39.375
-39.35
-39.325
-39.3
-39.275
-39.25
-39.225
-39.2
-39.175
-39.15
-39.125
-39.1
-39.075
-39.05
-39.025
-39
-38.975
-38.95
-38.925
-38.9
-38.875
-38.85
-38.825
-38.8
-38.775
-38.75
-38.725
-38.7
-38.675
-38.65
-38.625
-38.6
-38.575
-38.55
-38.525
-38.5
-38.475
-38.45
-38.425
-38.4
-38.375
-38.35
-38.325
-38.3
-38.275
-38.25
-38.225
-38.2
-38.175
-38.15
-38.125
-38.1
-38.075
-38.05
-38.025
-38
-37.975
-37.95
-37.925
-37.9
-37.875
-37.85
-37.825
-37.8
-37.775
-37.75
-37.725
-37.7
-37.675
-37.65
-37.625
-37.6
-37.575
-37.55
-37.525
-37.5
-37.475
-37.45
-37.425
-37.4
-37.375
-37.35
-37.325
-37.3
-37.275
-37.25
-37.225
-37.2
-37.175
-37.15
-37.125
-37.1
-37.075
-37.05
-37.025
-37
-36.975
-36.95
-36.925
-36.9
-36.875
-36.85
-36.825
-36.8
-36.775
-36.75
-36.725
-36.7
-36.675
-36.65
-36.625
-36.6
-36.575
-36.55
-36.525
-36.5
-36.475
-36.45
-36.425
-36.4
-36.375
-36.35
-36.325
-36.3
-36.275
-36.25
-36.225
-36.2
-36.175
-36.15
-36.125
-36.1
-36.075
-36.05
-36.025
-36
-35.975
-35.95
-35.925
-35.9
-35.875
-35.85
-35.825
-35.8
-35.775
-35.75
-35.725
-35.7
-35.675
-35.65
-35.625
-35.6
-35.575
-35.55
-35.525
-35.5
-35.475
-35.45
-35.425
-35.4
-35.375
-35.35
-35.325
-35.3
-35.275
-35.25
-35.225
-35.2
-35.175
-35.15
-35.125
-35.1
-35.075
-35.05
-35.025
-35
-34.975
-34.95
-34.925
-34.9
-34.875
-34.85
-34.825
-34.8
-34.775
-34.75
-34.725
-34.7
-34.675
-34.65
-34.625
-34.6
-34.575
-34.55
-34.525
-34.5
-34.475
-34.45
-34.425
-34.4
-34.375
-34.35
-34.325
-34.3
-34.275
-34.25
-34.225
-34.2
-34.175
-34.15
-34.125
-34.1
-34.075
-34.05
-34.025
-34
-33.975
-33.95
-33.925
-33.9
-33.875
-33.85
-33.825
-33.8
-33.775
-33.75
-33.725
-33.7
-33.675
-33.65
-33.625
-33.6
-33.575
-33.55
-33.525
-33.5
-33.475
-33.45
-33.425
-33.4
-33.375
-33.35
-33.325
-33.3
-33.275
-33.25
-33.225
-33.2
-33.175
-33.15
-33.125
-33.1
-33.075
-33.05
-33.025
-33
-32.975
-32.95
-32.925
-32.9
-32.875
-32.85
-32.825
-32.8
-32.775
-32.75
-32.725
-32.7
-32.675
-32.65
-32.625
-32.6
-32.575
-32.55
-32.525
-32.5
-32.475
-32.45
-32.425
-32.4
-32.375
-32.35
-32.325
-32.3
-32.275
-32.25
-32.225
-32.2
-32.175
-32.15
-32.125
-32.1
-32.075
-32.05
-32.025
-32
-31.975
-31.95
-31.925
-31.9
-31.875
-31.85
-31.825
-31.8
-31.775
-31.75
-31.725
-31.7
-31.675
-31.65
-31.625
-31.6
-31.575
-31.55
-31.525
-31.5
-31.475
-31.45
-31.425
-31.4
-31.375
-31.35
-31.325
-31.3
-31.275
-31.25
-31.225
-31.2
-31.175
-31.15
-31.125
-31.1
-31.075
-31.05
-31.025
-31
-30.975
-30.95
-30.925
-30.9
-30.875
-30.85
-30.825
-30.8
-30.775
-30.75
-30.725
-30.7
-30.675
-30.65
-30.625
-30.6
-30.575
-30.55
-30.525
-30.5
-30.475
-30.45
-30.425
-30.4
-30.375
-30.35
-30.325
-30.3
-30.275
-30.25
-30.225
-30.2
-30.175
-30.15
-30.125
-30.1
-30.075
-30.05
-30.025
-30
-29.975
-29.95
-29.925
-29.9
-29.875
-29.85
-29.825
-29.8
-29.775
-29.75
-29.725
-29.7
-29.675
-29.65
-29.625
-29.6
-29.575
-29.55
-29.525
-29.5
-29.475
-29.45
-29.425
-29.4
-29.375
-29.35
-29.325
-29.3
-29.275
-29.25
-29.225
-29.2
-29.175
-29.15
-29.125
-29.1
-29.075
-29.05
-29.025
-29
-28.975
-28.95
-28.925
-28.9
-28.875
-28.85
-28.825
-28.8
-28.775
-28.75
-28.725
-28.7
-28.675
-28.65
-28.625
-28.6
-28.575
-28.55
-28.525
-28.5
-28.475
-28.45
-28.425
-28.4
-28.375
-28.35
-28.325
-28.3
-28.275
-28.25
-28.225
-28.2
-28.175
-28.15
-28.125
-28.1
-28.075
-28.05
-28.025
-28
-27.975
-27.95
-27.925
-27.9
-27.875
-27.85
-27.825
-27.8
-27.775
-27.75
-27.725
-27.7
-27.675
-27.65
-27.625
-27.6
-27.575
-27.55
-27.525
-27.5
-27.475
-27.45
-27.425
-27.4
-27.375
-27.35
-27.325
-27.3
-27.275
-27.25
-27.225
-27.2
-27.175
-27.15
-27.125
-27.1
-27.075
-27.05
-27.025
-27
-26.975
-26.95
-26.925
-26.9
-26.875
-26.85
-26.825
-26.8
-26.775
-26.75
-26.725
-26.7
-26.675
-26.65
-26.625
-26.6
-26.575
-26.55
-26.525
-26.5
-26.475
-26.45
-26.425
-26.4
-26.375
-26.35
-26.325
-26.3
-26.275
-26.25
-26.225
-26.2
-26.175
-26.15
-26.125
-26.1
-26.075
-26.05
-26.025
-26
-25.975
-25.95
-25.925
-25.9
-25.875
-25.85
-25.825
-25.8
-25.775
-25.75
-25.725
-25.7
-25.675
-25.65
-25.625
-25.6
-25.575
-25.55
-25.525
-25.5
-25.475
-25.45
-25.425
-25.4
-25.375
-25.35
-25.325
-25.3
-25.275
-25.25
-25.225
-25.2
-25.175
-25.15
-25.125
-25.1
-25.075
-25.05
-25.025
-25
-24.975
-24.95
-24.925
-24.9
-24.875
-24.85
-24.825
-24.8
-24.775
-24.75
-24.725
-24.7
-24.675
-24.65
-24.625
-24.6
-24.575
-24.55
-24.525
-24.5
-24.475
-24.45
-24.425
-24.4
-24.375
-24.35
-24.325
-24.3
-24.275
-24.25
-24.225
-24.2
-24.175
-24.15
-24.125
-24.1
-24.075
-24.05
-24.025
-24
-23.975
-23.95
-23.925
-23.9
-23.875
-23.85
-23.825
-23.8
-23.775
-23.75
-23.725
-23.7
-23.675
-23.65
-23.625
-23.6
-23.575
-23.55
-23.525
-23.5
-23.475
-23.45
-23.425
-23.4
-23.375
-23.35
-23.325
-23.3
-23.275
-23.25
-23.225
-23.2
-23.175
-23.15
-23.125
-23.1
-23.075
-23.05
-23.025
-23
-22.975
-22.95
-22.925
-22.9
-22.875
-22.85
-22.825
-22.8
-22.775
-22.75
-22.725
-22.7
-22.675
-22.65
-22.625
-22.6
-22.575
-22.55
-22.525
-22.5
-22.475
-22.45
-22.425
-22.4
-22.375
-22.35
-22.325
-22.3
-22.275
-22.25
-22.225
-22.2
-22.175
-22.15
-22.125
-22.1
-22.075
-22.05
-22.025
-22
-21.975
-21.95
-21.925
-21.9
-21.875
-21.85
-21.825
-21.8
-21.775
-21.75
-21.725
-21.7
-21.675
-21.65
-21.625
-21.6
-21.575
-21.55
-21.525
-21.5
-21.475
-21.45
-21.425
-21.4
-21.375
-21.35
-21.325
-21.3
-21.275
-21.25
-21.225
-21.2
-21.175
-21.15
-21.125
-21.1
-21.075
-21.05
-21.025
-21
-20.975
-20.95
-20.925
-20.9
-20.875
-20.85
-20.825
-20.8
-20.775
-20.75
-20.725
-20.7
-20.675
-20.65
-20.625
-20.6
-20.575
-20.55
-20.525
-20.5
-20.475
-20.45
-20.425
-20.4
-20.375
-20.35
-20.325
-20.3
-20.275
-20.25
-20.225
-20.2
-20.175
-20.15
-20.125
-20.1
-20.075
-20.05
-20.025
-20
VAR_LIST_END
BEGIN
-16.263315,-160.26773
-14.468141,-162.52409
-14.864985,-158.94324
-14.862159,-156.40248
-16.057575,-158.03473
-14.805676,-160.41649
-14.472364,-160.65808
-14.053776,-157.90311
-14.676955,-158.62503
-15.434705,-162.07574
-14.936766,-165.02272
-14.28859,-163.15755
-15.993648,-159.54776
-13.87819,-164.30411
-14.445193,-159.76361
-15.541135,-163.35658
-14.991025,-158.95587
-14.441236,-162.97226
-15.491646,-160.4128
-14.707478,-167.46443
-14.745709,-158.77106
-14.624603,-163.05881
-15.475112,-164.44037
-15.387247,-157.34206
-14.278447,-170.33636
-14.628964,-163.09319
-15.961184,-163.91635
-14.487213,-166.76266
-15.243917,-164.18221
-15.000567,-161.54584
-14.542032,-156.9379
-14.415821,-155.31938
-15.504014,-159.31595
-15.078684,-162.03239
-15.088943,-167.29639
-14.824205,-160.55699
-15.187684,-166.60869
-14.820302,-157.86623
-15.092216,-158.0609
-14.865833,-158.19341
-15.402264,-164.22211
-14.101195,-162.85606
-15.770813,-164.44815
-14.391006,-165.87721
-15.663354,-161.46692
-14.568368,-160.35342
-15.927354,-158.44908
-15.322291,-161.40579
-15.357686,-163.84204
-14.371577,-161.67897
-15.470119,-165.37819
-15.764111,-162.65097
-14.657207,-160.86746
-14.809778,-157.86314
-14.466581,-160.9494
-14.824363,-159.71497
-15.451339,-162.04958
-15.227727,-156.9227
-15.802491,-161.83415
-15.394065,-159.67967
-14.913481,-157.22345
-14.921921,-159.57748
-15.253119,-160.21082
-15.493197,-159.45273
-14.468416,-164.95517
-15.489745,-161.92924
-15.593414,-161.92836
-15.321697,-162.40814
-15.186896,-163.20906
-14.654979,-158.60875
-15.51464,-160.99075
-15.507941,-160.89873
-15.04559,-161.19864
-15.288214,-158.79196
-14.487301,-157.61258
-16.192696,-163.09392
-15.255099,-158.57414
-14.656203,-154.69075
-15.17202,-160.92912
-15.053441,-158.55569
-14.305828,-162.41685
-14.935094,-160.26071
-14.704692,-161.51743
-14.542376,-157.37263
-15.896277,-161.43086
-15.275494,-163.09508
-14.322154,-161.32971
-16.080875,-159.62369
-14.981149,-159.41582
-14.99108,-158.49916
-15.404787,-153.10213
-15.641247,-156.0024
-15.009369,-161.00568
-15.144198,-163.40895
-15.453592,-159.36742
-15.032872,-154.64011
-14.81975,-160.21938
-14.967375,-154.06464
-14.451569,-158.5515
-14.623615,-154.61781
-14.770861,-165.72208
-15.187116,-162.01074
-15.78001,-159.47359
-14.90286,-155.51964
-15.998347,-159.69925
-14.03084,-154.9342
-15.18661,-162.14351
-16.325308,-165.20157
-14.79129,-162.51779
-15.375371,-155.19128
-14.409464,-159.91818
-15.113403,-155.40828
-14.311209,-160.98006
-13.821305,-169.64128
-14.98984,-159.99873
-14.997081,-161.81746
-14.968555,-159.32471
-15.164897,-164.95366
-15.581528,-151.44312
-15.262689,-158.86874
-14.765527,-157.74272
-14.71139,-158.09167
-15.627936,-165.52486
-15.474962,-164.66891
-15.403176,-158.63885
-15.335037,-159.97672
-15.063158,-160.9236
-16.37991,-162.91954
-14.625727,-160.05705
-15.644674,-155.81551
-14.990977,-164.66333
-15.38536,-159.77509
-14.811299,-161.06071
-15.377314,-166.20387
-15.564107,-159.38889
-14.35352,-158.99315
-14.89889,-156.33626
-14.600161,-163.00389
-14.876588,-159.4221
-14.517314,-160.80589
-14.74476,-154.96706
-14.968798,-159.87898
-15.082238,-163.99219
-14.958411,-166.9236
-15.188487,-163.04309
-14.836298,-158.57193
-15.077037,-163.53789
-15.068922,-165.34134
-15.2602,-159.60191
-14.760102,-159.52359
-14.918858,-163.25435
-15.374776,-162.25426
-14.842062,-160.00882
-15.683952,-159.604
-16.268194,-163.27158
-14.961424,-160.92271
-14.507396,-161.27675
-15.263445,-157.20337
-15.030605,-159.34023
-14.86152,-158.64113
-14.873623,-164.89119
-15.574475,-158.57135
-15.101089,-162.2982
-15.157948,-159.46698
-14.852651,-160.87193
-15.276901,-156.76976
-15.623024,-160.42819
-15.688745,-158.58534
-14.903977,-159.47855
-14.624148,-157.24953
-14.883069,-163.89633
-14.311194,-164.70625
-15.785238,-162.07156
-14.389948,-156.15495
-15.490958,-157.00212
-15.730895,-159.70956
-15.110371,-160.16594
-14.388783,-164.06642
-15.284033,-161.67033
-14.693498,-161.16606
-14.62267,-158.79771
-15.415012,-162.15977
-15.90434,-160.53264
-15.312628,-160.18781
-15.541507,-159.97928
-15.496299,-160.98141
-14.946958,-157.55656
-15.112834,-157.15874
-14.8374,-162.34862
-15.223894,-161.2486
-15.014909,-158.80359
-15.148269,-164.81735
-15.073031,-162.39247
-15.599044,-156.65057
-14.466203,-158.97577
-15.468049,-162.3853
-14.90859,-165.51147
-15.799813,-160.10764
-14.465336,-157.90942
-14.916866,-162.19774
-15.138446,-159.38503
-15.009981,-161.27516
-15.300359,-160.99376
-15.232104,-155.99078
-14.741108,-159.589
-15.112408,-165.4232
-14.453092,-161.33977
-15.641623,-160.0246
-15.669346,-160.50537
-15.357533,-162.631
-15.492985,-159.19597
-14.531279,-159.26141
-15.286802,-160.08571
-14.726513,-157.36977
-15.070201,-156.75365
-15.481593,-159.82472
-15.506269,-161.46573
-15.589356,-160.06311
-14.957063,-161.47835
-15.158787,-161.27301
-15.427345,-158.22876
-15.475012,-161.84277
-14.866988,-161.25583
-14.25212,-160.10922
-14.567112,-162.33647
-15.135365,-162.69264
-14.862647,-159.95081
-15.12721,-158.79028
-14.982678,-165.6284
-15.064403,-158.5415
-14.901879,-158.75499
-15.893729,-159.42313
-15.52852,-159.35809
-15.534851,-156.48027
-14.980717,-157.80553
-15.082116,-161.6656
-15.089068,-159.37134
-15.499751,-161.8847
-15.135117,-163.19157
-13.974566,-159.386
-15.013409,-162.43314
-15.583677,-162.74689
-15.180187,-159.90732
-15.390985,-160.23193
-15.195876,-162.13445
-14.870476,-160.33664
-15.064638,-161.74522
-15.439241,-156.61525
-15.120678,-163.06631
-15.687891,-161.53796
-14.962594,-159.1411
-15.381893,-157.44521
-15.176124,-161.1523
-15.218973,-159.33983
-14.564247,-160.4614
-14.726225,-161.61259
-15.184865,-156.5027
-15.086292,-159.39929
-15.625148,-160.49994
-15.176794,-161.0771
-15.677787,-157.53069
-15.137155,-165.53764
-15.506831,-162.99277
-15.172959,-160.35818
-15.331361,-160.09193
-14.90416,-160.3331
-14.863832,-165.01288
-15.832907,-165.77554
-14.838108,-160.04796
-14.828228,-160.05951
-14.799015,-159.97766
-15.205762,-159.44574
-14.614834,-161.08185
-15.318136,-158.52881
-15.342999,-162.66515
-15.247544,-159.1803
-14.969763,-160.45876
-15.079608,-159.18628
-15.040749,-164.71614
-15.074094,-160.23996
-15.010023,-162.41068
-15.531081,-159.90424
-15.17455,-164.52776
-15.15591,-160.13757
-15.125857,-158.78252
-15.055361,-158.10388
-15.661123,-160.64389
-14.908442,-162.095
-15.271671,-161.94339
-15.170186,-163.27399
-14.899906,-162.43152
-14.963287,-162.07822
-15.292881,-159.4364
-14.480901,-160.15179
-15.248721,-161.50391
-15.601093,-159.54889
-15.044862,-158.79605
-15.287651,-160.77516
-15.102155,-159.88272
-15.001057,-159.82413
-15.625782,-161.30603
-15.036725,-163.51134
-15.198604,-161.40125
-15.244725,-160.63582
-14.935072,-161.32645
-15.047237,-161.79689
-15.295937,-159.23618
-14.817858,-158.46481
-14.815899,-163.02206
-14.936666,-161.04559
-15.394634,-160.71068
-15.088139,-160.4724
-15.371325,-159.0706
-14.911847,-160.51727
-15.524318,-161.11761
-14.785062,-159.45395
-14.738975,-159.66
-15.080791,-161.39607
-15.198348,-162.51251
-14.726234,-157.52849
-15.153359,-165.34666
-14.584506,-161.78685
-15.103542,-163.25053
-15.207584,-161.61929
-15.146709,-157.51842
-15.112156,-161.57314
-15.119211,-160.50043
-15.090484,-160.06662
-15.165328,-161.32208
-14.967323,-159.31044
-15.236119,-162.15642
-14.796833,-157.68065
-14.940723,-160.66377
-15.229028,-159.18468
-15.203332,-161.80992
-14.776155,-159.17708
-15.462301,-159.2009
-15.401587,-162.73228
-15.085388,-163.35425
-14.938987,-158.76094
-15.153537,-159.58418
-14.975657,-160.43088
-15.219917,-162.23126
-14.947991,-160.93062
-15.057618,-159.7054
-14.831244,-158.87715
-14.797989,-161.63225
-15.338522,-160.57878
-15.154224,-159.63329
-14.737521,-161.94292
-15.22072,-161.64427
-15.035924,-161.66341
-15.252415,-160.60555
-15.291624,-160.52081
-14.467484,-161.64256
-14.919385,-161.02057
-14.461009,-160.09537
-14.993632,-160.23732
-15.089365,-159.22435
-15.208267,-156.78914
-14.98134,-160.73064
-15.10446,-155.93182
-15.062627,-158.85822
-14.898295,-160.38324
-14.97046,-162.35411
-15.519748,-158.93779
-15.180681,-158.04135
-15.311192,-159.46637
-15.287015,-158.92679
-14.864117,-162.99115
-14.973198,-159.11263
-15.270359,-158.84314
-14.805036,-162.56801
-15.205894,-162.37825
-15.312891,-160.00037
-15.084435,-159.58218
-14.782139,-161.32613
-14.943713,-158.88081
-14.932698,-158.15939
-15.185987,-162.67412
-15.185664,-161.36757
-14.775046,-162.3595
-15.204728,-162.06378
-15.287159,-161.27174
-15.254997,-159.37735
-14.887449,-161.1179
-15.004799,-160.7547
-15.154791,-160.15736
-15.001036,-160.52852
-15.796471,-160.33408
-15.187662,-161.53894
-15.193417,-163.5974
-15.172846,-159.9274
-15.019794,-161.75159
-14.75688,-160.34924
-14.74417,-160.50206
-15.051041,-160.81038
-15.200583,-158.10803
-15.332548,-160.41908
-15.304976,-160.22594
-15.163181,-159.46384
-15.134964,-159.80498
-15.083969,-161.1649
-14.813947,-159.03621
-15.051665,-163.41626
-14.897486,-161.57976
-15.115278,-160.1976
-15.004334,-161.71828
-15.565213,-162.2888
-15.066043,-160.92957
-15.293629,-158.93629
-14.804943,-161.12398
-14.806225,-158.76381
-14.885136,-162.48688
-15.036932,-160.28987
-15.094663,-158.99306
-14.713812,-159.59071
-15.154888,-160.12778
-14.850332,-161.25862
-15.328797,-159.4879
-15.061344,-160.16425
-15.140903,-162.57855
-14.984133,-159.45859
-14.862226,-159.61296
-15.062505,-160.04102
-15.0828,-160.35083
-15.003098,-160.37253
-15.498409,-163.83565
-15.105633,-158.17633
-15.012397,-159.85489
-14.950707,-161.07664
-14.905837,-158.71613
-15.527677,-159.83604
-15.13067,-160.0947
-14.904181,-157.81024
-15.208277,-161.19548
-15.326916,-162.38033
-15.313025,-162.78831
-15.085076,-161.30725
-15.253181,-158.37265
-14.92359,-161.14342
-15.259374,-159.91917
-15.772623,-160.96506
-15.413575,-160.98965
-15.177915,-160.53392
-14.853246,-160.50162
-15.070859,-159.90202
-15.271266,-161.33109
-15.302067,-162.69571
-15.136016,-161.9174
-15.187583,-160.73199
-15.200967,-158.83505
-14.658732,-160.31285
-15.119933,-159.90442
-15.264948,-160.00394
-15.446671,-159.87523
-15.079855,-160.73216
-15.266248,-162.34109
-15.073034,-157.93137
-15.048714,-160.5795
-15.227346,-158.54697
-15.196465,-159.78996
-14.728357,-159.74686
-14.890058,-160.77499
-14.828629,-157.00108
-15.065987,-160.54097
-14.940646,-162.13806
-14.984666,-160.06177
-15.210279,-161.78645
-15.079306,-163.08247
-15.27202,-161.22777
-15.172025,-160.7476
-15.082752,-159.91777
-15.21211,-160.2558
-14.738955,-160.54465
-15.185494,-161.41882
-15.107629,-161.27541
-14.935788,-160.52457
-14.922257,-160.71727
-15.189116,-161.60686
-15.2876,-159.51619
-14.913099,-160.53737
-15.134102,-160.08788
-15.213629,-160.44807
-15.104296,-159.75404
-14.926802,-161.62952
-15.151673,-161.50159
-15.16625,-160.54657
-15.21244,-162.10062
-15.127965,-161.43567
-15.079571,-160.85957
-15.100246,-161.34367
-15.329267,-159.30499
-14.93694,-161.64323
-15.169643,-158.87553
-14.972967,-161.10289
-14.85908,-161.09755
-15.088594,-160.03577
-15.148227,-160.8102
-15.055344,-160.51437
-15.107644,-162.58134
-15.212864,-160.44759
-15.210464,-160.55644
-15.08482,-160.54172
-15.194577,-160.58313
-15.333581,-160.86635
-14.94722,-163.10162
-15.031821,-160.82774
-15.278124,-161.00421
-15.491991,-162.22322
-14.850282,-160.85263
-15.197815,-160.98012
-14.983007,-160.93018
-14.964856,-159.23453
-15.217723,-159.39066
-15.018447,-160.88751
-15.118757,-160.89499
-15.152408,-159.89148
-15.258374,-161.29497
-15.021132,-160.30264
-14.99499,-159.57335
-15.071047,-159.63261
-15.255679,-161.27538
-15.011337,-159.32104
-14.982655,-160.36205
-14.996112,-161.62132
-14.931664,-160.89568
-15.098159,-162.71613
-15.020882,-163.01486
-15.073413,-160.11334
-14.97003,-160.69043
-15.266129,-160.5728
-15.183842,-160.62645
-15.205097,-159.52104
-14.839591,-160.45418
-15.16645,-159.71971
-15.070037,-160.12706
-14.620576,-159.22931
-15.055841,-160.31851
-14.734821,-161.53392
-15.041233,-160.38474
-15.224297,-162.11661
-15.04635,-161.99658
-15.277975,-160.22127
-14.985175,-161.11604
-15.190703,-160.86363
-15.286597,-160.85693
-14.977944,-160.43394
-14.930805,-160.01929
-14.965496,-160.86772
-15.122583,-159.74484
-14.9638,-160.99619
-14.877741,-159.95628
-15.173575,-160.89864
-15.119284,-160.70348
-14.959174,-159.41293
-14.932769,-160.96803
-15.01112,-161.66833
-15.230762,-160.87164
-15.021264,-160.60591
-15.208654,-161.88376
-15.002974,-158.83243
-15.003644,-160.18648
-15.057343,-159.5847
-15.158204,-160.82747
-15.130976,-159.75981
-15.185796,-159.29575
-15.254893,-160.57111
-14.92056,-161.22537
-15.129387,-160.97505
-15.208068,-161.93633
-15.17255,-161.7319
-15.000598,-160.51645
-14.986235,-160.52066
-15.148943,-160.48343
-15.272252,-159.46533
