CITIFILE A.01.01
!Agilent Technologies,N5230C,MY48100142,A.08.04.10
!Agilent N5230C: A.08.04.10
!Format: LogMag/Angle
!Date: Friday, September 11, 2020 15:03:11
NAME CH1_DATA
VAR Power MAG 801
DATA S11 DBANGLE
DATA S21 DBANGLE
DATA S12 DBANGLE
DATA S22 DBANGLE
VAR_LIST_BEGIN
-40
-39.975
-39.95
-39.925
-39.9
-39.875
-39.85
-39.825
-39.8
-39.775
-39.75
-39.725
-39.7
-39.675
-39.65
-39.625
-39.6
-39.575
-39.55
-39.525
-39.5
-39.475
-39.45
-39.425
-39.4
-39.375
-39.35
-39.325
-39.3
-39.275
-39.25
-39.225
-39.2
-39.175
-39.15
-39.125
-39.1
-39.075
-39.05
-39.025
-39
-38.975
-38.95
-38.925
-38.9
-38.875
-38.85
-38.825
-38.8
-38.775
-38.75
-38.725
-38.7
-38.675
-38.65
-38.625
-38.6
-38.575
-38.55
-38.525
-38.5
-38.475
-38.45
-38.425
-38.4
-38.375
-38.35
-38.325
-38.3
-38.275
-38.25
-38.225
-38.2
-38.175
-38.15
-38.125
-38.1
-38.075
-38.05
-38.025
-38
-37.975
-37.95
-37.925
-37.9
-37.875
-37.85
-37.825
-37.8
-37.775
-37.75
-37.725
-37.7
-37.675
-37.65
-37.625
-37.6
-37.575
-37.55
-37.525
-37.5
-37.475
-37.45
-37.425
-37.4
-37.375
-37.35
-37.325
-37.3
-37.275
-37.25
-37.225
-37.2
-37.175
-37.15
-37.125
-37.1
-37.075
-37.05
-37.025
-37
-36.975
-36.95
-36.925
-36.9
-36.875
-36.85
-36.825
-36.8
-36.775
-36.75
-36.725
-36.7
-36.675
-36.65
-36.625
-36.6
-36.575
-36.55
-36.525
-36.5
-36.475
-36.45
-36.425
-36.4
-36.375
-36.35
-36.325
-36.3
-36.275
-36.25
-36.225
-36.2
-36.175
-36.15
-36.125
-36.1
-36.075
-36.05
-36.025
-36
-35.975
-35.95
-35.925
-35.9
-35.875
-35.85
-35.825
-35.8
-35.775
-35.75
-35.725
-35.7
-35.675
-35.65
-35.625
-35.6
-35.575
-35.55
-35.525
-35.5
-35.475
-35.45
-35.425
-35.4
-35.375
-35.35
-35.325
-35.3
-35.275
-35.25
-35.225
-35.2
-35.175
-35.15
-35.125
-35.1
-35.075
-35.05
-35.025
-35
-34.975
-34.95
-34.925
-34.9
-34.875
-34.85
-34.825
-34.8
-34.775
-34.75
-34.725
-34.7
-34.675
-34.65
-34.625
-34.6
-34.575
-34.55
-34.525
-34.5
-34.475
-34.45
-34.425
-34.4
-34.375
-34.35
-34.325
-34.3
-34.275
-34.25
-34.225
-34.2
-34.175
-34.15
-34.125
-34.1
-34.075
-34.05
-34.025
-34
-33.975
-33.95
-33.925
-33.9
-33.875
-33.85
-33.825
-33.8
-33.775
-33.75
-33.725
-33.7
-33.675
-33.65
-33.625
-33.6
-33.575
-33.55
-33.525
-33.5
-33.475
-33.45
-33.425
-33.4
-33.375
-33.35
-33.325
-33.3
-33.275
-33.25
-33.225
-33.2
-33.175
-33.15
-33.125
-33.1
-33.075
-33.05
-33.025
-33
-32.975
-32.95
-32.925
-32.9
-32.875
-32.85
-32.825
-32.8
-32.775
-32.75
-32.725
-32.7
-32.675
-32.65
-32.625
-32.6
-32.575
-32.55
-32.525
-32.5
-32.475
-32.45
-32.425
-32.4
-32.375
-32.35
-32.325
-32.3
-32.275
-32.25
-32.225
-32.2
-32.175
-32.15
-32.125
-32.1
-32.075
-32.05
-32.025
-32
-31.975
-31.95
-31.925
-31.9
-31.875
-31.85
-31.825
-31.8
-31.775
-31.75
-31.725
-31.7
-31.675
-31.65
-31.625
-31.6
-31.575
-31.55
-31.525
-31.5
-31.475
-31.45
-31.425
-31.4
-31.375
-31.35
-31.325
-31.3
-31.275
-31.25
-31.225
-31.2
-31.175
-31.15
-31.125
-31.1
-31.075
-31.05
-31.025
-31
-30.975
-30.95
-30.925
-30.9
-30.875
-30.85
-30.825
-30.8
-30.775
-30.75
-30.725
-30.7
-30.675
-30.65
-30.625
-30.6
-30.575
-30.55
-30.525
-30.5
-30.475
-30.45
-30.425
-30.4
-30.375
-30.35
-30.325
-30.3
-30.275
-30.25
-30.225
-30.2
-30.175
-30.15
-30.125
-30.1
-30.075
-30.05
-30.025
-30
-29.975
-29.95
-29.925
-29.9
-29.875
-29.85
-29.825
-29.8
-29.775
-29.75
-29.725
-29.7
-29.675
-29.65
-29.625
-29.6
-29.575
-29.55
-29.525
-29.5
-29.475
-29.45
-29.425
-29.4
-29.375
-29.35
-29.325
-29.3
-29.275
-29.25
-29.225
-29.2
-29.175
-29.15
-29.125
-29.1
-29.075
-29.05
-29.025
-29
-28.975
-28.95
-28.925
-28.9
-28.875
-28.85
-28.825
-28.8
-28.775
-28.75
-28.725
-28.7
-28.675
-28.65
-28.625
-28.6
-28.575
-28.55
-28.525
-28.5
-28.475
-28.45
-28.425
-28.4
-28.375
-28.35
-28.325
-28.3
-28.275
-28.25
-28.225
-28.2
-28.175
-28.15
-28.125
-28.1
-28.075
-28.05
-28.025
-28
-27.975
-27.95
-27.925
-27.9
-27.875
-27.85
-27.825
-27.8
-27.775
-27.75
-27.725
-27.7
-27.675
-27.65
-27.625
-27.6
-27.575
-27.55
-27.525
-27.5
-27.475
-27.45
-27.425
-27.4
-27.375
-27.35
-27.325
-27.3
-27.275
-27.25
-27.225
-27.2
-27.175
-27.15
-27.125
-27.1
-27.075
-27.05
-27.025
-27
-26.975
-26.95
-26.925
-26.9
-26.875
-26.85
-26.825
-26.8
-26.775
-26.75
-26.725
-26.7
-26.675
-26.65
-26.625
-26.6
-26.575
-26.55
-26.525
-26.5
-26.475
-26.45
-26.425
-26.4
-26.375
-26.35
-26.325
-26.3
-26.275
-26.25
-26.225
-26.2
-26.175
-26.15
-26.125
-26.1
-26.075
-26.05
-26.025
-26
-25.975
-25.95
-25.925
-25.9
-25.875
-25.85
-25.825
-25.8
-25.775
-25.75
-25.725
-25.7
-25.675
-25.65
-25.625
-25.6
-25.575
-25.55
-25.525
-25.5
-25.475
-25.45
-25.425
-25.4
-25.375
-25.35
-25.325
-25.3
-25.275
-25.25
-25.225
-25.2
-25.175
-25.15
-25.125
-25.1
-25.075
-25.05
-25.025
-25
-24.975
-24.95
-24.925
-24.9
-24.875
-24.85
-24.825
-24.8
-24.775
-24.75
-24.725
-24.7
-24.675
-24.65
-24.625
-24.6
-24.575
-24.55
-24.525
-24.5
-24.475
-24.45
-24.425
-24.4
-24.375
-24.35
-24.325
-24.3
-24.275
-24.25
-24.225
-24.2
-24.175
-24.15
-24.125
-24.1
-24.075
-24.05
-24.025
-24
-23.975
-23.95
-23.925
-23.9
-23.875
-23.85
-23.825
-23.8
-23.775
-23.75
-23.725
-23.7
-23.675
-23.65
-23.625
-23.6
-23.575
-23.55
-23.525
-23.5
-23.475
-23.45
-23.425
-23.4
-23.375
-23.35
-23.325
-23.3
-23.275
-23.25
-23.225
-23.2
-23.175
-23.15
-23.125
-23.1
-23.075
-23.05
-23.025
-23
-22.975
-22.95
-22.925
-22.9
-22.875
-22.85
-22.825
-22.8
-22.775
-22.75
-22.725
-22.7
-22.675
-22.65
-22.625
-22.6
-22.575
-22.55
-22.525
-22.5
-22.475
-22.45
-22.425
-22.4
-22.375
-22.35
-22.325
-22.3
-22.275
-22.25
-22.225
-22.2
-22.175
-22.15
-22.125
-22.1
-22.075
-22.05
-22.025
-22
-21.975
-21.95
-21.925
-21.9
-21.875
-21.85
-21.825
-21.8
-21.775
-21.75
-21.725
-21.7
-21.675
-21.65
-21.625
-21.6
-21.575
-21.55
-21.525
-21.5
-21.475
-21.45
-21.425
-21.4
-21.375
-21.35
-21.325
-21.3
-21.275
-21.25
-21.225
-21.2
-21.175
-21.15
-21.125
-21.1
-21.075
-21.05
-21.025
-21
-20.975
-20.95
-20.925
-20.9
-20.875
-20.85
-20.825
-20.8
-20.775
-20.75
-20.725
-20.7
-20.675
-20.65
-20.625
-20.6
-20.575
-20.55
-20.525
-20.5
-20.475
-20.45
-20.425
-20.4
-20.375
-20.35
-20.325
-20.3
-20.275
-20.25
-20.225
-20.2
-20.175
-20.15
-20.125
-20.1
-20.075
-20.05
-20.025
-20
VAR_LIST_END
BEGIN
-13.943358,-161.63013
-13.904742,-160.11935
-14.96743,-146.46236
-16.213747,-162.15445
-15.109385,-154.65219
-15.969371,-152.41493
-15.93625,-169.41095
-15.377847,-162.90012
-15.256274,-157.75246
-14.242232,-154.26945
-14.760353,-158.37698
-15.065133,-154.48984
-14.971618,-158.29663
-15.099648,-159.03554
-14.247427,-161.61771
-14.336441,-152.3494
-15.059582,-161.96133
-14.366276,-158.55482
-15.803384,-155.64508
-14.888885,-156.75081
-15.497246,-160.39349
-15.060255,-159.63547
-16.179993,-162.74434
-14.834784,-154.79926
-14.837791,-162.89848
-15.834185,-162.24742
-15.041892,-166.08879
-15.625607,-158.51929
-14.7344,-158.1779
-14.607266,-166.37593
-14.516171,-160.23488
-14.662768,-162.82277
-16.036352,-163.5101
-15.845997,-162.36877
-14.051202,-156.68269
-14.431561,-161.92856
-15.009487,-162.69308
-14.565004,-157.29347
-15.237281,-161.38025
-14.769251,-162.04515
-15.015536,-157.46419
-14.617893,-156.84059
-14.948389,-160.65877
-15.598874,-159.74991
-15.276752,-163.17056
-15.499382,-157.02855
-14.673166,-159.24908
-15.177364,-154.75081
-15.425311,-169.86357
-15.39989,-160.79755
-14.635031,-159.32933
-14.23157,-157.72131
-15.133464,-159.1987
-15.311345,-159.16068
-15.043701,-157.35226
-14.218538,-164.22327
-14.955328,-161.90814
-15.125564,-157.60518
-14.125215,-157.6593
-15.377752,-151.31372
-14.933069,-161.27914
-14.270389,-160.65182
-15.560185,-159.07886
-15.280568,-158.01686
-14.90582,-154.73714
-15.277133,-165.29755
-15.004478,-162.36272
-15.252762,-155.43312
-15.351121,-157.50021
-14.671457,-160.39005
-15.479047,-158.74779
-14.888202,-154.75671
-14.401027,-160.30423
-14.90112,-162.23192
-15.242809,-159.28416
-14.607611,-156.85269
-15.421451,-158.28186
-15.594111,-162.83084
-15.527797,-165.53952
-14.942337,-157.43208
-15.381104,-161.2718
-14.92745,-164.52876
-15.109515,-158.6067
-14.771579,-158.65768
-14.539828,-160.24716
-15.554249,-156.34119
-14.861018,-160.1667
-15.317766,-158.79773
-15.592995,-159.70248
-15.171328,-153.63269
-14.546824,-160.28902
-14.518341,-157.14279
-15.905609,-161.32249
-15.053558,-160.14316
-14.911449,-159.16924
-15.06389,-161.68124
-15.433494,-155.24426
-15.109102,-164.84294
-15.298494,-160.5327
-15.032479,-162.17944
-13.996098,-159.23344
-14.557531,-164.37004
-15.134668,-160.77701
-14.504544,-159.30707
-15.71256,-160.09314
-14.338556,-156.87245
-14.433987,-161.01941
-14.988987,-164.77289
-15.207644,-161.56432
-14.298285,-157.77274
-14.576002,-162.45039
-15.197138,-162.74867
-14.604864,-166.0816
-15.047349,-156.26338
-14.81313,-159.59465
-14.6618,-157.85561
-15.597049,-162.78969
-14.858221,-159.22514
-14.931787,-163.41666
-14.841726,-162.99297
-14.902988,-162.35437
-15.558001,-158.45213
-15.460653,-159.63246
-15.164337,-164.23631
-15.287936,-161.28409
-14.810352,-160.40132
-15.114628,-162.26254
-15.269835,-160.95695
-15.365172,-157.2957
-15.202835,-156.72208
-14.741497,-162.51277
-14.606818,-159.08743
-14.966231,-161.556
-15.546535,-157.24818
-14.609145,-154.20328
-14.585523,-158.51237
-14.953865,-157.09135
-14.807378,-163.22565
-15.490792,-159.87886
-15.855039,-164.61723
-15.209875,-157.12561
-15.940638,-157.07271
-15.381703,-157.98946
-14.79507,-158.65892
-14.635177,-159.86
-15.228614,-160.79173
-15.16657,-162.73743
-14.824793,-155.58688
-14.642095,-155.13695
-14.97004,-157.53287
-15.182254,-162.73552
-16.103043,-159.33928
-15.142827,-157.03436
-14.881997,-156.08473
-14.460573,-159.28954
-14.986424,-164.44548
-15.090474,-157.76894
-14.736321,-158.90083
-15.592782,-164.8558
-15.477503,-164.34953
-14.991235,-157.6459
-15.133121,-158.21997
-14.912109,-158.52309
-14.788605,-157.50406
-15.799031,-160.01724
-15.993304,-160.46677
-15.497819,-157.91156
-14.868915,-159.75635
-14.659141,-162.18576
-15.353337,-159.42683
-15.341663,-161.86902
-15.255044,-158.76797
-15.208581,-159.53725
-15.119919,-162.09798
-14.879712,-158.28143
-15.131167,-161.24092
-14.771968,-160.22122
-15.457669,-163.13458
-15.385201,-160.21132
-14.96598,-161.9761
-15.122556,-155.80745
-14.999318,-162.4118
-15.434161,-154.00705
-15.332011,-160.32384
-14.702746,-155.56323
-14.824441,-161.30034
-15.585495,-156.40575
-14.834214,-160.84224
-14.804489,-160.61189
-15.864296,-158.03441
-15.113233,-162.5294
-15.313828,-160.72772
-14.256342,-164.44466
-14.621814,-157.85944
-15.457753,-157.61705
-14.601513,-159.4063
-15.233765,-162.99156
-14.684623,-159.03838
-15.137339,-160.13657
-15.001388,-161.28336
-15.469322,-161.00504
-15.892032,-157.74054
-14.591197,-162.92078
-15.344222,-161.42674
-14.620919,-159.30733
-15.327186,-162.87195
-15.000229,-161.15843
-14.506415,-158.79095
-14.629308,-166.12151
-15.033463,-164.47804
-14.707644,-155.89394
-15.290626,-161.17679
-14.81181,-154.52556
-14.742528,-158.75635
-15.743423,-160.04395
-15.409829,-162.17123
-15.319839,-162.13506
-14.276564,-163.19353
-14.938633,-160.18594
-14.753071,-159.6796
-14.971782,-158.71519
-14.79599,-158.23816
-15.292203,-159.69447
-14.989634,-158.79854
-15.024335,-163.25462
-14.997977,-161.18689
-14.737213,-158.60437
-15.24944,-160.67911
-15.272305,-161.80687
-15.284152,-159.00838
-14.959265,-163.2164
-14.714918,-160.85887
-15.614526,-162.38321
-14.737847,-155.79358
-14.800316,-160.0936
-14.743401,-163.11098
-14.560293,-163.26225
-15.039324,-159.76483
-15.130085,-156.61642
-15.343498,-158.42233
-15.270941,-158.45486
-15.246269,-159.53709
-14.946364,-159.25598
-15.09744,-159.06868
-15.121681,-157.55714
-14.945745,-161.41385
-15.238514,-159.15337
-15.458625,-160.35143
-15.391756,-159.1814
-15.760633,-154.19743
-15.369232,-160.7511
-15.266764,-159.84238
-15.711807,-156.65411
-15.378312,-158.89603
-14.432766,-160.35674
-15.115209,-165.13605
-15.278199,-160.63042
-15.650424,-159.05872
-15.887811,-157.9938
-15.156819,-161.5667
-14.592268,-159.93799
-15.236869,-159.91716
-15.466015,-159.25873
-14.784697,-158.28964
-15.100576,-159.24107
-15.338008,-155.9057
-15.379107,-156.90506
-15.33853,-158.54262
-14.908175,-157.27222
-15.049638,-156.21988
-14.433743,-160.12537
-14.934248,-155.19356
-14.913943,-158.01117
-15.11786,-161.41924
-15.164257,-160.59982
-14.68129,-160.39485
-15.480729,-157.27676
-15.247746,-160.56235
-15.201279,-162.47852
-15.362701,-160.18573
-14.676454,-159.93578
-15.031293,-162.58572
-15.085584,-157.19382
-14.927131,-159.69563
-14.970864,-160.72101
-15.334085,-159.27261
-15.204814,-161.43564
-14.79806,-164.8495
-15.249568,-159.70471
-14.566152,-159.22191
-14.535361,-157.27019
-14.747535,-157.36533
-14.774323,-160.58086
-15.122455,-158.13585
-14.811439,-159.88205
-15.086442,-159.14481
-14.970388,-160.08304
-15.387974,-161.81107
-15.197698,-160.41272
-14.930279,-158.49294
-15.365714,-160.05173
-14.785665,-157.51172
-14.921965,-159.94044
-15.018435,-157.28938
-15.339874,-157.91415
-15.155315,-160.14854
-14.618046,-158.49893
-14.634325,-160.53268
-15.12999,-161.26901
-15.270351,-162.58334
-15.29061,-159.70215
-15.373471,-157.88503
-14.885504,-159.71249
-15.342069,-157.46307
-15.283769,-161.95383
-14.97004,-158.65381
-14.38386,-157.19086
-14.968657,-158.76964
-15.033882,-160.24384
-15.198497,-160.65674
-14.893475,-160.17973
-14.991389,-162.07813
-15.352375,-158.69598
-14.890713,-162.12294
-14.944265,-157.53154
-14.950301,-156.62868
-14.965486,-158.22595
-15.156218,-160.43138
-15.521916,-161.08754
-15.501568,-160.04362
-14.636262,-158.85199
-15.089899,-157.90515
-15.026206,-159.69809
-14.615341,-156.79349
-14.597222,-158.53755
-15.077235,-159.62108
-15.110392,-159.55208
-15.356977,-161.24629
-15.105299,-161.8063
-14.736179,-160.22372
-15.294521,-158.16519
-14.852757,-159.29689
-15.065376,-160.09961
-15.233931,-158.85127
-14.680986,-154.92728
-15.165198,-162.87822
-15.176589,-157.89864
-14.900953,-158.06532
-15.31009,-160.76785
-14.907455,-159.84584
-15.20906,-159.45412
-14.820265,-157.73535
-15.401925,-159.70697
-14.968502,-159.62494
-15.354458,-159.57457
-15.189084,-160.77675
-15.415328,-159.50314
-14.999993,-160.88766
-15.130883,-161.02629
-15.029167,-161.38153
-14.99167,-159.28432
-14.924604,-159.00302
-15.129809,-158.28897
-14.97406,-160.88945
-14.974692,-158.33812
-14.949742,-159.29999
-14.750395,-159.66121
-15.153903,-160.26598
-15.025094,-160.04358
-14.991155,-159.94736
-15.328482,-161.6935
-14.830162,-157.45399
-15.400111,-159.17395
-14.917899,-160.08638
-15.593442,-159.00659
-14.957976,-160.69412
-14.995529,-157.34042
-15.228281,-161.21321
-15.228755,-158.51694
-14.74989,-158.37587
-15.196316,-157.97395
-15.147439,-158.7621
-15.162046,-159.16974
-14.987838,-162.55228
-15.273952,-159.14502
-15.314466,-159.72212
-15.081795,-161.23157
-14.714347,-161.50204
-14.975481,-159.45598
-15.075473,-158.60101
-14.668916,-157.35152
-14.98825,-161.11571
-15.139563,-156.03957
-14.850325,-159.31293
-15.472389,-159.46402
-15.162591,-160.40768
-15.029272,-157.76602
-14.67415,-158.00446
-15.179062,-157.96326
-14.889736,-160.60272
-15.289019,-162.73927
-14.595404,-160.64453
-15.017863,-160.05051
-14.895646,-157.50436
-15.276958,-159.99657
-14.759764,-158.27881
-15.322222,-159.87022
-15.056779,-157.44414
-15.371907,-158.25497
-15.052355,-158.96495
-15.220925,-159.23338
-15.495707,-158.63594
-14.74313,-159.11041
-14.865849,-159.7108
-15.155082,-158.58488
-15.05341,-160.13029
-15.050789,-161.12314
-15.29803,-158.90016
-15.243889,-158.54245
-15.216749,-159.94835
-15.343364,-159.32675
-15.178463,-157.77519
-15.227191,-158.87477
-14.793083,-159.05838
-14.75918,-158.50351
-14.77542,-159.03633
-14.882524,-160.36816
-14.974849,-159.52454
-14.889064,-159.55652
-15.047606,-160.47862
-14.806623,-158.98781
-15.020077,-160.11072
-15.128206,-159.03267
-15.438,-157.79475
-14.896639,-159.77185
-15.016623,-160.49727
-15.233967,-160.93159
-14.917038,-158.24973
-14.965629,-159.51559
-15.229579,-159.56345
-14.796822,-158.2942
-14.794857,-159.66537
-14.91069,-158.9518
-15.270414,-158.56557
-15.122187,-159.6008
-15.018229,-158.54672
-14.892326,-157.92952
-15.114854,-162.35258
-14.931448,-160.89371
-15.318265,-159.10127
-15.192029,-160.48547
-15.103705,-158.15912
-15.497684,-158.61211
-14.927606,-159.3237
-15.098053,-161.7412
-14.925264,-160.58456
-14.891154,-159.91335
-15.165618,-157.30769
-14.703002,-159.01346
-15.285233,-159.45641
-14.960345,-157.64807
-14.910916,-158.84285
-14.944463,-160.63498
-14.908308,-159.19652
-14.842443,-158.61845
-14.806434,-160.61351
-15.248364,-157.78091
-14.948522,-159.18048
-14.962591,-157.15846
-15.045448,-159.13705
-15.282392,-159.50397
-15.170356,-159.93245
-14.880198,-159.17226
-14.951811,-159.59607
-15.000906,-159.95103
-15.139503,-158.82486
-15.305222,-160.27177
-15.128061,-159.40689
-14.950086,-160.00784
-14.998859,-159.51926
-15.165952,-157.30167
-14.91298,-159.24371
-14.682982,-158.24178
-14.981235,-160.53534
-15.113569,-160.33711
-15.095111,-159.02792
-14.723921,-159.9715
-15.011958,-160.92825
-14.839254,-159.10027
-15.039891,-159.36073
-15.006886,-159.42558
-14.907188,-156.87953
-14.785607,-158.81836
-15.042095,-160.81128
-14.927481,-159.58572
-15.085444,-160.71916
-14.982156,-159.47186
-15.255488,-156.33037
-14.841044,-157.75937
-15.312633,-158.27702
-15.090672,-159.22038
-14.86587,-159.14465
-15.183268,-158.3405
-15.405026,-160.68849
-15.262598,-158.84059
-15.076039,-159.85475
-14.786967,-159.68822
-15.105267,-159.68977
-15.041474,-161.45201
-15.072219,-159.7321
-14.929236,-159.55093
-15.067437,-159.21152
-15.23338,-160.28041
-14.957894,-158.82793
-15.159073,-160.5889
-14.957923,-159.17459
-14.812673,-159.88353
-14.851569,-157.72794
-14.929937,-158.44405
-14.690963,-159.34409
-15.060364,-161.53386
-14.810258,-160.8049
-14.97529,-161.10632
-15.212127,-159.65236
-15.169896,-161.08667
-15.058767,-159.93927
-15.243658,-160.08414
-14.797417,-160.35683
-15.102345,-159.44397
-15.206035,-160.31303
-14.859608,-158.09962
-15.032257,-158.41132
-15.116269,-159.01648
-15.017868,-159.09615
-15.432442,-159.63899
-14.975785,-159.37227
-15.06345,-159.70203
-14.899778,-160.70415
-15.16358,-160.21251
-15.079935,-159.89389
-15.212472,-158.75618
-15.037185,-160.3484
-15.146291,-160.31558
-15.08161,-159.15388
-15.392288,-158.99374
-15.119407,-159.70392
-15.237528,-159.52545
-15.114865,-158.79912
-15.169895,-161.38362
-15.041631,-158.52573
-15.156736,-161.2491
-14.958495,-159.01669
-15.146293,-159.32707
-15.321134,-159.31674
-15.160682,-159.34789
-14.816247,-159.66698
-14.944457,-159.14066
-14.899293,-159.55383
-14.991768,-159.31682
-15.034911,-158.77014
-15.061576,-159.17628
-15.126716,-160.3187
-15.142791,-159.96777
-15.156021,-158.72641
-15.045177,-158.69081
-15.11087,-160.27156
-15.053652,-158.48618
-15.091988,-160.27396
-14.891445,-159.31339
-14.91666,-158.74269
-14.971283,-159.83694
-15.02958,-159.28293
-14.999341,-158.05698
-15.087348,-157.90953
-15.071416,-158.34889
