CITIFILE A.01.01
!Agilent Technologies,N5230C,MY48100142,A.08.04.10
!Agilent N5230C: A.08.04.10
!Format: LogMag/Angle
!Date: Friday, September 11, 2020 15:06:51
NAME CH1_DATA
VAR Power MAG 801
DATA S11 DBANGLE
DATA S21 DBANGLE
DATA S12 DBANGLE
DATA S22 DBANGLE
VAR_LIST_BEGIN
-40
-39.975
-39.95
-39.925
-39.9
-39.875
-39.85
-39.825
-39.8
-39.775
-39.75
-39.725
-39.7
-39.675
-39.65
-39.625
-39.6
-39.575
-39.55
-39.525
-39.5
-39.475
-39.45
-39.425
-39.4
-39.375
-39.35
-39.325
-39.3
-39.275
-39.25
-39.225
-39.2
-39.175
-39.15
-39.125
-39.1
-39.075
-39.05
-39.025
-39
-38.975
-38.95
-38.925
-38.9
-38.875
-38.85
-38.825
-38.8
-38.775
-38.75
-38.725
-38.7
-38.675
-38.65
-38.625
-38.6
-38.575
-38.55
-38.525
-38.5
-38.475
-38.45
-38.425
-38.4
-38.375
-38.35
-38.325
-38.3
-38.275
-38.25
-38.225
-38.2
-38.175
-38.15
-38.125
-38.1
-38.075
-38.05
-38.025
-38
-37.975
-37.95
-37.925
-37.9
-37.875
-37.85
-37.825
-37.8
-37.775
-37.75
-37.725
-37.7
-37.675
-37.65
-37.625
-37.6
-37.575
-37.55
-37.525
-37.5
-37.475
-37.45
-37.425
-37.4
-37.375
-37.35
-37.325
-37.3
-37.275
-37.25
-37.225
-37.2
-37.175
-37.15
-37.125
-37.1
-37.075
-37.05
-37.025
-37
-36.975
-36.95
-36.925
-36.9
-36.875
-36.85
-36.825
-36.8
-36.775
-36.75
-36.725
-36.7
-36.675
-36.65
-36.625
-36.6
-36.575
-36.55
-36.525
-36.5
-36.475
-36.45
-36.425
-36.4
-36.375
-36.35
-36.325
-36.3
-36.275
-36.25
-36.225
-36.2
-36.175
-36.15
-36.125
-36.1
-36.075
-36.05
-36.025
-36
-35.975
-35.95
-35.925
-35.9
-35.875
-35.85
-35.825
-35.8
-35.775
-35.75
-35.725
-35.7
-35.675
-35.65
-35.625
-35.6
-35.575
-35.55
-35.525
-35.5
-35.475
-35.45
-35.425
-35.4
-35.375
-35.35
-35.325
-35.3
-35.275
-35.25
-35.225
-35.2
-35.175
-35.15
-35.125
-35.1
-35.075
-35.05
-35.025
-35
-34.975
-34.95
-34.925
-34.9
-34.875
-34.85
-34.825
-34.8
-34.775
-34.75
-34.725
-34.7
-34.675
-34.65
-34.625
-34.6
-34.575
-34.55
-34.525
-34.5
-34.475
-34.45
-34.425
-34.4
-34.375
-34.35
-34.325
-34.3
-34.275
-34.25
-34.225
-34.2
-34.175
-34.15
-34.125
-34.1
-34.075
-34.05
-34.025
-34
-33.975
-33.95
-33.925
-33.9
-33.875
-33.85
-33.825
-33.8
-33.775
-33.75
-33.725
-33.7
-33.675
-33.65
-33.625
-33.6
-33.575
-33.55
-33.525
-33.5
-33.475
-33.45
-33.425
-33.4
-33.375
-33.35
-33.325
-33.3
-33.275
-33.25
-33.225
-33.2
-33.175
-33.15
-33.125
-33.1
-33.075
-33.05
-33.025
-33
-32.975
-32.95
-32.925
-32.9
-32.875
-32.85
-32.825
-32.8
-32.775
-32.75
-32.725
-32.7
-32.675
-32.65
-32.625
-32.6
-32.575
-32.55
-32.525
-32.5
-32.475
-32.45
-32.425
-32.4
-32.375
-32.35
-32.325
-32.3
-32.275
-32.25
-32.225
-32.2
-32.175
-32.15
-32.125
-32.1
-32.075
-32.05
-32.025
-32
-31.975
-31.95
-31.925
-31.9
-31.875
-31.85
-31.825
-31.8
-31.775
-31.75
-31.725
-31.7
-31.675
-31.65
-31.625
-31.6
-31.575
-31.55
-31.525
-31.5
-31.475
-31.45
-31.425
-31.4
-31.375
-31.35
-31.325
-31.3
-31.275
-31.25
-31.225
-31.2
-31.175
-31.15
-31.125
-31.1
-31.075
-31.05
-31.025
-31
-30.975
-30.95
-30.925
-30.9
-30.875
-30.85
-30.825
-30.8
-30.775
-30.75
-30.725
-30.7
-30.675
-30.65
-30.625
-30.6
-30.575
-30.55
-30.525
-30.5
-30.475
-30.45
-30.425
-30.4
-30.375
-30.35
-30.325
-30.3
-30.275
-30.25
-30.225
-30.2
-30.175
-30.15
-30.125
-30.1
-30.075
-30.05
-30.025
-30
-29.975
-29.95
-29.925
-29.9
-29.875
-29.85
-29.825
-29.8
-29.775
-29.75
-29.725
-29.7
-29.675
-29.65
-29.625
-29.6
-29.575
-29.55
-29.525
-29.5
-29.475
-29.45
-29.425
-29.4
-29.375
-29.35
-29.325
-29.3
-29.275
-29.25
-29.225
-29.2
-29.175
-29.15
-29.125
-29.1
-29.075
-29.05
-29.025
-29
-28.975
-28.95
-28.925
-28.9
-28.875
-28.85
-28.825
-28.8
-28.775
-28.75
-28.725
-28.7
-28.675
-28.65
-28.625
-28.6
-28.575
-28.55
-28.525
-28.5
-28.475
-28.45
-28.425
-28.4
-28.375
-28.35
-28.325
-28.3
-28.275
-28.25
-28.225
-28.2
-28.175
-28.15
-28.125
-28.1
-28.075
-28.05
-28.025
-28
-27.975
-27.95
-27.925
-27.9
-27.875
-27.85
-27.825
-27.8
-27.775
-27.75
-27.725
-27.7
-27.675
-27.65
-27.625
-27.6
-27.575
-27.55
-27.525
-27.5
-27.475
-27.45
-27.425
-27.4
-27.375
-27.35
-27.325
-27.3
-27.275
-27.25
-27.225
-27.2
-27.175
-27.15
-27.125
-27.1
-27.075
-27.05
-27.025
-27
-26.975
-26.95
-26.925
-26.9
-26.875
-26.85
-26.825
-26.8
-26.775
-26.75
-26.725
-26.7
-26.675
-26.65
-26.625
-26.6
-26.575
-26.55
-26.525
-26.5
-26.475
-26.45
-26.425
-26.4
-26.375
-26.35
-26.325
-26.3
-26.275
-26.25
-26.225
-26.2
-26.175
-26.15
-26.125
-26.1
-26.075
-26.05
-26.025
-26
-25.975
-25.95
-25.925
-25.9
-25.875
-25.85
-25.825
-25.8
-25.775
-25.75
-25.725
-25.7
-25.675
-25.65
-25.625
-25.6
-25.575
-25.55
-25.525
-25.5
-25.475
-25.45
-25.425
-25.4
-25.375
-25.35
-25.325
-25.3
-25.275
-25.25
-25.225
-25.2
-25.175
-25.15
-25.125
-25.1
-25.075
-25.05
-25.025
-25
-24.975
-24.95
-24.925
-24.9
-24.875
-24.85
-24.825
-24.8
-24.775
-24.75
-24.725
-24.7
-24.675
-24.65
-24.625
-24.6
-24.575
-24.55
-24.525
-24.5
-24.475
-24.45
-24.425
-24.4
-24.375
-24.35
-24.325
-24.3
-24.275
-24.25
-24.225
-24.2
-24.175
-24.15
-24.125
-24.1
-24.075
-24.05
-24.025
-24
-23.975
-23.95
-23.925
-23.9
-23.875
-23.85
-23.825
-23.8
-23.775
-23.75
-23.725
-23.7
-23.675
-23.65
-23.625
-23.6
-23.575
-23.55
-23.525
-23.5
-23.475
-23.45
-23.425
-23.4
-23.375
-23.35
-23.325
-23.3
-23.275
-23.25
-23.225
-23.2
-23.175
-23.15
-23.125
-23.1
-23.075
-23.05
-23.025
-23
-22.975
-22.95
-22.925
-22.9
-22.875
-22.85
-22.825
-22.8
-22.775
-22.75
-22.725
-22.7
-22.675
-22.65
-22.625
-22.6
-22.575
-22.55
-22.525
-22.5
-22.475
-22.45
-22.425
-22.4
-22.375
-22.35
-22.325
-22.3
-22.275
-22.25
-22.225
-22.2
-22.175
-22.15
-22.125
-22.1
-22.075
-22.05
-22.025
-22
-21.975
-21.95
-21.925
-21.9
-21.875
-21.85
-21.825
-21.8
-21.775
-21.75
-21.725
-21.7
-21.675
-21.65
-21.625
-21.6
-21.575
-21.55
-21.525
-21.5
-21.475
-21.45
-21.425
-21.4
-21.375
-21.35
-21.325
-21.3
-21.275
-21.25
-21.225
-21.2
-21.175
-21.15
-21.125
-21.1
-21.075
-21.05
-21.025
-21
-20.975
-20.95
-20.925
-20.9
-20.875
-20.85
-20.825
-20.8
-20.775
-20.75
-20.725
-20.7
-20.675
-20.65
-20.625
-20.6
-20.575
-20.55
-20.525
-20.5
-20.475
-20.45
-20.425
-20.4
-20.375
-20.35
-20.325
-20.3
-20.275
-20.25
-20.225
-20.2
-20.175
-20.15
-20.125
-20.1
-20.075
-20.05
-20.025
-20
VAR_LIST_END
BEGIN
-14.875029,-159.71378
-14.523408,-151.21461
-14.930873,-153.28897
-15.043565,-160.34755
-16.122211,-153.97871
-15.63679,-160.65889
-15.870196,-151.88339
-15.834197,-165.6265
-15.423813,-160.0816
-14.081803,-162.07632
-16.770676,-158.02649
-15.186031,-159.88203
-14.793232,-161.7193
-13.988225,-162.48434
-15.01282,-153.96997
-15.705537,-166.56267
-13.338517,-154.86615
-16.207113,-167.91341
-14.799314,-159.56613
-15.84737,-152.26859
-14.214134,-152.8972
-13.496461,-159.39868
-15.630398,-161.24533
-17.056271,-149.91397
-14.747592,-156.01013
-15.375937,-158.04402
-15.384884,-159.63118
-15.139122,-166.54524
-15.984176,-171.37561
-15.890345,-157.17068
-13.879939,-151.81334
-14.787682,-167.28453
-16.205048,-165.08824
-16.27993,-169.2872
-14.500978,-165.66634
-15.768976,-161.73456
-17.574919,-151.55672
-14.651347,-156.55138
-14.913298,-162.23486
-15.879701,-163.0394
-13.205764,-154.54019
-15.742821,-152.05211
-14.711331,-158.29846
-15.499801,-152.61845
-15.731504,-164.7513
-14.797923,-155.56033
-14.226743,-160.39874
-14.266513,-164.49512
-16.143742,-162.41348
-15.361832,-158.49248
-13.705828,-157.83923
-15.071797,-170.48656
-14.135489,-158.52347
-14.113841,-160.25011
-14.914381,-155.04318
-14.696611,-160.70462
-14.843994,-155.06544
-16.514391,-161.00154
-16.756708,-160.73206
-14.028954,-155.79344
-15.649319,-148.33167
-15.719487,-158.24294
-15.638165,-162.70264
-15.992491,-152.08063
-14.370329,-161.90967
-13.973204,-163.79326
-15.979411,-161.13872
-14.856446,-156.90593
-16.303465,-154.14034
-14.688649,-156.81636
-14.268112,-153.35245
-14.034879,-156.42853
-15.955045,-154.15489
-16.337812,-149.00656
-15.082113,-167.26096
-15.678155,-161.89897
-16.139069,-163.40742
-15.229282,-161.69261
-16.001085,-161.98358
-15.859852,-151.50427
-13.861746,-167.05325
-14.075251,-152.83871
-14.987177,-166.41537
-15.710196,-155.87628
-15.390056,-157.67389
-14.894986,-160.0696
-14.603416,-150.96407
-14.846189,-157.59485
-15.628688,-152.72308
-14.521239,-159.12912
-15.587654,-149.73122
-14.583937,-156.60356
-14.721885,-157.92659
-13.843884,-163.22878
-15.595083,-162.91837
-16.521601,-158.85876
-14.946931,-155.45425
-14.94027,-166.52167
-14.33366,-151.216
-14.552896,-153.98982
-14.241337,-157.91234
-15.144353,-163.44456
-15.149446,-166.51126
-14.667253,-159.30081
-15.234696,-160.73143
-14.980117,-153.85353
-15.011258,-158.16615
-15.330475,-156.56926
-15.381631,-161.15189
-14.858405,-150.4606
-16.18965,-158.05617
-14.877245,-166.589
-14.877662,-161.32645
-14.090576,-157.89752
-17.049801,-169.21973
-14.827586,-158.44255
-15.277841,-148.93054
-15.171827,-158.32419
-15.259913,-159.39633
-14.876595,-155.98674
-16.171989,-156.08133
-16.45664,-155.20381
-14.994995,-162.46657
-15.690967,-159.3192
-15.103086,-158.66078
-14.700749,-157.39209
-15.436112,-161.4005
-15.251197,-160.26193
-14.343575,-158.81471
-16.078249,-161.02547
-14.976023,-161.98726
-15.338153,-155.98909
-14.645327,-148.91272
-15.466662,-161.19565
-14.89417,-158.06238
-15.062415,-164.94786
-14.227974,-161.34517
-15.104519,-156.21138
-14.749253,-166.21735
-15.10671,-164.76732
-15.324473,-161.35147
-15.131425,-151.45015
-14.280659,-163.65155
-14.634262,-164.91631
-15.094657,-156.01599
-15.348907,-159.78983
-15.576757,-157.06483
-14.768019,-156.48155
-15.516472,-157.83467
-14.998556,-161.57275
-15.275046,-158.87299
-15.583175,-153.46014
-15.378046,-158.53273
-15.697909,-158.52521
-14.786614,-160.5354
-14.276326,-164.97487
-14.624022,-154.87149
-15.934312,-156.67743
-15.316668,-155.14284
-15.298076,-162.86525
-15.644677,-163.70757
-15.151759,-149.55168
-15.105092,-156.709
-15.705773,-161.14467
-15.393677,-153.47887
-14.32029,-160.24432
-14.90536,-161.75342
-15.266703,-157.02351
-14.473727,-159.57878
-15.613997,-157.41626
-15.483938,-161.9559
-16.338449,-154.15286
-15.364146,-161.57529
-15.383461,-160.99329
-15.414724,-155.7476
-14.155111,-159.43355
-14.728697,-154.04509
-15.347929,-159.34456
-15.032831,-159.8085
-15.152077,-163.78804
-14.641301,-154.86247
-15.62069,-160.03374
-15.083617,-157.80405
-15.922433,-163.91922
-15.18393,-159.35014
-14.697369,-154.74846
-15.72859,-152.84976
-15.749445,-156.34689
-15.738983,-162.13766
-15.551543,-159.31781
-15.585192,-155.17903
-14.327,-155.40373
-15.045397,-160.68999
-15.447482,-153.98805
-14.457738,-158.20032
-14.713376,-155.8223
-14.977593,-157.40623
-14.94151,-163.75021
-13.75035,-155.23425
-14.419672,-156.50237
-15.043,-160.30345
-15.409993,-159.19519
-13.873914,-159.2874
-15.889733,-157.3607
-15.605854,-158.13301
-15.402568,-159.11386
-15.281764,-161.38026
-15.132516,-154.96953
-14.845053,-160.54768
-15.243013,-156.69409
-15.22046,-165.23241
-14.950822,-155.03856
-16.064951,-162.73805
-15.512702,-153.48827
-14.447981,-158.0377
-14.918669,-160.72087
-15.052654,-154.53265
-14.68516,-156.37637
-15.975139,-162.78665
-15.013316,-160.33275
-15.43326,-157.35336
-15.880527,-159.27559
-14.964816,-164.66486
-15.116776,-162.67752
-14.744479,-163.01372
-15.527324,-163.04182
-15.26573,-163.32695
-14.507842,-158.04826
-14.666018,-160.98543
-15.212079,-158.38695
-15.63053,-159.6369
-14.338801,-158.80598
-15.409287,-162.80682
-16.126619,-159.1105
-15.329452,-160.31197
-15.138724,-161.06989
-15.555623,-164.86707
-15.362547,-162.89491
-14.995575,-164.61787
-15.445746,-159.3457
-15.26391,-161.3044
-14.877211,-161.22037
-15.908909,-162.58572
-15.212193,-162.588
-14.924216,-160.66823
-15.577101,-160.44038
-14.898295,-158.97166
-14.667749,-156.97133
-14.753273,-158.11734
-14.3153,-164.88893
-15.843895,-155.14581
-15.224954,-153.86143
-14.796649,-161.76833
-16.055859,-161.56017
-15.09837,-160.34105
-14.770074,-159.20299
-14.66104,-157.34259
-14.694662,-156.30931
-14.866379,-162.15599
-15.038635,-155.56415
-15.204212,-159.36407
-14.850035,-162.0907
-14.764146,-156.07437
-14.942864,-152.92197
-15.585395,-159.27226
-14.916599,-159.34569
-14.336824,-159.55876
-15.896681,-156.91791
-15.645479,-163.65034
-15.508377,-164.15904
-15.22465,-162.89832
-15.20153,-158.26482
-15.936417,-153.97697
-15.368402,-155.63345
-15.403266,-157.22533
-15.61349,-158.01564
-15.181822,-162.53418
-14.198884,-158.68936
-14.783074,-160.63356
-14.904361,-161.5125
-15.838872,-156.34596
-14.507861,-154.0211
-14.953729,-160.84949
-14.742431,-157.52287
-15.248195,-160.52888
-14.37748,-156.11957
-14.877338,-159.71855
-14.991278,-161.4279
-16.633596,-158.53271
-15.135995,-164.28036
-14.572977,-154.37599
-15.003029,-159.72604
-15.166136,-160.18997
-14.500473,-157.15247
-15.604312,-154.22971
-15.074857,-154.6906
-15.143295,-159.75435
-14.74225,-153.64543
-15.029501,-157.24994
-14.958547,-159.48453
-15.006222,-155.21355
-15.303849,-155.71419
-15.45816,-165.5869
-15.263628,-158.39449
-14.631119,-159.85242
-14.963774,-161.94266
-14.915477,-159.75037
-15.242477,-161.19838
-14.806895,-156.5117
-14.735708,-156.29126
-14.6708,-159.23734
-15.566195,-166.58922
-14.770881,-158.09003
-15.046132,-158.22713
-14.553735,-158.08295
-15.338496,-161.97105
-15.109056,-155.20796
-15.64155,-161.41943
-14.891372,-157.13722
-15.095839,-157.903
-14.858609,-159.2704
-14.682734,-159.51341
-15.358584,-153.62349
-14.818688,-159.04482
-15.361152,-158.11765
-14.955693,-157.40192
-14.679729,-161.72495
-14.924088,-160.48291
-14.399755,-164.53616
-14.568844,-161.36661
-15.250652,-157.00102
-14.261665,-158.33434
-15.254584,-158.45081
-15.117327,-160.70596
-14.847038,-159.42358
-14.224805,-158.95351
-14.872361,-158.97955
-15.022133,-160.69966
-14.828319,-159.17551
-15.106633,-158.11064
-15.274806,-162.45709
-15.191182,-156.37686
-14.86763,-159.85782
-14.614049,-162.89581
-15.525045,-151.68222
-14.819567,-161.41028
-14.857391,-161.03627
-14.775981,-158.6124
-15.43896,-162.09787
-14.676486,-157.05977
-15.281182,-161.12495
-14.755806,-156.48433
-14.939936,-159.03815
-15.834497,-158.7446
-15.052134,-162.3954
-14.528683,-158.65308
-15.495942,-162.34254
-15.452207,-159.166
-15.088882,-161.62276
-15.510974,-158.60707
-15.27788,-160.93242
-14.513474,-157.38562
-14.888498,-164.84877
-14.562657,-161.99217
-15.138876,-159.09108
-15.10669,-159.67499
-15.446843,-161.65356
-15.584362,-160.93951
-15.493164,-160.10959
-15.087647,-164.73975
-14.639318,-158.78574
-15.186527,-161.69734
-14.953645,-160.36716
-15.184265,-162.9541
-15.190973,-162.18398
-15.372107,-158.63565
-15.351583,-155.15134
-14.765888,-155.39287
-14.917358,-157.67531
-15.145726,-159.7348
-14.858225,-162.02277
-14.528082,-160.82216
-15.447682,-160.3737
-15.216826,-164.5051
-14.896641,-159.89063
-15.044552,-158.6107
-15.628614,-156.73322
-15.280827,-158.16522
-15.115964,-160.1098
-14.930116,-159.12407
-15.318211,-160.87875
-15.205324,-157.36862
-14.875076,-156.47826
-15.24664,-159.12169
-14.937028,-155.60054
-14.877678,-159.62561
-15.069322,-158.62103
-14.807343,-157.45364
-14.630987,-158.00258
-14.925443,-160.27332
-14.357324,-159.15947
-15.043594,-159.4343
-14.49672,-159.67802
-15.302371,-159.86539
-14.864583,-159.2644
-14.585296,-156.42529
-15.04529,-159.01273
-15.103714,-157.06659
-14.806594,-160.40163
-15.417574,-160.98161
-14.786235,-161.93523
-15.293641,-157.79883
-15.38717,-157.40433
-15.067428,-162.11276
-15.191324,-160.74821
-15.465768,-158.32542
-14.906205,-158.04263
-15.245198,-162.1053
-14.731134,-159.16313
-15.053616,-158.52528
-14.826473,-162.77858
-15.153055,-161.89725
-15.804538,-158.14594
-14.929467,-158.1996
-15.03745,-158.37445
-15.486365,-160.20187
-15.051733,-160.32176
-14.799211,-159.41513
-14.567815,-157.09053
-15.569259,-158.71581
-15.288504,-158.37715
-15.296345,-156.19919
-15.053658,-160.23781
-15.304573,-159.41859
-15.230875,-157.21338
-15.244881,-160.27409
-15.075191,-157.56235
-15.00423,-160.16319
-15.344997,-159.0361
-14.626536,-157.80157
-15.399674,-159.74878
-15.421567,-155.09837
-15.169434,-159.25865
-14.854774,-161.0537
-15.138237,-160.49333
-14.473583,-158.14493
-15.198677,-162.00787
-14.959369,-160.97751
-15.052798,-159.29254
-14.495582,-159.33289
-15.4161,-161.4023
-15.645675,-160.37617
-15.45288,-157.84013
-15.403891,-160.14522
-15.226059,-155.55785
-15.142936,-159.05362
-15.373278,-161.62762
-15.123932,-159.16273
-15.097515,-158.65416
-15.346284,-161.31517
-14.849991,-157.95319
-14.947459,-157.12958
-15.167963,-156.26152
-15.135391,-158.49797
-15.277789,-158.27538
-15.062946,-158.16641
-14.898664,-159.0726
-14.928198,-159.04324
-14.899915,-160.21237
-14.998252,-157.35796
-14.768738,-158.34967
-15.124187,-159.233
-15.089876,-161.82372
-15.231812,-156.90927
-15.387664,-159.91231
-14.893847,-157.24927
-14.862739,-158.3177
-15.385699,-160.95688
-15.121106,-158.41896
-15.180664,-159.69934
-15.154625,-158.10512
-15.195986,-160.65265
-14.812323,-158.27504
-15.042003,-154.87891
-15.121557,-159.57104
-14.760566,-156.83002
-14.686497,-156.87704
-14.781118,-157.65842
-15.015058,-160.34784
-15.113175,-158.96587
-14.824419,-158.90562
-14.660284,-159.82964
-15.219347,-160.66202
-15.138193,-158.15399
-14.808041,-158.07324
-14.919616,-157.54665
-15.24944,-154.90877
-14.870837,-160.1185
-15.116696,-158.29825
-15.033557,-161.68022
-15.792153,-160.3734
-14.989176,-159.38402
-14.960707,-156.00165
-14.862583,-158.02388
-14.976665,-160.03941
-15.1237,-161.07535
-15.163643,-156.84802
-14.989846,-161.39493
-15.470634,-159.049
-15.516731,-161.66362
-15.154377,-163.23253
-14.923132,-158.0526
-14.870697,-157.62971
-15.413404,-163.09247
-15.300133,-158.89629
-14.904902,-158.20084
-14.907225,-158.50674
-14.982788,-160.29948
-15.196666,-157.81531
-14.868547,-159.30884
-15.356922,-158.66638
-15.001822,-159.54735
-15.102479,-160.45001
-14.792487,-159.84897
-15.145261,-160.11238
-14.912538,-157.67995
-14.714267,-159.85248
-14.9169,-158.96957
-15.105535,-159.62772
-15.052297,-157.91542
-15.376327,-158.20879
-15.105703,-158.38866
-15.189376,-159.41859
-15.095387,-157.80379
-15.294979,-158.32622
-15.231376,-157.48831
-14.915842,-160.69711
-15.212224,-159.68481
-15.012755,-160.12794
-14.916665,-158.58086
-15.032218,-160.75729
-14.874683,-158.70833
-15.356887,-158.33626
-15.060903,-155.95682
-15.25491,-158.92902
-15.080869,-158.79053
-15.424114,-157.56494
-15.043439,-159.55199
-14.824647,-160.56306
-14.976509,-159.16148
-15.137015,-161.22504
-15.0477,-157.84874
-14.912064,-158.83817
-14.699301,-159.02785
-14.877782,-159.08096
-15.120208,-159.35875
-15.121865,-158.30595
-15.326237,-159.01517
-15.198853,-157.85983
-15.179852,-161.37354
-14.937093,-159.76349
-14.879524,-158.0916
-14.98061,-157.27586
-14.977824,-155.68307
-15.006021,-158.36597
-14.814058,-157.78929
-14.844669,-161.99992
-14.668528,-161.36771
-15.680486,-157.78424
-15.015675,-159.17514
-15.129349,-158.22885
-15.521417,-160.05089
-15.10717,-158.04567
-14.960971,-156.79388
-15.071155,-157.77286
-14.831432,-157.05771
