CITIFILE A.01.01
!Agilent Technologies,N5230C,MY48100142,A.08.04.10
!Agilent N5230C: A.08.04.10
!Format: LogMag/Angle
!Date: Monday, August 24, 2020 11:08:00
NAME CH1_DATA
VAR Freq MAG 801
DATA S11 DBANGLE
DATA S21 DBANGLE
DATA S12 DBANGLE
DATA S22 DBANGLE
VAR_LIST_BEGIN
2200000000
2213500000
2227000000
2240500000
2254000000
2267500000
2281000000
2294500000
2308000000
2321500000
2335000000
2348500000
2362000000
2375500000
2389000000
2402500000
2416000000
2429500000
2443000000
2456500000
2470000000
2483500000
2497000000
2510500000
2524000000
2537500000
2551000000
2564500000
2578000000
2591500000
2605000000
2618500000
2632000000
2645500000
2659000000
2672500000
2686000000
2699500000
2713000000
2726500000
2740000000
2753500000
2767000000
2780500000
2794000000
2807500000
2821000000
2834500000
2848000000
2861500000
2875000000
2888500000
2902000000
2915500000
2929000000
2942500000
2956000000
2969500000
2983000000
2996500000
3010000000
3023500000
3037000000
3050500000
3064000000
3077500000
3091000000
3104500000
3118000000
3131500000
3145000000
3158500000
3172000000
3185500000
3199000000
3212500000
3226000000
3239500000
3253000000
3266500000
3280000000
3293500000
3307000000
3320500000
3334000000
3347500000
3361000000
3374500000
3388000000
3401500000
3415000000
3428500000
3442000000
3455500000
3469000000
3482500000
3496000000
3509500000
3523000000
3536500000
3550000000
3563500000
3577000000
3590500000
3604000000
3617500000
3631000000
3644500000
3658000000
3671500000
3685000000
3698500000
3712000000
3725500000
3739000000
3752500000
3766000000
3779500000
3793000000
3806500000
3820000000
3833500000
3847000000
3860500000
3874000000
3887500000
3901000000
3914500000
3928000000
3941500000
3955000000
3968500000
3982000000
3995500000
4009000000
4022500000
4036000000
4049500000
4063000000
4076500000
4090000000
4103500000
4117000000
4130500000
4144000000
4157500000
4171000000
4184500000
4198000000
4211500000
4225000000
4238500000
4252000000
4265500000
4279000000
4292500000
4306000000
4319500000
4333000000
4346500000
4360000000
4373500000
4387000000
4400500000
4414000000
4427500000
4441000000
4454500000
4468000000
4481500000
4495000000
4508500000
4522000000
4535500000
4549000000
4562500000
4576000000
4589500000
4603000000
4616500000
4630000000
4643500000
4657000000
4670500000
4684000000
4697500000
4711000000
4724500000
4738000000
4751500000
4765000000
4778500000
4792000000
4805500000
4819000000
4832500000
4846000000
4859500000
4873000000
4886500000
4900000000
4913500000
4927000000
4940500000
4954000000
4967500000
4981000000
4994500000
5008000000
5021500000
5035000000
5048500000
5062000000
5075500000
5089000000
5102500000
5116000000
5129500000
5143000000
5156500000
5170000000
5183500000
5197000000
5210500000
5224000000
5237500000
5251000000
5264500000
5278000000
5291500000
5305000000
5318500000
5332000000
5345500000
5359000000
5372500000
5386000000
5399500000
5413000000
5426500000
5440000000
5453500000
5467000000
5480500000
5494000000
5507500000
5521000000
5534500000
5548000000
5561500000
5575000000
5588500000
5602000000
5615500000
5629000000
5642500000
5656000000
5669500000
5683000000
5696500000
5710000000
5723500000
5737000000
5750500000
5764000000
5777500000
5791000000
5804500000
5818000000
5831500000
5845000000
5858500000
5872000000
5885500000
5899000000
5912500000
5926000000
5939500000
5953000000
5966500000
5980000000
5993500000
6007000000
6020500000
6034000000
6047500000
6061000000
6074500000
6088000000
6101500000
6115000000
6128500000
6142000000
6155500000
6169000000
6182500000
6196000000
6209500000
6223000000
6236500000
6250000000
6263500000
6277000000
6290500000
6304000000
6317500000
6331000000
6344500000
6358000000
6371500000
6385000000
6398500000
6412000000
6425500000
6439000000
6452500000
6466000000
6479500000
6493000000
6506500000
6520000000
6533500000
6547000000
6560500000
6574000000
6587500000
6601000000
6614500000
6628000000
6641500000
6655000000
6668500000
6682000000
6695500000
6709000000
6722500000
6736000000
6749500000
6763000000
6776500000
6790000000
6803500000
6817000000
6830500000
6844000000
6857500000
6871000000
6884500000
6898000000
6911500000
6925000000
6938500000
6952000000
6965500000
6979000000
6992500000
7006000000
7019500000
7033000000
7046500000
7060000000
7073500000
7087000000
7100500000
7114000000
7127500000
7141000000
7154500000
7168000000
7181500000
7195000000
7208500000
7222000000
7235500000
7249000000
7262500000
7276000000
7289500000
7303000000
7316500000
7330000000
7343500000
7357000000
7370500000
7384000000
7397500000
7411000000
7424500000
7438000000
7451500000
7465000000
7478500000
7492000000
7505500000
7519000000
7532500000
7546000000
7559500000
7573000000
7586500000
7600000000
7613500000
7627000000
7640500000
7654000000
7667500000
7681000000
7694500000
7708000000
7721500000
7735000000
7748500000
7762000000
7775500000
7789000000
7802500000
7816000000
7829500000
7843000000
7856500000
7870000000
7883500000
7897000000
7910500000
7924000000
7937500000
7951000000
7964500000
7978000000
7991500000
8005000000
8018500000
8032000000
8045500000
8059000000
8072500000
8086000000
8099500000
8113000000
8126500000
8140000000
8153500000
8167000000
8180500000
8194000000
8207500000
8221000000
8234500000
8248000000
8261500000
8275000000
8288500000
8302000000
8315500000
8329000000
8342500000
8356000000
8369500000
8383000000
8396500000
8410000000
8423500000
8437000000
8450500000
8464000000
8477500000
8491000000
8504500000
8518000000
8531500000
8545000000
8558500000
8572000000
8585500000
8599000000
8612500000
8626000000
8639500000
8653000000
8666500000
8680000000
8693500000
8707000000
8720500000
8734000000
8747500000
8761000000
8774500000
8788000000
8801500000
8815000000
8828500000
8842000000
8855500000
8869000000
8882500000
8896000000
8909500000
8923000000
8936500000
8950000000
8963500000
8977000000
8990500000
9004000000
9017500000
9031000000
9044500000
9058000000
9071500000
9085000000
9098500000
9112000000
9125500000
9139000000
9152500000
9166000000
9179500000
9193000000
9206500000
9220000000
9233500000
9247000000
9260500000
9274000000
9287500000
9301000000
9314500000
9328000000
9341500000
9355000000
9368500000
9382000000
9395500000
9409000000
9422500000
9436000000
9449500000
9463000000
9476500000
9490000000
9503500000
9517000000
9530500000
9544000000
9557500000
9571000000
9584500000
9598000000
9611500000
9625000000
9638500000
9652000000
9665500000
9679000000
9692500000
9706000000
9719500000
9733000000
9746500000
9760000000
9773500000
9787000000
9800500000
9814000000
9827500000
9841000000
9854500000
9868000000
9881500000
9895000000
9908500000
9922000000
9935500000
9949000000
9962500000
9976000000
9989500000
10003000000
10016500000
10030000000
10043500000
10057000000
10070500000
10084000000
10097500000
10111000000
10124500000
10138000000
10151500000
10165000000
10178500000
10192000000
10205500000
10219000000
10232500000
10246000000
10259500000
10273000000
10286500000
10300000000
10313500000
10327000000
10340500000
10354000000
10367500000
10381000000
10394500000
10408000000
10421500000
10435000000
10448500000
10462000000
10475500000
10489000000
10502500000
10516000000
10529500000
10543000000
10556500000
10570000000
10583500000
10597000000
10610500000
10624000000
10637500000
10651000000
10664500000
10678000000
10691500000
10705000000
10718500000
10732000000
10745500000
10759000000
10772500000
10786000000
10799500000
10813000000
10826500000
10840000000
10853500000
10867000000
10880500000
10894000000
10907500000
10921000000
10934500000
10948000000
10961500000
10975000000
10988500000
11002000000
11015500000
11029000000
11042500000
11056000000
11069500000
11083000000
11096500000
11110000000
11123500000
11137000000
11150500000
11164000000
11177500000
11191000000
11204500000
11218000000
11231500000
11245000000
11258500000
11272000000
11285500000
11299000000
11312500000
11326000000
11339500000
11353000000
11366500000
11380000000
11393500000
11407000000
11420500000
11434000000
11447500000
11461000000
11474500000
11488000000
11501500000
11515000000
11528500000
11542000000
11555500000
11569000000
11582500000
11596000000
11609500000
11623000000
11636500000
11650000000
11663500000
11677000000
11690500000
11704000000
11717500000
11731000000
11744500000
11758000000
11771500000
11785000000
11798500000
11812000000
11825500000
11839000000
11852500000
11866000000
11879500000
11893000000
11906500000
11920000000
11933500000
11947000000
11960500000
11974000000
11987500000
12001000000
12014500000
12028000000
12041500000
12055000000
12068500000
12082000000
12095500000
12109000000
12122500000
12136000000
12149500000
12163000000
12176500000
12190000000
12203500000
12217000000
12230500000
12244000000
12257500000
12271000000
12284500000
12298000000
12311500000
12325000000
12338500000
12352000000
12365500000
12379000000
12392500000
12406000000
12419500000
12433000000
12446500000
12460000000
12473500000
12487000000
12500500000
12514000000
12527500000
12541000000
12554500000
12568000000
12581500000
12595000000
12608500000
12622000000
12635500000
12649000000
12662500000
12676000000
12689500000
12703000000
12716500000
12730000000
12743500000
12757000000
12770500000
12784000000
12797500000
12811000000
12824500000
12838000000
12851500000
12865000000
12878500000
12892000000
12905500000
12919000000
12932500000
12946000000
12959500000
12973000000
12986500000
13000000000
VAR_LIST_END
BEGIN
-16.93961,130.50421
-16.732841,78.601608
-16.250866,29.620277
-15.820226,-16.901575
-15.687089,-62.75597
-16.052776,-108.55526
-16.466925,-156.95442
-16.644161,152.90706
-16.404869,101.8508
-15.980638,53.388199
-15.729813,7.1250205
-15.793756,-38.092876
-16.190554,-84.959427
-16.597252,-134.03717
-16.714766,173.79291
-16.382696,122.3252
-15.775293,74.654305
-15.366331,29.752485
-15.423152,-14.807072
-15.988942,-60.27816
-16.754543,-109.87383
-17.09868,-163.1593
-16.521296,143.70975
-15.637363,94.525429
-15.066163,49.833481
-15.06666,7.0193148
-15.645801,-36.42952
-16.566397,-84.499313
-17.192286,-139.1693
-16.907175,164.98537
-15.827457,114.18626
-14.991924,69.900772
-14.612443,28.325651
-15.07544,-13.740452
-16.184816,-59.603367
-17.359161,-112.84252
-17.40517,-171.20454
-16.214258,134.46115
-14.941762,88.270699
-14.322505,46.865467
-14.47518,6.5303774
-15.463912,-36.055859
-16.93432,-85.89315
-17.832638,-144.757
-16.825642,156.37234
-15.193515,107.42479
-14.176193,65.533989
-13.964392,26.124325
-14.686984,-14.04728
-16.11772,-59.477787
-17.639162,-115.10179
-17.415014,-177.38237
-15.803331,128.37354
-14.332531,84.180771
-13.727031,44.941891
-13.966847,6.0019631
-15.246325,-35.848377
-17.101528,-86.882317
-17.952015,-148.6042
-16.639999,150.84052
-14.697407,102.98811
-13.612083,62.440292
-13.482816,24.228388
-14.347489,-14.654625
-16.012503,-59.809509
-17.795393,-116.53622
-17.449705,179.01762
-15.579648,124.43275
-14.018973,81.110497
-13.364493,42.43597
-13.684996,4.0947838
-14.966544,-37.716938
-16.862011,-87.993309
-17.748667,-150.27933
-16.370405,149.80713
-14.48844,101.35014
-13.469088,60.411877
-13.36589,22.08268
-14.186511,-17.300997
-15.743941,-62.734634
-17.294075,-119.19942
-17.014864,177.38808
-15.238638,124.0036
-13.849918,79.870438
-13.28885,40.369465
-13.617968,1.2617512
-14.752581,-40.689072
-16.335354,-91.190811
-16.960829,-151.14833
-15.873493,150.18576
-14.344674,101.95606
-13.419326,60.312668
-13.277367,20.702057
-13.921822,-19.802357
-15.187655,-65.745491
-16.400154,-120.32224
-16.32826,-179.06386
-15.049033,127.93752
-13.840287,82.679176
-13.370404,40.60582
-13.656191,-0.5719083
-14.611624,-43.917507
-15.682123,-93.274666
-16.090425,-149.38493
-15.429535,155.15759
-14.425886,106.02372
-13.798493,62.597885
-13.640521,21.559093
-14.050686,-21.506056
-14.909626,-68.676331
-15.656469,-121.1396
-15.684791,-175.63911
-14.947989,132.91245
-14.128596,86.451736
-13.767528,42.800503
-13.934197,-0.24739724
-14.501683,-45.699673
-15.119229,-94.150261
-15.433401,-146.74367
-15.18977,161.17485
-14.574112,112.02004
-14.183444,65.838799
-14.036105,21.553259
-14.278497,-23.472937
-14.691682,-70.237701
-15.032218,-119.285
-15.095939,-170.33673
-14.944983,139.60365
-14.710673,91.770287
-14.513481,45.74155
-14.366101,0.07900203
-14.411533,-47.048328
-14.730371,-94.870697
-14.954292,-143.2984
-15.102085,168.27458
-15.004013,119.67758
-14.847251,70.526154
-14.690646,21.903147
-14.693882,-25.380417
-14.683098,-71.389908
-14.680272,-116.85099
-14.815804,-163.71748
-15.168584,147.59311
-15.529581,98.71106
-15.520088,49.17918
-15.269272,0.035857186
-14.824345,-47.710617
-14.626438,-93.611244
-14.769976,-138.14412
-15.125305,176.75096
-15.603574,129.07689
-15.946684,78.065369
-15.90652,26.180857
-15.405549,-23.323301
-14.86285,-69.171661
-14.593883,-113.16515
-14.818945,-157.04279
-15.509601,157.17479
-16.28966,107.50135
-16.635195,54.314423
-16.125196,1.8786743
-15.29863,-46.506912
-14.705743,-90.718819
-14.699327,-132.81828
-15.266673,-175.77463
-16.282085,136.92941
-17.196947,84.417053
-17.139242,29.280687
-16.217524,-21.848692
-15.277185,-67.851158
-14.878417,-109.94794
-15.172077,-151.06349
-16.043993,165.22609
-17.264297,115.2491
-17.80748,59.276604
-17.226284,4.235373
-16.035322,-44.135868
-15.235554,-86.227951
-15.145265,-127.34305
-15.927389,-169.6431
-17.304108,144.04904
-18.444242,89.553841
-18.198038,31.984762
-16.853342,-20.286686
-15.767001,-64.686874
-15.418722,-104.91489
-15.877641,-144.57324
-17.016745,172.12479
-18.553444,121.49345
-19.092047,62.292206
-18.099279,5.9930763
-16.699722,-40.487041
-15.82155,-81.426949
-15.893126,-121.03538
-16.911177,-162.04889
-18.549116,150.94925
-19.820076,94.955048
-19.300392,34.786495
-17.719763,-15.525123
-16.629814,-58.523815
-16.389935,-97.493134
-17.049194,-136.74223
-18.565405,179.11609
-20.352781,124.93032
-20.502247,63.472824
-18.891886,8.7370195
-17.45586,-35.233318
-16.814787,-74.467125
-17.305107,-112.43266
-18.75728,-153.16942
-20.94453,157.0668
-22.092226,93.904579
-20.5769,31.944027
-18.619974,-14.77934
-17.565676,-54.15432
-17.611837,-91.271973
-18.679178,-129.90282
-20.961826,-175.26802
-22.916031,124.71009
-22.1495,58.570831
-19.895994,7.651237
-18.401878,-33.11182
-18.080231,-69.561714
-18.906378,-106.28342
-20.925278,-148.37325
-23.409245,155.28436
-23.68116,85.950279
-21.216379,30.115561
-19.340729,-11.266604
-18.54215,-47.753796
-19.119673,-83.062973
-21.075411,-122.45804
-24.194403,-172.97105
-25.686672,115.33647
-22.817619,50.959503
-20.289175,8.01649
-19.18453,-27.861197
-19.41848,-61.78756
-20.921797,-96.682381
-24.132721,-141.35016
-27.261829,147.25548
-24.705837,72.83918
-21.482519,26.93059
-19.695274,-7.8371325
-19.399086,-39.557774
-20.637392,-72.107689
-23.512333,-109.676
-28.632318,-167.3885
-28.153728,97.253716
-23.277802,43.786598
-20.547045,8.4208364
-19.60581,-21.672535
-20.237555,-51.714352
-22.364674,-84.270203
-27.017393,-125.52383
-31.853298,143.80894
-26.301338,64.944008
-22.347691,27.196056
-20.659204,-3.7170842
-20.688398,-32.109226
-22.182592,-62.01786
-25.987461,-94.856651
-33.263512,-162.26515
-29.864292,88.323357
-24.284578,44.66362
-21.827892,14.905313
-21.118752,-12.563082
-22.144541,-39.921829
-24.855894,-67.538437
-31.807381,-104.81284
-36.637329,104.82793
-26.773569,57.693264
-22.931665,28.748577
-21.664989,2.3816769
-21.873434,-23.064404
-23.832689,-48.324512
-28.344128,-76.187729
-41.173168,-139.26291
-31.14929,75.766205
-25.321449,45.276451
-22.910769,19.241438
-22.507593,-5.9926281
-23.652311,-30.820173
-26.922197,-56.438965
-35.134132,-92.672318
-35.859108,100.00285
-27.271038,63.645931
-23.912495,37.91597
-22.528046,12.016972
-22.810232,-13.244481
-24.655006,-38.920761
-28.638258,-68.925247
-38.064522,-129.3045
-33.130795,103.55592
-27.043278,65.155266
-24.486368,37.78162
-23.92905,10.519283
-24.813099,-15.672766
-27.741255,-44.455887
-33.948933,-87.605209
-37.49054,149.54767
-29.220985,90.669304
-25.707857,59.689461
-24.374435,31.230669
-24.441263,2.8485076
-26.080933,-29.149544
-29.43162,-68.080627
-32.684811,-135.31227
-30.350531,148.71857
-26.956001,102.76213
-25.035215,67.859047
-24.559404,35.14526
-25.509285,1.9148871
-27.731411,-36.436951
-30.666107,-92.004166
-30.584875,-165.0629
-27.655092,142.72173
-25.59408,103.72973
-25.089027,67.088348
-25.497194,32.679028
-27.302031,-7.8223391
-29.624723,-63.199726
-29.266724,-129.97673
-26.72381,177.40717
-24.857382,136.85556
-24.097937,101.94349
-24.898882,66.737076
-26.687674,26.077465
-29.667284,-30.222519
-29.061144,-103.13596
-25.886759,-157.57269
-23.718809,164.03508
-22.805635,130.4369
-23.22625,96.95594
-25.097019,60.226894
-28.687231,9.2667046
-29.704819,-70.915871
-25.887217,-132.96587
-22.753099,-172.82585
-21.288195,153.44839
-21.195505,123.08756
-22.633427,90.427704
-26.022936,50.712208
-30.435617,-18.953394
-27.263645,-104.26589
-22.862579,-150.39029
-20.557299,177.12115
-19.862923,146.48068
-20.584599,116.81114
-23.004007,83.148415
-28.320026,34.747047
-30.014364,-69.13089
-23.829182,-128.72954
-20.337358,-163.99951
-18.762138,166.20851
-18.702242,137.59984
-20.172087,107.6662
-23.813324,71.887093
-30.707308,7.0895119
-27.073593,-98.243271
-21.597675,-142.98123
-18.966164,-174.54677
-18.238569,156.70346
-18.894884,127.68939
-21.354204,97.115944
-26.765862,52.986626
-30.324043,-56.507599
-23.027328,-121.24026
-19.195032,-155.60132
-17.586966,175.06964
-17.459227,147.27716
-18.854807,118.31264
-22.339634,85.094009
-29.548365,22.755711
-26.668272,-89.906799
-20.863972,-134.7188
-18.001547,-165.6312
-17.094284,165.39009
-17.70541,136.9101
-19.996153,105.84502
-24.943285,65.233696
-30.107351,-34.839729
-22.936451,-109.49257
-18.961241,-145.50203
-17.21055,-174.98666
-16.993727,157.07819
-18.252792,127.90347
-21.565331,95.114258
-28.579117,41.008747
-27.243109,-77.425056
-20.810644,-126.02639
-17.937071,-158.04921
-16.916319,172.97134
-17.41061,143.84889
-19.543833,113.18052
-24.087824,71.148682
-29.133762,-19.842049
-23.117989,-99.467628
-18.978247,-137.2215
-17.135532,-168.34467
-16.802111,162.15567
-17.87534,130.99985
-20.692759,95.65979
-25.803278,39.771378
-25.855959,-52.455387
-20.944887,-109.14327
-18.177816,-146.12828
-17.097937,-177.84975
-17.563646,150.4592
-19.298479,117.13762
-22.848623,73.685524
-26.167021,-0.72894108
-23.237808,-76.274902
-19.737284,-121.36722
-17.985441,-157.39076
-17.736874,169.37241
-18.73428,135.69522
-20.978785,95.409004
-24.267603,38.301418
-24.0842,-36.954716
-21.03801,-93.158691
-18.972137,-133.74756
-18.198566,-168.78282
-18.634604,156.07251
-20.131338,116.78066
-22.617241,67.017967
-24.121351,3.0763664
-22.40757,-58.796558
-20.227371,-104.88353
-19.15239,-143.89755
-19.188496,178.59647
-20.382446,140.13466
-22.284554,94.206139
-23.913853,37.871269
-23.360588,-23.962587
-21.692026,-75.865875
-20.741505,-118.23059
-20.746876,-158.30864
-21.453899,161.67729
-22.888405,115.17453
-23.820141,60.460262
-23.722195,3.4342604
