CITIFILE A.01.01
!Agilent Technologies,N5230C,MY48100142,A.08.04.10
!Agilent N5230C: A.08.04.10
!Format: LogMag/Angle
!Date: Monday, August 24, 2020 11:08:37
NAME CH1_DATA
VAR Power MAG 801
DATA S11 DBANGLE
DATA S21 DBANGLE
DATA S12 DBANGLE
DATA S22 DBANGLE
VAR_LIST_BEGIN
-40
-39.975
-39.95
-39.925
-39.9
-39.875
-39.85
-39.825
-39.8
-39.775
-39.75
-39.725
-39.7
-39.675
-39.65
-39.625
-39.6
-39.575
-39.55
-39.525
-39.5
-39.475
-39.45
-39.425
-39.4
-39.375
-39.35
-39.325
-39.3
-39.275
-39.25
-39.225
-39.2
-39.175
-39.15
-39.125
-39.1
-39.075
-39.05
-39.025
-39
-38.975
-38.95
-38.925
-38.9
-38.875
-38.85
-38.825
-38.8
-38.775
-38.75
-38.725
-38.7
-38.675
-38.65
-38.625
-38.6
-38.575
-38.55
-38.525
-38.5
-38.475
-38.45
-38.425
-38.4
-38.375
-38.35
-38.325
-38.3
-38.275
-38.25
-38.225
-38.2
-38.175
-38.15
-38.125
-38.1
-38.075
-38.05
-38.025
-38
-37.975
-37.95
-37.925
-37.9
-37.875
-37.85
-37.825
-37.8
-37.775
-37.75
-37.725
-37.7
-37.675
-37.65
-37.625
-37.6
-37.575
-37.55
-37.525
-37.5
-37.475
-37.45
-37.425
-37.4
-37.375
-37.35
-37.325
-37.3
-37.275
-37.25
-37.225
-37.2
-37.175
-37.15
-37.125
-37.1
-37.075
-37.05
-37.025
-37
-36.975
-36.95
-36.925
-36.9
-36.875
-36.85
-36.825
-36.8
-36.775
-36.75
-36.725
-36.7
-36.675
-36.65
-36.625
-36.6
-36.575
-36.55
-36.525
-36.5
-36.475
-36.45
-36.425
-36.4
-36.375
-36.35
-36.325
-36.3
-36.275
-36.25
-36.225
-36.2
-36.175
-36.15
-36.125
-36.1
-36.075
-36.05
-36.025
-36
-35.975
-35.95
-35.925
-35.9
-35.875
-35.85
-35.825
-35.8
-35.775
-35.75
-35.725
-35.7
-35.675
-35.65
-35.625
-35.6
-35.575
-35.55
-35.525
-35.5
-35.475
-35.45
-35.425
-35.4
-35.375
-35.35
-35.325
-35.3
-35.275
-35.25
-35.225
-35.2
-35.175
-35.15
-35.125
-35.1
-35.075
-35.05
-35.025
-35
-34.975
-34.95
-34.925
-34.9
-34.875
-34.85
-34.825
-34.8
-34.775
-34.75
-34.725
-34.7
-34.675
-34.65
-34.625
-34.6
-34.575
-34.55
-34.525
-34.5
-34.475
-34.45
-34.425
-34.4
-34.375
-34.35
-34.325
-34.3
-34.275
-34.25
-34.225
-34.2
-34.175
-34.15
-34.125
-34.1
-34.075
-34.05
-34.025
-34
-33.975
-33.95
-33.925
-33.9
-33.875
-33.85
-33.825
-33.8
-33.775
-33.75
-33.725
-33.7
-33.675
-33.65
-33.625
-33.6
-33.575
-33.55
-33.525
-33.5
-33.475
-33.45
-33.425
-33.4
-33.375
-33.35
-33.325
-33.3
-33.275
-33.25
-33.225
-33.2
-33.175
-33.15
-33.125
-33.1
-33.075
-33.05
-33.025
-33
-32.975
-32.95
-32.925
-32.9
-32.875
-32.85
-32.825
-32.8
-32.775
-32.75
-32.725
-32.7
-32.675
-32.65
-32.625
-32.6
-32.575
-32.55
-32.525
-32.5
-32.475
-32.45
-32.425
-32.4
-32.375
-32.35
-32.325
-32.3
-32.275
-32.25
-32.225
-32.2
-32.175
-32.15
-32.125
-32.1
-32.075
-32.05
-32.025
-32
-31.975
-31.95
-31.925
-31.9
-31.875
-31.85
-31.825
-31.8
-31.775
-31.75
-31.725
-31.7
-31.675
-31.65
-31.625
-31.6
-31.575
-31.55
-31.525
-31.5
-31.475
-31.45
-31.425
-31.4
-31.375
-31.35
-31.325
-31.3
-31.275
-31.25
-31.225
-31.2
-31.175
-31.15
-31.125
-31.1
-31.075
-31.05
-31.025
-31
-30.975
-30.95
-30.925
-30.9
-30.875
-30.85
-30.825
-30.8
-30.775
-30.75
-30.725
-30.7
-30.675
-30.65
-30.625
-30.6
-30.575
-30.55
-30.525
-30.5
-30.475
-30.45
-30.425
-30.4
-30.375
-30.35
-30.325
-30.3
-30.275
-30.25
-30.225
-30.2
-30.175
-30.15
-30.125
-30.1
-30.075
-30.05
-30.025
-30
-29.975
-29.95
-29.925
-29.9
-29.875
-29.85
-29.825
-29.8
-29.775
-29.75
-29.725
-29.7
-29.675
-29.65
-29.625
-29.6
-29.575
-29.55
-29.525
-29.5
-29.475
-29.45
-29.425
-29.4
-29.375
-29.35
-29.325
-29.3
-29.275
-29.25
-29.225
-29.2
-29.175
-29.15
-29.125
-29.1
-29.075
-29.05
-29.025
-29
-28.975
-28.95
-28.925
-28.9
-28.875
-28.85
-28.825
-28.8
-28.775
-28.75
-28.725
-28.7
-28.675
-28.65
-28.625
-28.6
-28.575
-28.55
-28.525
-28.5
-28.475
-28.45
-28.425
-28.4
-28.375
-28.35
-28.325
-28.3
-28.275
-28.25
-28.225
-28.2
-28.175
-28.15
-28.125
-28.1
-28.075
-28.05
-28.025
-28
-27.975
-27.95
-27.925
-27.9
-27.875
-27.85
-27.825
-27.8
-27.775
-27.75
-27.725
-27.7
-27.675
-27.65
-27.625
-27.6
-27.575
-27.55
-27.525
-27.5
-27.475
-27.45
-27.425
-27.4
-27.375
-27.35
-27.325
-27.3
-27.275
-27.25
-27.225
-27.2
-27.175
-27.15
-27.125
-27.1
-27.075
-27.05
-27.025
-27
-26.975
-26.95
-26.925
-26.9
-26.875
-26.85
-26.825
-26.8
-26.775
-26.75
-26.725
-26.7
-26.675
-26.65
-26.625
-26.6
-26.575
-26.55
-26.525
-26.5
-26.475
-26.45
-26.425
-26.4
-26.375
-26.35
-26.325
-26.3
-26.275
-26.25
-26.225
-26.2
-26.175
-26.15
-26.125
-26.1
-26.075
-26.05
-26.025
-26
-25.975
-25.95
-25.925
-25.9
-25.875
-25.85
-25.825
-25.8
-25.775
-25.75
-25.725
-25.7
-25.675
-25.65
-25.625
-25.6
-25.575
-25.55
-25.525
-25.5
-25.475
-25.45
-25.425
-25.4
-25.375
-25.35
-25.325
-25.3
-25.275
-25.25
-25.225
-25.2
-25.175
-25.15
-25.125
-25.1
-25.075
-25.05
-25.025
-25
-24.975
-24.95
-24.925
-24.9
-24.875
-24.85
-24.825
-24.8
-24.775
-24.75
-24.725
-24.7
-24.675
-24.65
-24.625
-24.6
-24.575
-24.55
-24.525
-24.5
-24.475
-24.45
-24.425
-24.4
-24.375
-24.35
-24.325
-24.3
-24.275
-24.25
-24.225
-24.2
-24.175
-24.15
-24.125
-24.1
-24.075
-24.05
-24.025
-24
-23.975
-23.95
-23.925
-23.9
-23.875
-23.85
-23.825
-23.8
-23.775
-23.75
-23.725
-23.7
-23.675
-23.65
-23.625
-23.6
-23.575
-23.55
-23.525
-23.5
-23.475
-23.45
-23.425
-23.4
-23.375
-23.35
-23.325
-23.3
-23.275
-23.25
-23.225
-23.2
-23.175
-23.15
-23.125
-23.1
-23.075
-23.05
-23.025
-23
-22.975
-22.95
-22.925
-22.9
-22.875
-22.85
-22.825
-22.8
-22.775
-22.75
-22.725
-22.7
-22.675
-22.65
-22.625
-22.6
-22.575
-22.55
-22.525
-22.5
-22.475
-22.45
-22.425
-22.4
-22.375
-22.35
-22.325
-22.3
-22.275
-22.25
-22.225
-22.2
-22.175
-22.15
-22.125
-22.1
-22.075
-22.05
-22.025
-22
-21.975
-21.95
-21.925
-21.9
-21.875
-21.85
-21.825
-21.8
-21.775
-21.75
-21.725
-21.7
-21.675
-21.65
-21.625
-21.6
-21.575
-21.55
-21.525
-21.5
-21.475
-21.45
-21.425
-21.4
-21.375
-21.35
-21.325
-21.3
-21.275
-21.25
-21.225
-21.2
-21.175
-21.15
-21.125
-21.1
-21.075
-21.05
-21.025
-21
-20.975
-20.95
-20.925
-20.9
-20.875
-20.85
-20.825
-20.8
-20.775
-20.75
-20.725
-20.7
-20.675
-20.65
-20.625
-20.6
-20.575
-20.55
-20.525
-20.5
-20.475
-20.45
-20.425
-20.4
-20.375
-20.35
-20.325
-20.3
-20.275
-20.25
-20.225
-20.2
-20.175
-20.15
-20.125
-20.1
-20.075
-20.05
-20.025
-20
VAR_LIST_END
BEGIN
-15.746049,-157.09119
-15.762058,-160.96216
-14.583302,-164.73433
-14.716049,-159.75087
-15.063563,-156.77411
-15.610023,-161.31439
-14.710643,-160.0305
-16.161058,-161.28413
-15.676408,-160.0929
-15.097486,-157.18452
-15.467526,-162.25319
-14.622075,-163.56279
-14.765618,-161.20044
-15.190118,-158.58492
-15.497268,-158.76512
-14.220862,-158.38799
-14.902255,-152.66829
-14.44786,-161.4335
-15.364758,-162.79028
-15.260256,-161.30611
-14.533119,-159.94904
-15.232698,-159.97917
-15.088414,-157.20331
-14.642246,-159.17587
-14.735114,-160.2596
-15.179672,-159.869
-15.667992,-157.59216
-15.047835,-157.38182
-15.374327,-158.66566
-15.523117,-160.87958
-14.672883,-160.22147
-14.792397,-161.12256
-14.918183,-160.52048
-15.040815,-158.00577
-14.593815,-159.02168
-14.738332,-157.07632
-15.159925,-158.16542
-14.459209,-159.12901
-14.938611,-150.61205
-14.502097,-158.58902
-14.850661,-155.50423
-14.750132,-158.63681
-15.123257,-159.35165
-14.400536,-164.85159
-15.32988,-157.68294
-15.517868,-158.69907
-15.796384,-161.91185
-14.766887,-160.15364
-14.835422,-157.78441
-15.010489,-159.73662
-15.623647,-162.12523
-15.629838,-156.48842
-15.429508,-158.33182
-15.43789,-155.97975
-15.18861,-162.4407
-16.015108,-156.86742
-15.022971,-162.36882
-14.989356,-159.12451
-15.225398,-154.80727
-15.247832,-163.7986
-15.602514,-158.8165
-14.681498,-157.436
-14.842552,-158.91869
-15.8019,-155.5793
-14.666324,-163.33282
-15.324118,-157.44997
-15.027971,-160.03091
-15.466482,-159.33656
-15.137774,-161.73134
-15.46986,-153.73724
-15.028928,-161.59291
-15.428271,-159.6812
-14.473728,-155.53415
-15.103339,-164.95113
-14.815407,-157.85728
-15.160353,-159.12401
-15.164592,-154.52554
-15.417695,-162.01968
-15.691575,-155.78476
-16.174089,-159.94241
-14.551339,-158.6384
-15.228821,-155.32704
-15.037671,-156.67157
-14.957824,-158.09196
-14.952721,-160.2578
-15.282274,-160.94557
-14.88819,-160.47826
-15.340245,-159.44878
-14.889459,-152.05249
-14.728145,-160.58998
-14.708096,-157.86484
-14.680061,-161.30794
-15.179808,-160.69872
-15.009805,-154.07739
-14.732146,-161.30083
-14.505941,-157.94879
-14.877061,-159.91409
-14.811994,-158.00597
-15.737694,-159.10468
-15.143771,-151.97281
-14.800925,-156.33562
-15.529092,-159.67122
-15.38851,-162.63658
-15.106485,-160.28656
-14.810203,-155.13927
-14.894217,-160.11226
-15.05175,-158.92451
-14.669922,-158.91095
-15.548423,-162.04488
-15.498615,-154.03453
-15.302989,-164.71405
-15.173568,-159.00813
-15.409691,-158.29761
-15.7567,-164.0125
-15.887117,-157.38924
-14.936512,-158.36444
-14.612203,-162.41646
-15.490698,-158.92734
-15.259708,-158.9016
-15.675983,-157.85423
-14.321394,-159.92963
-15.104694,-160.69139
-14.914333,-158.84224
-15.121239,-159.66502
-14.953853,-161.77623
-15.142655,-158.00079
-14.922226,-157.62663
-14.935186,-159.56462
-14.148287,-157.59503
-15.213824,-155.1562
-15.402905,-160.49722
-14.925961,-162.74921
-14.802808,-156.0701
-14.951723,-155.02669
-15.019379,-156.94565
-14.914067,-155.86867
-14.940901,-158.34924
-14.581742,-157.77248
-15.179271,-162.65874
-15.489961,-156.97253
-14.765374,-159.3278
-15.21266,-157.96991
-14.397322,-158.38028
-15.166451,-160.09886
-15.450548,-159.97276
-15.275239,-159.09099
-15.098668,-160.22665
-15.186115,-159.68144
-14.784216,-160.37523
-15.207639,-157.38541
-14.959309,-158.05931
-14.541299,-158.62061
-15.591514,-159.13771
-14.925759,-160.05637
-14.754401,-161.33096
-15.196497,-162.24055
-15.249556,-160.11925
-15.703394,-161.01109
-14.835238,-157.49753
-14.358418,-159.64003
-14.770864,-156.75864
-15.506066,-155.60736
-15.384322,-159.86316
-15.140823,-158.56671
-15.205452,-156.02655
-15.124415,-159.20157
-15.10607,-161.4825
-14.819923,-160.6787
-14.725896,-157.98947
-14.395627,-160.46236
-15.687554,-155.27603
-15.504947,-155.76031
-14.914209,-159.86644
-15.188384,-159.12085
-14.536178,-158.4001
-15.26571,-159.68472
-14.809933,-159.83286
-15.247195,-157.8385
-15.124169,-157.78191
-15.034038,-160.50386
-14.850718,-159.69855
-15.064574,-156.33414
-14.946956,-155.7018
-14.975682,-159.15266
-15.061421,-159.61177
-15.350815,-160.73285
-14.923039,-161.97176
-15.200248,-159.14314
-15.136841,-159.01561
-14.944291,-156.75725
-15.043899,-159.49394
-15.342457,-158.03418
-15.116239,-158.34445
-14.940036,-157.15765
-14.799851,-159.07556
-14.982378,-157.71326
-14.884328,-160.76112
-15.428391,-160.48215
-15.131219,-160.84303
-15.438713,-157.41769
-14.67296,-162.36885
-14.854712,-158.02419
-15.434496,-159.64088
-15.318165,-158.68011
-15.139359,-157.63521
-14.973615,-159.35199
-15.450573,-159.98674
-15.333965,-158.46577
-15.174359,-161.15198
-15.591554,-159.924
-14.774066,-157.75453
-14.765165,-158.14595
-14.54886,-158.7029
-14.639766,-157.33485
-15.471259,-161.8324
-15.085449,-159.40422
-15.256492,-160.50388
-15.030903,-158.45087
-14.8692,-159.85286
-15.192235,-158.10025
-15.303487,-156.5274
-15.236154,-157.42903
-15.134143,-156.64397
-15.305764,-157.99934
-14.980303,-160.09946
-15.148856,-161.6633
-14.810973,-159.51428
-15.121406,-156.75433
-15.283695,-161.16797
-14.914096,-162.61008
-14.982154,-158.27336
-15.018803,-160.39598
-15.001073,-164.0731
-15.289372,-160.65694
-14.64906,-158.76915
-15.226793,-161.17236
-15.212985,-158.60324
-14.935235,-159.63246
-15.813285,-159.67548
-15.234703,-161.99196
-15.016661,-159.8123
-15.416935,-158.53337
-15.281776,-162.51698
-15.467664,-161.25581
-15.119988,-157.80211
-14.709788,-159.85895
-15.222344,-157.71094
-15.258781,-160.27373
-15.092408,-161.38205
-14.841844,-160.64149
-15.258677,-155.08643
-14.680836,-158.19928
-14.734719,-159.19234
-14.834044,-159.68794
-15.130169,-158.98105
-14.697618,-160.21765
-14.800376,-162.43732
-14.765725,-159.46642
-15.10076,-160.67072
-14.63076,-159.43941
-14.974088,-158.21082
-14.687024,-159.44884
-15.125935,-157.23227
-14.916434,-160.08826
-15.070588,-160.03214
-15.338108,-161.04182
-14.746797,-159.36037
-14.843443,-159.32999
-14.670284,-161.0631
-15.210592,-157.59247
-15.068342,-156.49042
-14.979745,-160.84247
-15.627189,-159.58713
-15.266198,-158.80788
-15.200492,-157.8959
-14.998501,-159.34483
-14.996866,-159.65623
-14.76965,-159.26974
-14.763337,-157.28905
-15.464891,-161.40044
-15.046494,-162.00664
-15.274274,-160.74933
-15.109102,-159.93277
-14.961738,-158.40904
-15.095068,-160.63501
-14.765051,-157.54953
-15.046924,-160.73343
-14.903124,-159.08302
-14.790914,-157.95029
-15.122343,-159.03107
-15.1265,-160.97987
-15.288794,-158.16496
-14.9928,-158.36922
-15.241097,-160.3799
-14.60863,-160.47794
-14.874436,-160.12488
-15.090769,-158.46681
-15.46606,-160.62093
-14.918755,-158.26117
-14.8556,-161.75151
-14.954895,-158.32068
-15.297501,-160.95514
-15.120304,-161.42177
-15.274466,-160.4525
-14.629686,-160.07579
-15.304589,-161.03949
-15.293196,-159.34515
-14.781157,-159.23964
-15.058197,-158.56451
-14.446462,-156.41838
-14.679482,-157.81844
-15.178741,-160.21275
-15.513153,-159.73801
-14.89612,-157.25212
-15.321777,-159.27579
-14.842843,-160.50888
-15.714664,-156.58786
-14.86021,-161.68555
-15.203242,-160.34105
-14.992916,-160.26694
-14.997328,-159.45428
-14.775613,-158.17014
-15.009223,-158.04556
-14.748766,-160.28102
-15.346302,-159.97353
-15.216933,-157.0136
-15.261373,-158.95929
-14.743914,-159.43835
-14.692629,-158.91902
-15.196292,-158.79182
-15.333145,-158.91536
-15.213337,-159.60408
-15.338591,-158.89742
-15.078894,-160.65465
-14.595899,-159.36063
-14.884127,-159.98489
-14.939246,-158.79933
-14.872873,-160.13864
-14.816538,-159.99652
-15.22017,-159.38095
-15.455411,-159.81099
-14.871536,-161.82191
-15.010091,-158.45889
-14.97958,-159.22075
-15.231712,-158.91966
-14.853763,-159.21761
-14.941363,-158.61475
-15.120133,-158.98442
-14.892565,-159.69345
-15.191889,-160.0658
-15.084444,-157.89665
-15.095027,-160.41641
-15.054888,-159.72714
-15.235719,-159.11426
-15.071521,-158.67053
-15.161692,-158.11475
-15.135394,-157.93115
-15.416642,-158.26485
-15.26916,-159.06715
-15.017205,-159.26436
-14.862752,-158.87515
-14.82525,-157.91747
-15.111626,-158.19588
-14.968795,-158.54901
-15.152821,-159.3714
-15.135612,-158.12265
-15.175908,-159.16931
-15.323658,-157.5941
-15.335814,-161.43898
-15.028977,-158.7428
-15.119121,-157.5945
-15.254523,-159.30055
-14.933656,-160.53717
-15.238861,-160.4231
-15.189677,-159.03305
-15.119422,-159.83542
-15.029043,-157.5621
-15.33383,-160.69083
-15.144217,-158.55406
-15.193174,-157.56236
-15.204467,-160.21202
-15.550101,-159.79517
-14.948715,-157.96492
-15.32713,-158.28984
-14.934753,-157.97179
-15.111814,-159.76526
-15.023146,-158.95271
-14.957964,-158.42084
-14.922808,-156.21165
-15.003765,-157.9986
-15.137198,-158.76871
-15.064775,-161.28729
-15.065998,-159.17949
-14.735656,-158.2157
-15.055174,-158.66125
-14.827836,-158.16293
-15.085269,-157.86395
-15.00464,-162.59787
-14.910496,-160.46117
-14.744628,-159.46184
-14.955465,-159.99304
-14.982094,-158.62793
-15.07105,-158.79703
-15.078379,-157.04453
-15.081186,-159.05486
-15.07194,-159.71075
-15.207006,-161.047
-15.135912,-158.97552
-15.27474,-159.61424
-15.070517,-159.58159
-14.939074,-161.04021
-14.887455,-159.98587
-15.012664,-159.44145
-14.823438,-156.93797
-15.292788,-158.21466
-15.221553,-160.06488
-15.099884,-158.87268
-15.200152,-159.24347
-15.054217,-160.03551
-14.830674,-158.11786
-15.093899,-158.25365
-14.828404,-158.21339
-15.250785,-159.05716
-15.029272,-159.32324
-15.031839,-160.28557
-14.795354,-157.9308
-15.24212,-160.80559
-14.909513,-157.99286
-14.815467,-158.19313
-15.16186,-159.66129
-15.131106,-159.39018
-15.454855,-158.91798
-14.857567,-160.99089
-15.223585,-160.43742
-14.954468,-157.97945
-15.22655,-157.29706
-14.941172,-160.06848
-15.149832,-159.73413
-15.008881,-159.91289
-15.204142,-158.37268
-14.76396,-159.70224
-14.916881,-159.08099
-14.981475,-159.5105
-14.967302,-159.83365
-15.019267,-157.40738
-14.958883,-161.79395
-15.298896,-158.60941
-15.132842,-159.97316
-14.973618,-159.94328
-15.116482,-159.7684
-14.916004,-159.16685
-15.008853,-160.25716
-14.807891,-158.63918
-15.095922,-159.16846
-14.902232,-157.84326
-15.211792,-157.58679
-15.093467,-159.54608
-15.009294,-159.21437
-15.178598,-156.72556
-15.058694,-159.1664
-14.897751,-159.9164
-15.414348,-160.63564
-14.953651,-159.03786
-14.838867,-159.67549
-15.013213,-158.66243
-14.95983,-158.74765
-15.095288,-160.68834
-15.239691,-159.85118
-15.022458,-158.34352
-15.248383,-159.42104
-15.00372,-159.20886
-15.359728,-159.89186
-15.077506,-158.45105
-14.99193,-158.58661
-14.931255,-159.6339
-14.949862,-157.40556
-15.015961,-158.2204
-14.733115,-160.58395
-14.883178,-159.49605
-14.905022,-159.92979
-14.984717,-159.25964
-14.603203,-159.72002
-15.032043,-158.68573
-14.705005,-159.74312
-15.332873,-159.9574
-15.041477,-158.88129
-14.97861,-157.3215
-14.873446,-160.33565
-15.161714,-159.92467
-15.013973,-158.15663
-15.078476,-159.29637
-14.972779,-160.30089
-14.848565,-159.94989
-14.952447,-158.7157
-14.873713,-157.5274
-15.043066,-160.43637
-15.079869,-161.05147
-15.140987,-160.34351
-15.103931,-157.30063
-15.084135,-159.81564
-15.195988,-161.41728
-14.890258,-160.85149
-15.178446,-158.80737
-14.853876,-158.94298
-15.113367,-160.30141
-15.286751,-160.50092
-15.153502,-161.7168
-15.023962,-160.16515
-14.954664,-158.88176
-15.119742,-158.91908
-14.90224,-159.181
-15.100365,-160.43318
-15.144716,-159.29446
-15.144203,-159.69064
-15.009765,-159.44264
-14.955038,-158.64626
-15.14876,-158.8846
-14.976608,-158.81697
-15.048637,-159.27942
-15.020788,-159.74452
-14.900681,-157.62589
-15.062222,-159.48882
-14.809159,-158.13446
-15.17485,-158.88373
-14.770583,-161.15228
-15.237755,-158.87929
-15.252207,-159.51778
-15.149376,-159.03809
-14.917662,-158.46233
-15.113999,-159.25067
-14.832281,-159.78221
-15.015269,-158.85579
-15.129138,-160.50443
-14.841616,-157.61551
-15.161173,-158.83774
-14.864417,-159.76375
-15.116636,-160.30957
-14.878326,-159.6344
-15.293686,-158.72667
-14.952659,-158.97954
-14.965715,-159.21175
-15.101655,-159.29059
-15.054684,-161.08374
-15.077319,-157.69655
-15.021812,-158.30861
-15.082526,-159.31291
-15.102629,-159.38725
-15.141215,-159.14224
-15.107327,-158.42639
-15.030547,-160.92255
-15.029352,-159.10948
-15.121717,-158.28354
-15.133793,-160.55165
-15.155945,-158.66925
-15.018906,-159.26271
-14.975401,-157.78979
-15.073685,-158.6629
-15.135723,-158.4632
-14.993522,-159.03703
-14.98316,-159.85907
-15.008748,-159.61401
-15.19437,-159.40182
-15.289859,-159.57663
-15.128542,-157.85811
-15.202099,-159.06651
-14.946011,-160.04771
-15.052558,-160.05165
-15.089947,-158.05557
-15.221198,-159.76891
-15.085403,-158.87321
-14.985452,-160.21358
-15.078037,-158.86572
-15.323692,-157.76712
-15.109208,-160.92352
-15.126251,-158.65729
-15.192078,-160.70648
