CITIFILE A.01.01
!Agilent Technologies,N5230C,MY48100142,A.08.04.10
!Agilent N5230C: A.08.04.10
!Format: LogMag/Angle
!Date: Monday, August 24, 2020 16:34:48
NAME CH1_DATA
VAR Power MAG 801
DATA S11 DBANGLE
DATA S21 DBANGLE
DATA S12 DBANGLE
DATA S22 DBANGLE
VAR_LIST_BEGIN
-40
-39.975
-39.95
-39.925
-39.9
-39.875
-39.85
-39.825
-39.8
-39.775
-39.75
-39.725
-39.7
-39.675
-39.65
-39.625
-39.6
-39.575
-39.55
-39.525
-39.5
-39.475
-39.45
-39.425
-39.4
-39.375
-39.35
-39.325
-39.3
-39.275
-39.25
-39.225
-39.2
-39.175
-39.15
-39.125
-39.1
-39.075
-39.05
-39.025
-39
-38.975
-38.95
-38.925
-38.9
-38.875
-38.85
-38.825
-38.8
-38.775
-38.75
-38.725
-38.7
-38.675
-38.65
-38.625
-38.6
-38.575
-38.55
-38.525
-38.5
-38.475
-38.45
-38.425
-38.4
-38.375
-38.35
-38.325
-38.3
-38.275
-38.25
-38.225
-38.2
-38.175
-38.15
-38.125
-38.1
-38.075
-38.05
-38.025
-38
-37.975
-37.95
-37.925
-37.9
-37.875
-37.85
-37.825
-37.8
-37.775
-37.75
-37.725
-37.7
-37.675
-37.65
-37.625
-37.6
-37.575
-37.55
-37.525
-37.5
-37.475
-37.45
-37.425
-37.4
-37.375
-37.35
-37.325
-37.3
-37.275
-37.25
-37.225
-37.2
-37.175
-37.15
-37.125
-37.1
-37.075
-37.05
-37.025
-37
-36.975
-36.95
-36.925
-36.9
-36.875
-36.85
-36.825
-36.8
-36.775
-36.75
-36.725
-36.7
-36.675
-36.65
-36.625
-36.6
-36.575
-36.55
-36.525
-36.5
-36.475
-36.45
-36.425
-36.4
-36.375
-36.35
-36.325
-36.3
-36.275
-36.25
-36.225
-36.2
-36.175
-36.15
-36.125
-36.1
-36.075
-36.05
-36.025
-36
-35.975
-35.95
-35.925
-35.9
-35.875
-35.85
-35.825
-35.8
-35.775
-35.75
-35.725
-35.7
-35.675
-35.65
-35.625
-35.6
-35.575
-35.55
-35.525
-35.5
-35.475
-35.45
-35.425
-35.4
-35.375
-35.35
-35.325
-35.3
-35.275
-35.25
-35.225
-35.2
-35.175
-35.15
-35.125
-35.1
-35.075
-35.05
-35.025
-35
-34.975
-34.95
-34.925
-34.9
-34.875
-34.85
-34.825
-34.8
-34.775
-34.75
-34.725
-34.7
-34.675
-34.65
-34.625
-34.6
-34.575
-34.55
-34.525
-34.5
-34.475
-34.45
-34.425
-34.4
-34.375
-34.35
-34.325
-34.3
-34.275
-34.25
-34.225
-34.2
-34.175
-34.15
-34.125
-34.1
-34.075
-34.05
-34.025
-34
-33.975
-33.95
-33.925
-33.9
-33.875
-33.85
-33.825
-33.8
-33.775
-33.75
-33.725
-33.7
-33.675
-33.65
-33.625
-33.6
-33.575
-33.55
-33.525
-33.5
-33.475
-33.45
-33.425
-33.4
-33.375
-33.35
-33.325
-33.3
-33.275
-33.25
-33.225
-33.2
-33.175
-33.15
-33.125
-33.1
-33.075
-33.05
-33.025
-33
-32.975
-32.95
-32.925
-32.9
-32.875
-32.85
-32.825
-32.8
-32.775
-32.75
-32.725
-32.7
-32.675
-32.65
-32.625
-32.6
-32.575
-32.55
-32.525
-32.5
-32.475
-32.45
-32.425
-32.4
-32.375
-32.35
-32.325
-32.3
-32.275
-32.25
-32.225
-32.2
-32.175
-32.15
-32.125
-32.1
-32.075
-32.05
-32.025
-32
-31.975
-31.95
-31.925
-31.9
-31.875
-31.85
-31.825
-31.8
-31.775
-31.75
-31.725
-31.7
-31.675
-31.65
-31.625
-31.6
-31.575
-31.55
-31.525
-31.5
-31.475
-31.45
-31.425
-31.4
-31.375
-31.35
-31.325
-31.3
-31.275
-31.25
-31.225
-31.2
-31.175
-31.15
-31.125
-31.1
-31.075
-31.05
-31.025
-31
-30.975
-30.95
-30.925
-30.9
-30.875
-30.85
-30.825
-30.8
-30.775
-30.75
-30.725
-30.7
-30.675
-30.65
-30.625
-30.6
-30.575
-30.55
-30.525
-30.5
-30.475
-30.45
-30.425
-30.4
-30.375
-30.35
-30.325
-30.3
-30.275
-30.25
-30.225
-30.2
-30.175
-30.15
-30.125
-30.1
-30.075
-30.05
-30.025
-30
-29.975
-29.95
-29.925
-29.9
-29.875
-29.85
-29.825
-29.8
-29.775
-29.75
-29.725
-29.7
-29.675
-29.65
-29.625
-29.6
-29.575
-29.55
-29.525
-29.5
-29.475
-29.45
-29.425
-29.4
-29.375
-29.35
-29.325
-29.3
-29.275
-29.25
-29.225
-29.2
-29.175
-29.15
-29.125
-29.1
-29.075
-29.05
-29.025
-29
-28.975
-28.95
-28.925
-28.9
-28.875
-28.85
-28.825
-28.8
-28.775
-28.75
-28.725
-28.7
-28.675
-28.65
-28.625
-28.6
-28.575
-28.55
-28.525
-28.5
-28.475
-28.45
-28.425
-28.4
-28.375
-28.35
-28.325
-28.3
-28.275
-28.25
-28.225
-28.2
-28.175
-28.15
-28.125
-28.1
-28.075
-28.05
-28.025
-28
-27.975
-27.95
-27.925
-27.9
-27.875
-27.85
-27.825
-27.8
-27.775
-27.75
-27.725
-27.7
-27.675
-27.65
-27.625
-27.6
-27.575
-27.55
-27.525
-27.5
-27.475
-27.45
-27.425
-27.4
-27.375
-27.35
-27.325
-27.3
-27.275
-27.25
-27.225
-27.2
-27.175
-27.15
-27.125
-27.1
-27.075
-27.05
-27.025
-27
-26.975
-26.95
-26.925
-26.9
-26.875
-26.85
-26.825
-26.8
-26.775
-26.75
-26.725
-26.7
-26.675
-26.65
-26.625
-26.6
-26.575
-26.55
-26.525
-26.5
-26.475
-26.45
-26.425
-26.4
-26.375
-26.35
-26.325
-26.3
-26.275
-26.25
-26.225
-26.2
-26.175
-26.15
-26.125
-26.1
-26.075
-26.05
-26.025
-26
-25.975
-25.95
-25.925
-25.9
-25.875
-25.85
-25.825
-25.8
-25.775
-25.75
-25.725
-25.7
-25.675
-25.65
-25.625
-25.6
-25.575
-25.55
-25.525
-25.5
-25.475
-25.45
-25.425
-25.4
-25.375
-25.35
-25.325
-25.3
-25.275
-25.25
-25.225
-25.2
-25.175
-25.15
-25.125
-25.1
-25.075
-25.05
-25.025
-25
-24.975
-24.95
-24.925
-24.9
-24.875
-24.85
-24.825
-24.8
-24.775
-24.75
-24.725
-24.7
-24.675
-24.65
-24.625
-24.6
-24.575
-24.55
-24.525
-24.5
-24.475
-24.45
-24.425
-24.4
-24.375
-24.35
-24.325
-24.3
-24.275
-24.25
-24.225
-24.2
-24.175
-24.15
-24.125
-24.1
-24.075
-24.05
-24.025
-24
-23.975
-23.95
-23.925
-23.9
-23.875
-23.85
-23.825
-23.8
-23.775
-23.75
-23.725
-23.7
-23.675
-23.65
-23.625
-23.6
-23.575
-23.55
-23.525
-23.5
-23.475
-23.45
-23.425
-23.4
-23.375
-23.35
-23.325
-23.3
-23.275
-23.25
-23.225
-23.2
-23.175
-23.15
-23.125
-23.1
-23.075
-23.05
-23.025
-23
-22.975
-22.95
-22.925
-22.9
-22.875
-22.85
-22.825
-22.8
-22.775
-22.75
-22.725
-22.7
-22.675
-22.65
-22.625
-22.6
-22.575
-22.55
-22.525
-22.5
-22.475
-22.45
-22.425
-22.4
-22.375
-22.35
-22.325
-22.3
-22.275
-22.25
-22.225
-22.2
-22.175
-22.15
-22.125
-22.1
-22.075
-22.05
-22.025
-22
-21.975
-21.95
-21.925
-21.9
-21.875
-21.85
-21.825
-21.8
-21.775
-21.75
-21.725
-21.7
-21.675
-21.65
-21.625
-21.6
-21.575
-21.55
-21.525
-21.5
-21.475
-21.45
-21.425
-21.4
-21.375
-21.35
-21.325
-21.3
-21.275
-21.25
-21.225
-21.2
-21.175
-21.15
-21.125
-21.1
-21.075
-21.05
-21.025
-21
-20.975
-20.95
-20.925
-20.9
-20.875
-20.85
-20.825
-20.8
-20.775
-20.75
-20.725
-20.7
-20.675
-20.65
-20.625
-20.6
-20.575
-20.55
-20.525
-20.5
-20.475
-20.45
-20.425
-20.4
-20.375
-20.35
-20.325
-20.3
-20.275
-20.25
-20.225
-20.2
-20.175
-20.15
-20.125
-20.1
-20.075
-20.05
-20.025
-20
VAR_LIST_END
BEGIN
-15.112756,-152.11102
-15.059176,-155.74361
-14.861094,-165.69519
-15.312173,-160.02965
-15.371619,-160.91229
-15.190252,-156.07272
-15.205577,-155.20068
-15.19582,-158.04515
-14.89511,-157.0199
-14.7616,-159.3373
-16.009825,-155.63651
-14.610686,-155.2359
-15.72578,-158.41714
-14.463173,-159.76965
-14.605365,-157.339
-14.295908,-150.73221
-14.26626,-156.23538
-13.917027,-158.76129
-15.060648,-156.73341
-14.667217,-160.57977
-15.960932,-155.13701
-14.782219,-157.65355
-15.321276,-158.88483
-14.873184,-159.86911
-15.694366,-158.3011
-15.428359,-165.97739
-14.938512,-161.02673
-15.375401,-158.78276
-15.46933,-157.70901
-15.143361,-159.72456
-15.007231,-155.95343
-14.946823,-153.6749
-14.964543,-159.60008
-15.482646,-163.45773
-15.410405,-158.13196
-14.600454,-157.24077
-15.613502,-157.11125
-14.081502,-159.56499
-14.490414,-157.79353
-15.201217,-156.01659
-15.053659,-156.70992
-14.260617,-159.91634
-15.442242,-160.23251
-15.713072,-158.00116
-14.974555,-160.0452
-15.29399,-151.2715
-15.185847,-162.40179
-14.77842,-160.88835
-14.645153,-155.93907
-14.577447,-154.39079
-14.838856,-162.20271
-15.016948,-159.16003
-14.861217,-157.35025
-14.978983,-157.19215
-15.050072,-161.36942
-15.276298,-158.93428
-15.080114,-157.2464
-15.883039,-158.16351
-14.858072,-158.35068
-14.493552,-163.95422
-15.078962,-156.92967
-16.020714,-156.9093
-15.227675,-154.79446
-15.484751,-157.6871
-15.090118,-154.01668
-14.427043,-157.63486
-14.984499,-157.7995
-15.704625,-153.94992
-14.534854,-156.48474
-15.211543,-158.06769
-15.308911,-155.50888
-15.191059,-158.52989
-14.887995,-158.67331
-15.464365,-155.99126
-15.16641,-155.64975
-15.934881,-155.95493
-15.685054,-157.97331
-15.519412,-157.5744
-15.696295,-155.80904
-15.13927,-160.65463
-14.983411,-159.79491
-15.355654,-155.33711
-14.813452,-157.13385
-15.003872,-156.87868
-14.989091,-156.9325
-15.525861,-163.99263
-14.812525,-159.3802
-15.001437,-160.81424
-14.746411,-156.3924
-14.914352,-158.44568
-15.309721,-158.39136
-15.818382,-156.65685
-15.68831,-159.91344
-15.335605,-156.24329
-15.105124,-160.6312
-15.007242,-156.8354
-14.554697,-157.60098
-15.049916,-155.10065
-15.21393,-159.79764
-15.558574,-161.72281
-14.933146,-157.82204
-15.467094,-153.71121
-14.266908,-161.70313
-15.385578,-157.24872
-15.819613,-159.59917
-15.794093,-160.07487
-14.942428,-156.69751
-14.840425,-158.82121
-14.513965,-156.06297
-15.165395,-159.82649
-15.230929,-156.74146
-14.83161,-158.88646
-15.431768,-159.0475
-15.00501,-157.0524
-14.515862,-162.61194
-14.974648,-156.71513
-14.775378,-162.8299
-14.802378,-159.02101
-14.824437,-157.72691
-14.986601,-160.23926
-14.805288,-158.07372
-14.661437,-155.6953
-14.940057,-155.79231
-15.381698,-158.22621
-14.283442,-158.87425
-15.413648,-160.92558
-14.997036,-160.20515
-15.143991,-157.03645
-15.277827,-154.85835
-15.652971,-157.37994
-14.624389,-159.9023
-14.403131,-155.27808
-15.069863,-158.26363
-14.942686,-157.8895
-15.077459,-158.34514
-15.150638,-159.01274
-14.623538,-155.75868
-15.262327,-158.40012
-15.718781,-157.9334
-15.43815,-157.71756
-14.454532,-156.41327
-15.624396,-155.27548
-14.715156,-156.16313
-15.255073,-157.15321
-15.278508,-157.48453
-14.696054,-157.42157
-15.521651,-155.06689
-15.085334,-160.20282
-15.22049,-160.28325
-14.555543,-160.29832
-14.602821,-156.94728
-15.34182,-157.60037
-15.498108,-160.70827
-15.147308,-159.09804
-15.22785,-159.40666
-15.658502,-157.2876
-14.9815,-161.48341
-14.743097,-163.36229
-15.591066,-159.74089
-14.953568,-159.66812
-15.008392,-158.12733
-15.613428,-157.33287
-15.02944,-157.63612
-14.944677,-157.91481
-14.934263,-158.39799
-15.070689,-160.06013
-14.874443,-159.28334
-14.601768,-159.69484
-15.581738,-155.57579
-15.251698,-155.16447
-15.469036,-159.63875
-15.098902,-156.10094
-15.26003,-158.84656
-15.113193,-152.97298
-15.134709,-160.59885
-15.192344,-160.43399
-15.203853,-155.61319
-15.32331,-160.91602
-15.100982,-155.68079
-14.910513,-156.27072
-15.079645,-156.0378
-14.912636,-156.65695
-15.506834,-160.26126
-14.713862,-159.35786
-14.825702,-156.71219
-15.728578,-160.34995
-14.594505,-157.10022
-15.520305,-156.72594
-15.200669,-155.27306
-15.10752,-158.60631
-14.870218,-154.40967
-14.920771,-159.43895
-14.975957,-154.74973
-15.161633,-154.95439
-15.064892,-157.54263
-15.05046,-160.86511
-14.393599,-153.39026
-15.062673,-158.8479
-15.142,-160.51236
-15.078046,-162.12801
-15.013672,-161.09067
-14.924511,-155.03633
-14.782112,-159.61273
-15.11692,-157.02492
-15.181108,-158.51697
-14.890086,-159.05399
-14.936642,-156.93422
-15.35945,-160.17892
-15.344524,-161.0215
-15.130693,-156.15414
-14.760614,-157.79858
-14.842215,-162.20726
-15.301671,-157.66919
-14.986791,-157.30446
-15.635009,-162.34756
-14.750025,-155.08578
-15.055387,-160.60309
-15.071379,-160.65169
-14.757689,-158.05003
-15.346068,-162.94673
-15.13941,-158.60052
-15.329371,-157.90169
-15.418331,-154.89767
-14.480972,-158.15605
-15.202443,-156.51822
-15.303632,-160.08296
-15.328153,-153.2126
-15.264394,-158.08916
-15.435681,-158.19266
-14.880893,-156.87766
-15.267939,-157.89441
-15.433054,-156.44843
-15.305485,-156.82396
-15.009861,-157.68277
-15.134324,-156.3028
-15.296498,-158.35837
-15.156147,-157.15369
-15.09498,-157.60342
-15.098375,-158.02205
-15.564233,-158.83574
-14.835197,-159.31592
-15.586812,-157.18733
-14.492845,-158.54085
-15.110177,-158.15376
-15.097007,-161.99103
-14.558687,-159.49156
-14.929536,-158.01541
-15.354707,-159.49771
-14.979993,-157.18811
-15.024307,-160.20461
-15.225234,-157.68465
-14.935081,-156.41043
-15.540364,-158.84848
-14.79318,-160.83818
-15.145227,-161.48848
-15.54531,-157.0593
-14.909554,-161.08311
-15.0022,-157.25508
-15.015443,-157.90295
-15.607561,-153.34636
-14.511927,-157.57216
-14.579096,-161.70195
-15.591393,-159.35104
-15.281571,-157.39406
-15.239944,-157.47922
-15.169732,-157.47069
-15.069618,-157.32053
-15.313031,-156.38155
-15.407309,-157.20888
-14.924791,-159.07196
-14.69377,-157.72078
-15.072719,-155.22455
-15.551055,-160.28093
-15.320312,-157.05644
-14.887549,-157.05611
-14.958904,-158.18216
-14.73291,-157.32246
-15.410319,-159.5522
-15.171102,-157.80299
-15.105209,-157.86897
-15.037546,-161.12712
-15.158778,-160.05766
-14.963143,-161.87473
-14.946134,-158.71953
-15.070539,-158.76773
-15.281869,-158.09569
-15.429575,-156.97269
-15.220258,-155.15042
-15.09376,-161.14352
-14.884443,-159.13884
-14.688853,-157.16454
-15.534614,-158.62123
-15.091921,-157.58415
-14.929502,-159.45761
-14.877357,-156.44144
-15.099952,-159.51924
-15.330716,-160.67267
-14.92796,-159.89983
-15.150138,-156.83759
-15.464525,-159.85564
-15.185388,-159.0468
-15.214879,-157.97055
-15.15648,-157.15976
-15.003137,-159.63736
-15.304561,-157.72343
-15.031144,-160.20866
-14.823978,-158.14526
-15.282929,-156.94809
-15.443966,-158.52554
-14.828779,-154.6662
-14.996269,-157.16653
-14.944774,-157.90923
-14.527076,-157.92589
-15.449359,-157.42181
-14.846958,-159.06477
-15.061171,-157.36349
-15.388332,-160.89906
-15.000296,-156.5183
-14.890909,-157.53569
-15.151517,-159.19484
-14.910874,-157.8745
-15.056673,-158.19533
-15.194162,-157.97707
-15.064518,-156.0269
-15.071749,-159.9735
-15.108655,-158.70828
-15.322217,-159.09065
-14.988768,-157.64217
-15.028132,-160.979
-14.336687,-157.45551
-15.109016,-157.51784
-15.063383,-158.63448
-15.168044,-158.44302
-15.15776,-160.00706
-15.02655,-157.19286
-14.936964,-160.54634
-15.015821,-158.44524
-15.044443,-156.5186
-15.275057,-156.8862
-15.610458,-159.38313
-15.014965,-156.71701
-14.933968,-156.72537
-15.004835,-158.10797
-15.090726,-157.86134
-15.249548,-155.6543
-15.123516,-157.54576
-14.903623,-157.37637
-14.807178,-157.96686
-15.170708,-157.4915
-14.99,-159.28851
-14.597365,-157.90527
-15.15271,-157.65063
-14.909988,-155.22218
-14.875715,-159.75815
-15.187578,-156.22462
-14.828276,-157.96303
-15.169681,-158.12325
-15.205269,-154.87881
-14.83013,-159.55205
-15.156937,-158.5401
-15.339646,-159.02112
-15.321346,-159.44577
-15.303081,-157.74641
-15.161413,-161.89803
-14.945477,-159.52963
-15.306608,-159.15883
-15.221183,-158.58549
-14.639345,-159.02307
-15.013537,-156.80182
-15.21454,-159.89081
-15.482639,-159.20331
-15.155257,-160.87103
-15.404368,-159.69704
-14.996131,-158.76303
-14.973207,-157.79659
-15.276507,-157.52811
-14.979085,-160.13721
-14.896647,-157.33601
-15.335956,-158.17079
-15.115092,-160.96986
-15.037398,-159.65627
-14.937086,-157.70461
-14.879809,-156.96608
-15.26334,-159.20105
-14.859612,-158.55724
-14.741722,-157.35617
-14.917402,-159.37234
-15.071377,-157.5932
-14.946236,-159.59309
-15.091323,-157.20911
-15.270061,-159.23222
-15.196825,-158.58871
-15.167418,-158.94836
-14.928885,-156.77534
-15.013934,-159.0619
-15.274497,-158.19676
-15.178513,-157.64145
-14.793287,-156.27298
-14.902999,-157.51642
-15.105924,-158.81433
-14.78643,-158.94229
-15.072021,-158.69064
-14.851117,-157.71947
-14.803895,-159.84535
-14.966894,-160.83777
-14.816504,-158.11113
-15.280144,-160.41934
-15.050106,-159.3212
-15.295475,-158.48114
-14.881306,-158.35466
-14.662024,-157.91698
-15.105605,-158.95085
-15.168223,-158.2394
-15.075155,-156.1244
-15.081481,-157.26303
-14.751909,-157.7533
-15.13687,-157.14691
-15.335834,-159.87402
-15.150934,-159.74982
-15.085187,-156.81821
-14.942844,-157.25145
-15.098478,-159.2215
-14.876657,-159.06119
-15.321854,-157.623
-15.004802,-156.54793
-15.192245,-159.42819
-14.761441,-159.02029
-15.25438,-160.20886
-15.273547,-160.01915
-14.876389,-158.20454
-14.941673,-158.91066
-14.766409,-155.84276
-15.305456,-157.91823
-15.188045,-158.51762
-14.815038,-157.65404
-15.197302,-158.64954
-15.1388,-159.60716
-15.372975,-156.67065
-15.24172,-158.87482
-15.228861,-159.86316
-15.390611,-156.82492
-15.122831,-158.6777
-15.139403,-158.90387
-14.872569,-159.88364
-15.275858,-159.61038
-15.1424,-157.12808
-14.935847,-158.52124
-14.980983,-157.16777
-15.146598,-157.83871
-15.117871,-157.6821
-14.83406,-158.76924
-15.119251,-158.81218
-15.231273,-158.90208
-15.300196,-157.43549
-14.925352,-157.51108
-15.096686,-157.21315
-15.082431,-158.87164
-15.219704,-157.20288
-14.879427,-156.31049
-14.880108,-159.73874
-15.054941,-158.15146
-15.201005,-159.13892
-15.108115,-157.03607
-14.957803,-157.99576
-15.173932,-158.21855
-14.938875,-159.86687
-15.18821,-158.50296
-15.153006,-157.92406
-14.906486,-158.43643
-15.322538,-156.72285
-15.315476,-157.58533
-15.083673,-159.32103
-15.131872,-158.9931
-15.165695,-160.35948
-15.052438,-158.23534
-15.223334,-157.84898
-15.203627,-158.61931
-15.21255,-157.67754
-15.203445,-157.80571
-15.157177,-158.20894
-15.069688,-157.25484
-14.967935,-159.17871
-15.017094,-157.9463
-14.862332,-159.01468
-15.013125,-157.80455
-14.963675,-158.1436
-15.092621,-158.05313
-15.083302,-159.55727
-15.112288,-157.77243
-15.232128,-158.54973
-15.142197,-159.82556
-15.18121,-159.75037
-15.23362,-158.34358
-14.975691,-158.74986
-15.118778,-158.10019
-15.092623,-159.31778
-15.125759,-157.68175
-15.12633,-157.50491
-15.20517,-158.89113
-15.382364,-158.41255
-14.788345,-157.63651
-14.710835,-157.1559
-15.210715,-156.67033
-15.03096,-157.67247
-15.27194,-158.7175
-15.045431,-157.20688
-14.963449,-158.22322
-15.2315,-158.80147
-15.161073,-158.86018
-14.916075,-158.36469
-14.783076,-157.06007
-15.063877,-158.85976
-15.236107,-158.54106
-15.06384,-159.25868
-15.068944,-156.81239
-15.115195,-157.554
-15.042286,-157.88979
-15.102554,-157.8327
-15.258546,-157.95647
-15.169735,-159.17189
-15.145992,-158.02675
-15.075752,-157.32336
-15.115705,-159.55937
-14.864245,-158.59024
-15.023619,-158.67958
-14.877439,-158.50012
-14.897434,-158.50458
-15.069128,-159.47006
-15.084851,-158.19881
-15.236908,-157.68114
-15.02462,-158.61946
-15.069339,-157.04164
-15.015276,-158.9117
-15.267598,-157.56187
-15.160378,-159.58931
-14.934855,-157.62277
-14.840734,-157.16396
-15.164385,-157.5386
-15.157211,-158.07622
-15.207285,-157.18204
-15.217278,-158.03651
-15.11654,-158.58049
-15.001204,-158.37674
-14.980649,-158.63808
-14.878757,-158.55727
-15.03705,-160.03548
-15.246237,-157.49567
-14.995503,-156.83768
-14.990137,-158.49371
-15.144464,-157.20772
-15.022035,-159.32144
-15.159845,-158.25063
-15.200205,-158.34416
-14.947587,-156.80832
-15.057808,-157.84898
-14.994776,-159.11165
-15.101821,-159.23283
-15.006237,-158.97523
-14.975758,-157.65857
-15.169797,-158.90189
-14.979359,-156.82042
-14.888541,-157.84155
-15.055792,-158.90587
-15.008447,-159.16795
-15.044288,-158.64705
-15.185168,-157.82845
-14.888943,-157.56288
-15.182497,-156.88176
-14.960939,-157.26207
-15.039302,-157.99969
-14.951713,-158.41937
-15.19343,-156.80869
-15.094129,-157.65706
-15.21821,-159.23384
-15.191561,-159.14711
-15.150407,-157.98856
-15.364977,-159.35855
