CITIFILE A.01.01
!Agilent Technologies,N5230C,MY48100142,A.08.04.10
!Agilent N5230C: A.08.04.10
!Format: LogMag/Angle
!Date: Wednesday, September 11, 2019 17:04:49
NAME CH1_DATA
VAR Power MAG 801
DATA S11 DBANGLE
DATA S21 DBANGLE
DATA S12 DBANGLE
DATA S22 DBANGLE
VAR_LIST_BEGIN
-40
-39.975
-39.95
-39.925
-39.9
-39.875
-39.85
-39.825
-39.8
-39.775
-39.75
-39.725
-39.7
-39.675
-39.65
-39.625
-39.6
-39.575
-39.55
-39.525
-39.5
-39.475
-39.45
-39.425
-39.4
-39.375
-39.35
-39.325
-39.3
-39.275
-39.25
-39.225
-39.2
-39.175
-39.15
-39.125
-39.1
-39.075
-39.05
-39.025
-39
-38.975
-38.95
-38.925
-38.9
-38.875
-38.85
-38.825
-38.8
-38.775
-38.75
-38.725
-38.7
-38.675
-38.65
-38.625
-38.6
-38.575
-38.55
-38.525
-38.5
-38.475
-38.45
-38.425
-38.4
-38.375
-38.35
-38.325
-38.3
-38.275
-38.25
-38.225
-38.2
-38.175
-38.15
-38.125
-38.1
-38.075
-38.05
-38.025
-38
-37.975
-37.95
-37.925
-37.9
-37.875
-37.85
-37.825
-37.8
-37.775
-37.75
-37.725
-37.7
-37.675
-37.65
-37.625
-37.6
-37.575
-37.55
-37.525
-37.5
-37.475
-37.45
-37.425
-37.4
-37.375
-37.35
-37.325
-37.3
-37.275
-37.25
-37.225
-37.2
-37.175
-37.15
-37.125
-37.1
-37.075
-37.05
-37.025
-37
-36.975
-36.95
-36.925
-36.9
-36.875
-36.85
-36.825
-36.8
-36.775
-36.75
-36.725
-36.7
-36.675
-36.65
-36.625
-36.6
-36.575
-36.55
-36.525
-36.5
-36.475
-36.45
-36.425
-36.4
-36.375
-36.35
-36.325
-36.3
-36.275
-36.25
-36.225
-36.2
-36.175
-36.15
-36.125
-36.1
-36.075
-36.05
-36.025
-36
-35.975
-35.95
-35.925
-35.9
-35.875
-35.85
-35.825
-35.8
-35.775
-35.75
-35.725
-35.7
-35.675
-35.65
-35.625
-35.6
-35.575
-35.55
-35.525
-35.5
-35.475
-35.45
-35.425
-35.4
-35.375
-35.35
-35.325
-35.3
-35.275
-35.25
-35.225
-35.2
-35.175
-35.15
-35.125
-35.1
-35.075
-35.05
-35.025
-35
-34.975
-34.95
-34.925
-34.9
-34.875
-34.85
-34.825
-34.8
-34.775
-34.75
-34.725
-34.7
-34.675
-34.65
-34.625
-34.6
-34.575
-34.55
-34.525
-34.5
-34.475
-34.45
-34.425
-34.4
-34.375
-34.35
-34.325
-34.3
-34.275
-34.25
-34.225
-34.2
-34.175
-34.15
-34.125
-34.1
-34.075
-34.05
-34.025
-34
-33.975
-33.95
-33.925
-33.9
-33.875
-33.85
-33.825
-33.8
-33.775
-33.75
-33.725
-33.7
-33.675
-33.65
-33.625
-33.6
-33.575
-33.55
-33.525
-33.5
-33.475
-33.45
-33.425
-33.4
-33.375
-33.35
-33.325
-33.3
-33.275
-33.25
-33.225
-33.2
-33.175
-33.15
-33.125
-33.1
-33.075
-33.05
-33.025
-33
-32.975
-32.95
-32.925
-32.9
-32.875
-32.85
-32.825
-32.8
-32.775
-32.75
-32.725
-32.7
-32.675
-32.65
-32.625
-32.6
-32.575
-32.55
-32.525
-32.5
-32.475
-32.45
-32.425
-32.4
-32.375
-32.35
-32.325
-32.3
-32.275
-32.25
-32.225
-32.2
-32.175
-32.15
-32.125
-32.1
-32.075
-32.05
-32.025
-32
-31.975
-31.95
-31.925
-31.9
-31.875
-31.85
-31.825
-31.8
-31.775
-31.75
-31.725
-31.7
-31.675
-31.65
-31.625
-31.6
-31.575
-31.55
-31.525
-31.5
-31.475
-31.45
-31.425
-31.4
-31.375
-31.35
-31.325
-31.3
-31.275
-31.25
-31.225
-31.2
-31.175
-31.15
-31.125
-31.1
-31.075
-31.05
-31.025
-31
-30.975
-30.95
-30.925
-30.9
-30.875
-30.85
-30.825
-30.8
-30.775
-30.75
-30.725
-30.7
-30.675
-30.65
-30.625
-30.6
-30.575
-30.55
-30.525
-30.5
-30.475
-30.45
-30.425
-30.4
-30.375
-30.35
-30.325
-30.3
-30.275
-30.25
-30.225
-30.2
-30.175
-30.15
-30.125
-30.1
-30.075
-30.05
-30.025
-30
-29.975
-29.95
-29.925
-29.9
-29.875
-29.85
-29.825
-29.8
-29.775
-29.75
-29.725
-29.7
-29.675
-29.65
-29.625
-29.6
-29.575
-29.55
-29.525
-29.5
-29.475
-29.45
-29.425
-29.4
-29.375
-29.35
-29.325
-29.3
-29.275
-29.25
-29.225
-29.2
-29.175
-29.15
-29.125
-29.1
-29.075
-29.05
-29.025
-29
-28.975
-28.95
-28.925
-28.9
-28.875
-28.85
-28.825
-28.8
-28.775
-28.75
-28.725
-28.7
-28.675
-28.65
-28.625
-28.6
-28.575
-28.55
-28.525
-28.5
-28.475
-28.45
-28.425
-28.4
-28.375
-28.35
-28.325
-28.3
-28.275
-28.25
-28.225
-28.2
-28.175
-28.15
-28.125
-28.1
-28.075
-28.05
-28.025
-28
-27.975
-27.95
-27.925
-27.9
-27.875
-27.85
-27.825
-27.8
-27.775
-27.75
-27.725
-27.7
-27.675
-27.65
-27.625
-27.6
-27.575
-27.55
-27.525
-27.5
-27.475
-27.45
-27.425
-27.4
-27.375
-27.35
-27.325
-27.3
-27.275
-27.25
-27.225
-27.2
-27.175
-27.15
-27.125
-27.1
-27.075
-27.05
-27.025
-27
-26.975
-26.95
-26.925
-26.9
-26.875
-26.85
-26.825
-26.8
-26.775
-26.75
-26.725
-26.7
-26.675
-26.65
-26.625
-26.6
-26.575
-26.55
-26.525
-26.5
-26.475
-26.45
-26.425
-26.4
-26.375
-26.35
-26.325
-26.3
-26.275
-26.25
-26.225
-26.2
-26.175
-26.15
-26.125
-26.1
-26.075
-26.05
-26.025
-26
-25.975
-25.95
-25.925
-25.9
-25.875
-25.85
-25.825
-25.8
-25.775
-25.75
-25.725
-25.7
-25.675
-25.65
-25.625
-25.6
-25.575
-25.55
-25.525
-25.5
-25.475
-25.45
-25.425
-25.4
-25.375
-25.35
-25.325
-25.3
-25.275
-25.25
-25.225
-25.2
-25.175
-25.15
-25.125
-25.1
-25.075
-25.05
-25.025
-25
-24.975
-24.95
-24.925
-24.9
-24.875
-24.85
-24.825
-24.8
-24.775
-24.75
-24.725
-24.7
-24.675
-24.65
-24.625
-24.6
-24.575
-24.55
-24.525
-24.5
-24.475
-24.45
-24.425
-24.4
-24.375
-24.35
-24.325
-24.3
-24.275
-24.25
-24.225
-24.2
-24.175
-24.15
-24.125
-24.1
-24.075
-24.05
-24.025
-24
-23.975
-23.95
-23.925
-23.9
-23.875
-23.85
-23.825
-23.8
-23.775
-23.75
-23.725
-23.7
-23.675
-23.65
-23.625
-23.6
-23.575
-23.55
-23.525
-23.5
-23.475
-23.45
-23.425
-23.4
-23.375
-23.35
-23.325
-23.3
-23.275
-23.25
-23.225
-23.2
-23.175
-23.15
-23.125
-23.1
-23.075
-23.05
-23.025
-23
-22.975
-22.95
-22.925
-22.9
-22.875
-22.85
-22.825
-22.8
-22.775
-22.75
-22.725
-22.7
-22.675
-22.65
-22.625
-22.6
-22.575
-22.55
-22.525
-22.5
-22.475
-22.45
-22.425
-22.4
-22.375
-22.35
-22.325
-22.3
-22.275
-22.25
-22.225
-22.2
-22.175
-22.15
-22.125
-22.1
-22.075
-22.05
-22.025
-22
-21.975
-21.95
-21.925
-21.9
-21.875
-21.85
-21.825
-21.8
-21.775
-21.75
-21.725
-21.7
-21.675
-21.65
-21.625
-21.6
-21.575
-21.55
-21.525
-21.5
-21.475
-21.45
-21.425
-21.4
-21.375
-21.35
-21.325
-21.3
-21.275
-21.25
-21.225
-21.2
-21.175
-21.15
-21.125
-21.1
-21.075
-21.05
-21.025
-21
-20.975
-20.95
-20.925
-20.9
-20.875
-20.85
-20.825
-20.8
-20.775
-20.75
-20.725
-20.7
-20.675
-20.65
-20.625
-20.6
-20.575
-20.55
-20.525
-20.5
-20.475
-20.45
-20.425
-20.4
-20.375
-20.35
-20.325
-20.3
-20.275
-20.25
-20.225
-20.2
-20.175
-20.15
-20.125
-20.1
-20.075
-20.05
-20.025
-20
VAR_LIST_END
BEGIN
-13.476103,-156.10811
-14.089865,-158.04608
-13.780354,-173.02924
-13.814537,-156.95433
-14.573261,-165.86542
-14.259782,-159.05161
-13.673374,-163.70009
-15.35011,-163.95544
-14.492389,-166.37483
-13.710365,-158.35262
-13.883739,-174.39821
-13.262345,-168.09131
-14.925543,-164.81905
-13.644393,-166.45926
-13.846521,-166.00412
-13.911204,-162.57082
-14.665245,-166.67563
-14.077139,-169.62477
-14.543637,-162.80812
-14.462514,-160.24474
-14.213147,-156.21075
-14.588009,-161.13148
-14.461581,-163.05132
-13.647554,-163.81216
-13.256245,-167.83932
-14.316347,-166.03564
-14.45252,-163.57825
-14.433278,-159.93053
-13.786651,-164.82494
-13.90238,-163.50696
-13.883166,-164.75139
-14.783787,-165.26027
-15.061072,-165.67488
-13.42917,-162.83757
-13.963634,-158.16426
-14.481698,-161.80679
-14.500144,-156.23444
-13.900652,-157.80217
-13.923699,-155.93056
-13.32176,-166.63837
-14.416176,-165.85411
-13.696829,-161.17711
-14.758084,-161.73517
-13.021159,-163.7075
-13.508766,-162.99664
-13.475873,-159.88658
-14.289612,-159.33775
-13.686607,-158.73544
-13.649655,-163.93759
-14.966471,-158.97842
-14.286806,-161.4863
-14.18395,-160.29936
-13.981978,-171.8676
-13.301249,-166.55222
-14.586231,-162.54355
-14.531177,-162.49637
-13.797722,-164.91792
-13.386781,-165.44444
-13.920384,-160.71027
-14.591388,-161.82936
-14.743348,-160.13521
-13.565514,-161.91493
-13.455203,-162.37387
-13.314218,-161.49344
-14.013116,-161.73912
-14.374018,-165.20859
-14.088705,-162.36342
-13.714491,-159.73299
-14.083417,-159.60114
-12.985706,-161.09593
-13.589971,-159.42102
-14.041125,-163.58615
-13.846506,-161.50754
-14.012569,-157.79962
-15.18652,-167.09988
-14.046232,-161.98302
-13.801062,-158.9606
-13.540038,-159.25085
-13.764446,-157.23454
-13.535044,-167.20197
-14.622242,-157.1171
-14.071031,-162.53473
-13.382912,-161.34065
-13.86108,-167.46605
-14.308661,-164.06581
-13.737423,-161.75644
-13.222117,-160.42885
-14.231963,-164.3208
-14.404946,-166.43919
-13.87163,-166.67732
-14.023817,-163.11548
-14.048906,-167.40913
-13.868351,-165.94824
-14.20052,-162.73158
-13.907199,-158.35857
-13.564696,-160.66389
-13.448424,-161.43692
-14.220497,-160.47211
-14.70656,-156.94856
-14.460196,-159.02263
-13.527116,-161.55443
-13.58142,-165.58372
-14.031307,-164.15074
-14.453559,-158.91331
-14.298956,-161.49533
-13.380671,-162.76181
-13.285403,-157.00372
-14.648463,-164.72684
-13.964181,-162.28058
-14.136484,-165.73216
-13.279559,-163.78458
-14.146787,-170.36081
-14.253335,-157.04094
-14.174113,-161.13951
-13.905265,-162.7235
-13.392279,-164.32782
-14.220339,-164.4565
-13.85682,-165.79317
-14.460567,-161.87672
-13.9505,-162.86447
-14.297097,-166.8526
-14.081931,-162.5519
-14.28773,-163.23262
-14.200974,-165.92212
-13.742525,-159.02075
-14.487217,-160.39542
-14.267982,-162.81505
-14.232539,-162.99988
-14.038527,-161.42184
-14.099781,-168.10905
-14.478383,-159.98157
-14.083322,-166.05568
-13.824436,-166.45132
-13.718429,-163.1337
-13.751419,-157.86992
-14.339835,-163.89001
-14.298005,-162.65938
-13.847425,-163.68059
-14.506181,-159.08952
-14.460404,-165.12059
-14.234555,-158.28444
-13.819575,-161.92668
-13.570201,-163.23575
-14.028444,-163.62033
-14.061783,-161.26994
-14.297605,-166.312
-13.673049,-160.89331
-14.127818,-163.38741
-14.670273,-166.91885
-13.658413,-161.22928
-14.329904,-160.40843
-13.815273,-166.02538
-14.72315,-166.80435
-14.904512,-166.00284
-13.795259,-162.55351
-14.873413,-162.26314
-14.385003,-163.8037
-14.104659,-162.99753
-14.057133,-163.3007
-14.62297,-165.01688
-13.336756,-165.6664
-13.704288,-164.17563
-13.829219,-163.32504
-14.335449,-162.48915
-13.879725,-160.92015
-13.74899,-163.47911
-14.118557,-161.03786
-14.53318,-162.5226
-13.763146,-165.44235
-14.027463,-163.58437
-14.538238,-163.68948
-14.467256,-167.02333
-13.423676,-164.56322
-13.343195,-163.41417
-13.858683,-163.64807
-13.684846,-164.65517
-13.597376,-163.57196
-13.50377,-161.29448
-14.432539,-159.60863
-14.557656,-159.69937
-14.618872,-162.82977
-14.701982,-161.55623
-14.111256,-164.55768
-14.108832,-161.50444
-14.540816,-161.61272
-14.020614,-159.77316
-13.663611,-161.46616
-14.011438,-162.33131
-14.115156,-162.09402
-13.824773,-164.1394
-13.694629,-159.52295
-14.001801,-163.20039
-13.987863,-163.89938
-14.51126,-159.36142
-14.364578,-165.39909
-13.588425,-159.88362
-14.053671,-161.31607
-13.817941,-160.81667
-13.861294,-164.94453
-14.065701,-167.96191
-14.062897,-161.17596
-13.643739,-161.83505
-14.034991,-165.51382
-13.845966,-161.24776
-13.976602,-166.39197
-14.083325,-163.84799
-14.167515,-162.12216
-14.182492,-159.75818
-13.915234,-162.83022
-14.210613,-166.22577
-14.358168,-165.63576
-13.840653,-158.85326
-13.894677,-166.45659
-13.770279,-163.98871
-13.760986,-162.22716
-13.657609,-168.14421
-13.973034,-162.04073
-14.166115,-165.30913
-14.131232,-164.64767
-13.601493,-159.9836
-14.487196,-163.86668
-14.573315,-162.79694
-13.830994,-164.04158
-14.204412,-163.53606
-13.396137,-165.50372
-14.133245,-162.981
-14.359561,-160.26012
-13.6682,-164.63321
-13.619989,-163.28752
-14.45916,-160.80086
-13.660167,-165.76889
-13.650528,-164.54852
-14.238224,-163.62164
-13.699416,-165.28842
-14.249661,-164.34557
-13.77221,-160.67099
-14.175152,-157.38077
-13.951276,-168.05544
-13.931822,-160.67937
-14.327061,-166.32224
-13.785506,-161.47903
-13.895965,-161.90056
-13.656414,-158.18898
-14.373499,-163.54602
-13.882444,-165.73654
-13.802358,-164.77254
-14.348101,-161.30252
-13.997756,-161.00874
-14.014606,-159.94739
-13.959187,-166.04442
-13.89257,-164.20625
-14.340734,-162.40443
-14.399199,-163.74704
-13.636156,-169.50705
-13.263148,-161.04056
-14.648712,-162.13908
-14.377958,-163.7621
-14.361431,-160.77271
-14.232153,-162.56233
-14.118199,-169.38036
-14.062432,-164.2206
-13.420131,-163.26407
-13.701112,-159.62552
-14.317487,-160.77267
-13.994014,-162.48643
-14.48281,-163.11174
-13.944408,-164.19749
-14.401303,-161.22971
-14.12492,-162.62921
-13.878052,-160.07658
-14.06123,-164.1606
-13.867558,-163.58357
-13.955663,-162.81116
-14.253382,-161.25401
-14.018885,-161.55591
-13.637299,-162.75945
-13.844852,-161.99385
-13.792844,-161.63884
-14.324805,-164.62984
-13.99936,-163.11162
-13.913792,-161.22125
-13.605614,-164.05078
-14.510972,-161.14401
-14.007133,-159.15482
-14.201042,-164.98903
-14.741499,-161.00523
-13.980862,-163.44275
-14.500238,-163.31161
-14.443379,-160.95874
-14.054787,-162.36911
-14.074525,-161.45122
-14.029638,-164.34964
-14.011406,-163.75836
-13.976321,-164.76164
-14.388053,-163.39867
-14.239245,-162.14925
-14.233389,-162.71638
-13.962734,-164.89265
-13.95665,-160.75922
-14.288362,-161.28839
-14.057402,-166.23172
-13.858905,-164.26903
-13.667769,-159.1127
-13.791237,-164.3568
-14.439543,-159.52994
-13.739148,-163.04871
-14.244642,-162.89015
-14.278693,-160.6537
-13.887715,-162.91628
-14.104359,-162.01447
-13.943629,-161.85544
-14.121509,-162.59444
-13.7026,-165.8835
-14.423627,-163.64561
-13.808228,-164.98019
-14.015103,-164.81499
-13.964244,-162.35234
-14.162935,-163.42651
-14.229608,-164.92061
-13.592125,-163.18179
-14.251073,-161.99138
-13.814227,-160.08264
-13.976425,-162.67387
-14.165114,-165.17021
-14.010078,-163.12663
-13.938435,-165.96353
-14.119605,-162.05138
-13.919615,-160.65187
-14.004992,-165.07991
-14.082188,-161.44922
-13.98905,-164.29482
-13.985011,-163.45488
-14.026455,-162.06789
-14.035439,-162.11534
-14.002817,-163.75613
-13.595031,-162.7126
-13.780903,-161.71921
-14.4948,-166.11555
-14.394091,-162.57173
-14.161698,-160.14812
-14.104735,-163.55197
-14.542662,-163.91278
-13.870674,-164.38925
-13.876272,-161.40887
-13.845157,-163.51906
-14.338727,-163.3477
-14.067527,-160.93964
-13.790169,-164.1868
-14.140738,-162.47371
-13.718903,-165.09785
-14.464286,-166.14609
-14.060639,-162.31316
-13.678453,-161.35443
-14.021915,-164.22629
-13.909534,-163.97906
-14.197268,-160.43274
-14.058779,-163.59259
-13.766382,-163.93214
-14.270264,-161.32411
-13.656514,-161.93202
-13.999806,-161.20258
-13.900545,-160.12761
-13.922608,-160.37939
-13.952089,-161.71939
-13.855206,-164.5771
-14.254272,-162.55193
-14.250663,-162.07959
-14.464652,-162.49127
-13.950481,-161.63698
-13.698439,-165.15779
-14.015678,-164.3862
-14.417162,-164.62151
-14.189161,-161.06607
-13.854244,-162.61514
-14.023724,-163.59798
-14.146023,-161.34146
-13.981956,-163.33568
-14.107772,-162.19243
-14.009466,-163.96671
-13.96896,-164.64148
-14.475922,-166.70355
-14.172261,-163.15662
-13.864657,-162.92712
-13.759333,-161.97853
-14.04031,-162.47336
-14.037979,-164.17819
-13.924348,-161.29924
-13.934192,-161.58107
-14.023365,-163.44498
-14.056604,-161.94377
-14.149623,-164.40639
-14.109403,-163.59286
-14.164758,-162.74234
-14.495885,-163.93581
-14.085681,-165.65495
-13.976712,-160.75821
-13.950253,-165.66223
-13.809853,-162.12231
-13.821465,-163.70204
-14.120448,-160.63542
-14.187539,-163.24982
-14.14839,-161.92549
-13.663589,-160.44046
-13.860683,-162.72333
-14.261513,-164.05423
-14.114824,-161.91077
-14.124923,-164.0144
-13.737298,-163.55904
-13.929267,-162.57211
-14.426289,-161.60806
-14.143701,-162.80891
-14.119934,-161.6998
-13.747627,-165.77858
-14.22877,-161.08438
-14.123097,-162.42731
-13.773773,-163.08621
-13.738434,-164.00826
-14.323375,-161.97507
-13.907604,-161.74393
-13.983963,-162.16266
-14.223135,-163.99216
-14.153629,-162.83252
-14.016973,-162.59962
-13.944373,-164.18234
-13.555361,-162.49399
-14.280696,-161.23001
-14.152992,-162.74565
-13.982879,-163.53853
-14.115824,-162.60909
-14.110476,-164.06183
-14.27361,-161.68095
-13.823025,-162.32764
-14.070623,-163.72728
-14.079278,-160.54431
-14.120913,-162.30589
-14.166337,-162.71823
-14.124138,-161.76958
-14.200882,-162.16435
-14.022601,-164.11105
-13.759266,-162.33122
-14.220362,-160.61594
-13.730548,-163.95062
-14.029312,-163.01878
-13.73835,-162.91887
-13.893734,-165.38809
-14.055549,-160.01636
-14.147598,-164.52654
-13.652762,-164.57178
-13.885276,-163.23732
-14.211004,-161.51921
-13.899756,-161.91455
-13.854514,-161.85715
-14.127604,-163.32274
-14.006,-163.61723
-14.08916,-161.10576
-14.04963,-163.05225
-13.850704,-161.75769
-14.135642,-163.0546
-13.873082,-164.87112
-13.719179,-163.48383
-13.79354,-161.25313
-14.069283,-162.58318
-14.157974,-163.13905
-14.01095,-161.11865
-14.256165,-161.64186
-13.723947,-163.15889
-14.113379,-163.88599
-13.915644,-161.71265
-14.239303,-164.12222
-13.967227,-162.16475
-14.07088,-163.09642
-14.311843,-160.60181
-14.26917,-162.83302
-14.227884,-163.38182
-14.018606,-163.56429
-14.239352,-163.32216
-14.01866,-164.00824
-14.050301,-161.85208
-13.989913,-162.82375
-14.37811,-164.4113
-14.022486,-162.49983
-13.870433,-163.87657
-14.197633,-162.79068
-13.948069,-163.77167
-14.004402,-162.577
-14.114578,-164.17346
-14.250164,-162.92722
-14.080163,-161.7845
-13.947436,-163.60764
-14.056708,-163.16347
-14.037191,-163.22482
-14.037412,-162.21547
-14.007745,-163.27022
-14.264182,-162.53265
-13.815568,-163.16214
-14.09578,-162.49634
-13.705977,-163.06859
-14.129533,-163.1949
-14.049076,-162.62375
-14.066072,-160.52754
-13.906857,-162.47176
-14.259658,-162.96002
-14.005838,-162.27693
-14.060374,-163.41556
-14.292894,-163.42845
-14.176713,-164.57445
-14.022055,-162.57918
-14.104498,-162.57533
-14.079755,-163.0378
-14.143152,-164.85616
-14.119309,-163.25137
-13.8174,-164.12067
-13.915663,-162.53596
-14.066786,-163.1076
-13.700683,-161.7782
-14.313698,-162.7213
-14.25651,-162.28008
-14.141105,-164.10133
-14.157038,-159.68498
-13.939826,-163.08369
-14.023884,-161.88506
-14.071491,-163.5491
-13.925953,-163.48485
-14.048958,-163.82181
-13.977571,-164.75414
-14.120736,-162.77243
-13.96691,-163.30005
-14.062927,-163.46826
-14.016958,-161.09859
-13.981374,-163.97708
-14.085208,-162.84328
-14.060808,-162.44992
-13.983968,-162.39709
-14.177414,-162.50629
-14.078299,-161.94221
-14.082229,-162.7867
-14.036079,-161.34366
-13.965306,-161.46974
-14.215518,-163.60922
-14.152894,-161.49893
-13.844818,-161.63306
-13.908047,-162.74258
-13.96235,-162.55122
-14.343472,-162.26236
-14.171489,-162.50218
-14.042749,-163.26796
-13.939042,-162.93864
-14.011758,-163.35768
-14.200424,-163.39273
-14.066166,-163.78856
-13.918136,-163.33801
-14.062486,-163.12231
-14.123545,-163.47507
-14.051571,-163.17181
-13.989203,-164.24019
-14.070964,-163.34657
-14.219175,-162.11797
-13.993303,-161.71849
-14.17604,-162.54984
-14.200502,-164.53877
-14.094036,-162.83278
-14.08901,-163.44717
-14.234207,-163.61435
-13.807105,-162.70636
-14.17557,-163.96904
-13.915645,-164.06725
-13.953468,-162.41229
-14.19084,-162.07631
-13.96319,-163.1312
-13.924033,-162.95627
-14.161739,-162.29349
-14.233319,-163.10049
-13.865691,-161.31927
-14.076346,-164.04047
-13.950667,-163.218
