CITIFILE A.01.01
!Agilent Technologies,N5230C,MY48100142,A.08.04.10
!Agilent N5230C: A.08.04.10
!Format: LogMag/Angle
!Date: Wednesday, February 19, 2020 19:50:18
NAME CH1_DATA
VAR Power MAG 801
DATA S11 DBANGLE
DATA S21 DBANGLE
DATA S12 DBANGLE
DATA S22 DBANGLE
VAR_LIST_BEGIN
-40
-39.975
-39.95
-39.925
-39.9
-39.875
-39.85
-39.825
-39.8
-39.775
-39.75
-39.725
-39.7
-39.675
-39.65
-39.625
-39.6
-39.575
-39.55
-39.525
-39.5
-39.475
-39.45
-39.425
-39.4
-39.375
-39.35
-39.325
-39.3
-39.275
-39.25
-39.225
-39.2
-39.175
-39.15
-39.125
-39.1
-39.075
-39.05
-39.025
-39
-38.975
-38.95
-38.925
-38.9
-38.875
-38.85
-38.825
-38.8
-38.775
-38.75
-38.725
-38.7
-38.675
-38.65
-38.625
-38.6
-38.575
-38.55
-38.525
-38.5
-38.475
-38.45
-38.425
-38.4
-38.375
-38.35
-38.325
-38.3
-38.275
-38.25
-38.225
-38.2
-38.175
-38.15
-38.125
-38.1
-38.075
-38.05
-38.025
-38
-37.975
-37.95
-37.925
-37.9
-37.875
-37.85
-37.825
-37.8
-37.775
-37.75
-37.725
-37.7
-37.675
-37.65
-37.625
-37.6
-37.575
-37.55
-37.525
-37.5
-37.475
-37.45
-37.425
-37.4
-37.375
-37.35
-37.325
-37.3
-37.275
-37.25
-37.225
-37.2
-37.175
-37.15
-37.125
-37.1
-37.075
-37.05
-37.025
-37
-36.975
-36.95
-36.925
-36.9
-36.875
-36.85
-36.825
-36.8
-36.775
-36.75
-36.725
-36.7
-36.675
-36.65
-36.625
-36.6
-36.575
-36.55
-36.525
-36.5
-36.475
-36.45
-36.425
-36.4
-36.375
-36.35
-36.325
-36.3
-36.275
-36.25
-36.225
-36.2
-36.175
-36.15
-36.125
-36.1
-36.075
-36.05
-36.025
-36
-35.975
-35.95
-35.925
-35.9
-35.875
-35.85
-35.825
-35.8
-35.775
-35.75
-35.725
-35.7
-35.675
-35.65
-35.625
-35.6
-35.575
-35.55
-35.525
-35.5
-35.475
-35.45
-35.425
-35.4
-35.375
-35.35
-35.325
-35.3
-35.275
-35.25
-35.225
-35.2
-35.175
-35.15
-35.125
-35.1
-35.075
-35.05
-35.025
-35
-34.975
-34.95
-34.925
-34.9
-34.875
-34.85
-34.825
-34.8
-34.775
-34.75
-34.725
-34.7
-34.675
-34.65
-34.625
-34.6
-34.575
-34.55
-34.525
-34.5
-34.475
-34.45
-34.425
-34.4
-34.375
-34.35
-34.325
-34.3
-34.275
-34.25
-34.225
-34.2
-34.175
-34.15
-34.125
-34.1
-34.075
-34.05
-34.025
-34
-33.975
-33.95
-33.925
-33.9
-33.875
-33.85
-33.825
-33.8
-33.775
-33.75
-33.725
-33.7
-33.675
-33.65
-33.625
-33.6
-33.575
-33.55
-33.525
-33.5
-33.475
-33.45
-33.425
-33.4
-33.375
-33.35
-33.325
-33.3
-33.275
-33.25
-33.225
-33.2
-33.175
-33.15
-33.125
-33.1
-33.075
-33.05
-33.025
-33
-32.975
-32.95
-32.925
-32.9
-32.875
-32.85
-32.825
-32.8
-32.775
-32.75
-32.725
-32.7
-32.675
-32.65
-32.625
-32.6
-32.575
-32.55
-32.525
-32.5
-32.475
-32.45
-32.425
-32.4
-32.375
-32.35
-32.325
-32.3
-32.275
-32.25
-32.225
-32.2
-32.175
-32.15
-32.125
-32.1
-32.075
-32.05
-32.025
-32
-31.975
-31.95
-31.925
-31.9
-31.875
-31.85
-31.825
-31.8
-31.775
-31.75
-31.725
-31.7
-31.675
-31.65
-31.625
-31.6
-31.575
-31.55
-31.525
-31.5
-31.475
-31.45
-31.425
-31.4
-31.375
-31.35
-31.325
-31.3
-31.275
-31.25
-31.225
-31.2
-31.175
-31.15
-31.125
-31.1
-31.075
-31.05
-31.025
-31
-30.975
-30.95
-30.925
-30.9
-30.875
-30.85
-30.825
-30.8
-30.775
-30.75
-30.725
-30.7
-30.675
-30.65
-30.625
-30.6
-30.575
-30.55
-30.525
-30.5
-30.475
-30.45
-30.425
-30.4
-30.375
-30.35
-30.325
-30.3
-30.275
-30.25
-30.225
-30.2
-30.175
-30.15
-30.125
-30.1
-30.075
-30.05
-30.025
-30
-29.975
-29.95
-29.925
-29.9
-29.875
-29.85
-29.825
-29.8
-29.775
-29.75
-29.725
-29.7
-29.675
-29.65
-29.625
-29.6
-29.575
-29.55
-29.525
-29.5
-29.475
-29.45
-29.425
-29.4
-29.375
-29.35
-29.325
-29.3
-29.275
-29.25
-29.225
-29.2
-29.175
-29.15
-29.125
-29.1
-29.075
-29.05
-29.025
-29
-28.975
-28.95
-28.925
-28.9
-28.875
-28.85
-28.825
-28.8
-28.775
-28.75
-28.725
-28.7
-28.675
-28.65
-28.625
-28.6
-28.575
-28.55
-28.525
-28.5
-28.475
-28.45
-28.425
-28.4
-28.375
-28.35
-28.325
-28.3
-28.275
-28.25
-28.225
-28.2
-28.175
-28.15
-28.125
-28.1
-28.075
-28.05
-28.025
-28
-27.975
-27.95
-27.925
-27.9
-27.875
-27.85
-27.825
-27.8
-27.775
-27.75
-27.725
-27.7
-27.675
-27.65
-27.625
-27.6
-27.575
-27.55
-27.525
-27.5
-27.475
-27.45
-27.425
-27.4
-27.375
-27.35
-27.325
-27.3
-27.275
-27.25
-27.225
-27.2
-27.175
-27.15
-27.125
-27.1
-27.075
-27.05
-27.025
-27
-26.975
-26.95
-26.925
-26.9
-26.875
-26.85
-26.825
-26.8
-26.775
-26.75
-26.725
-26.7
-26.675
-26.65
-26.625
-26.6
-26.575
-26.55
-26.525
-26.5
-26.475
-26.45
-26.425
-26.4
-26.375
-26.35
-26.325
-26.3
-26.275
-26.25
-26.225
-26.2
-26.175
-26.15
-26.125
-26.1
-26.075
-26.05
-26.025
-26
-25.975
-25.95
-25.925
-25.9
-25.875
-25.85
-25.825
-25.8
-25.775
-25.75
-25.725
-25.7
-25.675
-25.65
-25.625
-25.6
-25.575
-25.55
-25.525
-25.5
-25.475
-25.45
-25.425
-25.4
-25.375
-25.35
-25.325
-25.3
-25.275
-25.25
-25.225
-25.2
-25.175
-25.15
-25.125
-25.1
-25.075
-25.05
-25.025
-25
-24.975
-24.95
-24.925
-24.9
-24.875
-24.85
-24.825
-24.8
-24.775
-24.75
-24.725
-24.7
-24.675
-24.65
-24.625
-24.6
-24.575
-24.55
-24.525
-24.5
-24.475
-24.45
-24.425
-24.4
-24.375
-24.35
-24.325
-24.3
-24.275
-24.25
-24.225
-24.2
-24.175
-24.15
-24.125
-24.1
-24.075
-24.05
-24.025
-24
-23.975
-23.95
-23.925
-23.9
-23.875
-23.85
-23.825
-23.8
-23.775
-23.75
-23.725
-23.7
-23.675
-23.65
-23.625
-23.6
-23.575
-23.55
-23.525
-23.5
-23.475
-23.45
-23.425
-23.4
-23.375
-23.35
-23.325
-23.3
-23.275
-23.25
-23.225
-23.2
-23.175
-23.15
-23.125
-23.1
-23.075
-23.05
-23.025
-23
-22.975
-22.95
-22.925
-22.9
-22.875
-22.85
-22.825
-22.8
-22.775
-22.75
-22.725
-22.7
-22.675
-22.65
-22.625
-22.6
-22.575
-22.55
-22.525
-22.5
-22.475
-22.45
-22.425
-22.4
-22.375
-22.35
-22.325
-22.3
-22.275
-22.25
-22.225
-22.2
-22.175
-22.15
-22.125
-22.1
-22.075
-22.05
-22.025
-22
-21.975
-21.95
-21.925
-21.9
-21.875
-21.85
-21.825
-21.8
-21.775
-21.75
-21.725
-21.7
-21.675
-21.65
-21.625
-21.6
-21.575
-21.55
-21.525
-21.5
-21.475
-21.45
-21.425
-21.4
-21.375
-21.35
-21.325
-21.3
-21.275
-21.25
-21.225
-21.2
-21.175
-21.15
-21.125
-21.1
-21.075
-21.05
-21.025
-21
-20.975
-20.95
-20.925
-20.9
-20.875
-20.85
-20.825
-20.8
-20.775
-20.75
-20.725
-20.7
-20.675
-20.65
-20.625
-20.6
-20.575
-20.55
-20.525
-20.5
-20.475
-20.45
-20.425
-20.4
-20.375
-20.35
-20.325
-20.3
-20.275
-20.25
-20.225
-20.2
-20.175
-20.15
-20.125
-20.1
-20.075
-20.05
-20.025
-20
VAR_LIST_END
BEGIN
-15.138894,-163.8179
-14.439815,-165.56743
-14.617848,-159.45831
-16.246399,-162.33891
-14.396037,-157.51003
-15.523572,-161.15782
-14.754488,-158.60448
-15.153666,-159.49556
-15.711809,-163.99043
-15.299728,-154.09029
-14.952212,-160.30099
-14.957211,-161.14459
-14.64013,-154.58395
-14.628116,-158.85988
-14.580256,-160.66618
-14.187664,-157.7621
-15.122597,-158.04369
-14.393964,-161.02763
-14.602146,-157.98384
-15.451021,-162.17102
-15.168031,-160.97144
-15.659603,-160.09816
-15.155291,-157.45999
-15.606459,-159.83411
-15.327508,-157.45364
-15.048022,-157.58308
-14.662231,-161.48415
-15.406034,-164.38271
-14.424685,-162.17743
-15.168818,-162.02794
-14.625585,-165.84132
-15.388428,-162.74507
-14.610795,-162.92508
-14.805286,-159.9612
-15.111054,-163.38379
-15.3562,-158.14951
-14.642335,-162.58916
-15.440578,-160.58324
-15.439142,-161.87459
-15.391159,-159.72935
-15.107429,-158.71344
-15.405071,-158.85678
-15.084191,-159.17442
-14.816912,-160.61057
-15.647498,-155.81183
-15.204042,-163.78828
-15.595303,-159.98389
-14.890157,-157.68175
-14.823179,-161.23698
-15.410348,-159.37357
-15.386564,-159.70161
-15.171696,-158.77539
-14.760832,-160.46458
-15.17861,-160.70999
-14.85721,-155.15553
-15.514958,-159.65747
-14.89916,-162.59869
-15.250235,-159.54948
-15.197085,-160.54642
-14.796715,-161.42747
-14.747931,-160.9653
-14.879661,-161.15561
-15.134275,-163.19749
-15.330917,-157.6255
-14.832353,-161.26613
-15.200337,-160.74477
-16.078558,-162.59676
-14.852611,-158.53807
-15.564416,-161.93028
-14.873215,-160.40298
-15.516521,-160.59459
-14.855463,-159.49905
-15.178272,-160.49139
-14.971772,-158.16516
-15.058671,-162.06468
-15.32591,-160.68391
-14.386995,-160.3044
-15.408026,-159.48956
-14.717135,-160.66589
-15.211324,-156.30536
-14.903137,-160.89532
-14.827104,-163.02348
-14.992896,-161.5965
-14.992056,-158.11444
-15.157377,-160.18893
-15.084364,-161.90852
-15.522831,-159.28383
-15.174486,-160.75719
-15.744998,-157.59615
-14.735056,-158.37999
-15.56617,-160.90686
-14.343738,-161.63972
-15.145782,-157.02657
-14.952491,-159.85606
-15.490847,-162.48151
-15.258138,-160.00323
-14.773281,-164.44019
-14.930552,-161.61171
-15.225404,-157.96284
-15.032471,-164.93503
-15.255038,-158.32716
-15.407966,-160.15692
-14.933416,-159.98236
-14.927241,-162.57071
-15.296506,-161.005
-15.226082,-156.65483
-14.272224,-159.98093
-14.733613,-160.95178
-15.322051,-158.61658
-14.83778,-162.95493
-15.701734,-162.74139
-15.013254,-158.94055
-15.04944,-159.03639
-15.068332,-159.30486
-15.319526,-159.00792
-15.225466,-161.61424
-14.719093,-160.5719
-14.855302,-158.07552
-14.998853,-161.76241
-14.816213,-161.72363
-14.657071,-158.90582
-15.095354,-160.61568
-14.445197,-161.53094
-14.586329,-161.71414
-15.043888,-160.99615
-15.067684,-161.05969
-15.694379,-166.3734
-14.913984,-165.20781
-15.161197,-160.24167
-15.004214,-161.72818
-15.100213,-158.79895
-14.720191,-162.78888
-15.421934,-160.97208
-14.817824,-159.81847
-15.319098,-161.81401
-14.721586,-159.65274
-15.153998,-161.78828
-15.115611,-159.97169
-15.645808,-161.19531
-14.797245,-157.53889
-15.365462,-161.55016
-14.982479,-158.07898
-15.223021,-158.744
-14.889023,-159.31879
-15.249384,-162.73099
-15.128469,-161.25571
-15.368052,-160.9413
-15.118725,-161.86342
-14.740742,-161.72928
-15.086864,-159.51141
-15.121219,-157.77597
-15.110804,-163.78439
-15.073295,-161.83479
-15.069254,-163.01727
-14.984786,-159.80321
-14.504814,-160.51131
-14.515409,-160.13741
-15.035904,-160.65906
-15.490315,-158.83214
-15.411849,-160.05151
-15.213224,-164.24759
-15.307452,-161.78972
-15.394147,-158.98521
-15.248277,-163.12648
-15.061956,-161.28387
-15.481807,-159.60066
-14.948112,-159.53462
-15.365027,-163.91414
-15.045446,-161.23587
-14.838764,-161.25334
-14.925286,-159.42255
-15.130172,-163.76608
-14.914599,-161.90709
-15.524538,-162.25668
-14.820139,-161.58908
-14.879908,-158.66649
-14.958296,-160.72264
-15.409674,-163.43045
-15.81491,-159.49367
-14.99458,-157.12006
-15.46894,-161.47356
-15.02204,-159.57698
-15.098808,-156.82301
-14.286991,-156.30074
-14.978284,-160.3145
-14.762889,-161.55698
-15.234546,-158.05547
-15.111637,-161.07008
-15.784914,-161.72575
-14.967372,-161.851
-15.032525,-159.09152
-15.148185,-161.96004
-15.099401,-159.65514
-15.076073,-164.10741
-15.284528,-158.29393
-15.337169,-162.17674
-14.780161,-160.42458
-15.234198,-164.16072
-14.704784,-160.4931
-15.168436,-160.80728
-15.045975,-162.04907
-14.491865,-159.19302
-14.983788,-161.6534
-15.139079,-161.06464
-15.452463,-160.57565
-15.27595,-162.72423
-15.112133,-162.00211
-15.145529,-157.17021
-15.345879,-162.19662
-14.997511,-161.99826
-15.440154,-160.42432
-14.834826,-161.59119
-14.80914,-163.21275
-15.489626,-162.56451
-15.068978,-161.44395
-15.069618,-159.12523
-15.140747,-162.32706
-14.858411,-162.07454
-15.313518,-160.50822
-14.825288,-163.08437
-15.308407,-159.02016
-14.840333,-160.56313
-15.063383,-160.25864
-14.766962,-157.53467
-14.806969,-161.00696
-14.610149,-160.27258
-15.005417,-162.1049
-15.030997,-161.19547
-14.818679,-163.25562
-15.268998,-161.48553
-15.162552,-158.51192
-15.339643,-159.80487
-15.212903,-161.44128
-15.421962,-160.22012
-14.876822,-160.40057
-15.205458,-160.8396
-14.726686,-160.06592
-15.156517,-163.33228
-15.383071,-160.26469
-15.081662,-166.64302
-14.767782,-161.03844
-15.253339,-162.90907
-15.366497,-161.16547
-15.283626,-161.64742
-14.985325,-161.20299
-15.368978,-160.24927
-15.192789,-161.20387
-15.362473,-158.22754
-15.345879,-162.49013
-15.276862,-161.56017
-15.015465,-160.53046
-15.38485,-160.20079
-14.754666,-160.31831
-15.322764,-160.24988
-15.122295,-160.70708
-15.152373,-158.89825
-15.018591,-159.58368
-15.404934,-159.64807
-14.692882,-159.83873
-15.169766,-159.19272
-15.038029,-158.88396
-15.138545,-159.67976
-15.191411,-162.10361
-15.340529,-160.55321
-15.27493,-159.55719
-15.570026,-159.44858
-15.178131,-159.24701
-14.837476,-161.30569
-15.303572,-163.76239
-15.150346,-160.29214
-15.10498,-160.96152
-15.101,-157.18327
-14.794769,-159.85361
-15.130034,-161.16486
-15.090071,-160.47447
-15.472009,-161.42638
-15.326958,-162.99319
-14.815383,-160.85487
-15.265766,-158.1011
-15.269903,-161.5752
-14.669345,-161.15672
-15.012572,-160.03813
-14.843099,-161.96169
-15.063314,-161.81772
-15.012482,-158.21478
-14.947599,-160.54988
-15.147006,-159.74785
-15.434806,-162.65976
-15.287471,-160.88054
-15.116895,-162.8517
-14.854412,-160.1765
-15.03064,-161.90846
-15.061586,-160.06105
-14.688728,-162.18855
-14.961681,-158.56203
-14.980107,-161.2831
-14.900954,-162.18443
-14.762062,-161.32796
-14.993285,-162.08286
-15.133712,-161.97632
-15.173563,-159.95642
-15.121813,-160.13554
-15.225927,-159.11804
-15.272969,-158.77826
-15.361968,-159.81754
-14.916333,-159.84662
-14.954456,-160.27307
-15.354963,-159.62688
-15.179687,-160.8468
-15.019605,-160.35046
-15.131122,-159.36613
-14.972782,-159.3445
-14.989358,-161.79675
-14.972484,-163.87944
-14.924783,-159.82594
-15.406545,-159.72169
-15.04484,-159.9436
-15.268097,-159.14494
-15.138045,-159.95987
-14.970907,-160.94336
-15.157179,-161.15929
-15.186731,-159.81873
-15.074925,-160.05754
-15.15277,-161.17018
-15.310795,-160.63654
-15.167244,-160.5723
-15.374139,-157.29707
-15.348959,-158.15091
-15.081923,-160.90741
-14.786184,-158.77061
-15.07537,-161.92674
-14.954599,-160.53481
-15.228969,-160.69646
-15.143435,-160.87134
-14.893023,-159.78751
-14.960743,-160.02972
-15.172816,-162.76526
-15.023649,-161.1254
-14.976821,-163.0076
-15.00034,-162.87563
-15.036442,-160.88437
-14.590241,-160.20724
-15.132027,-162.66862
-14.974634,-160.53391
-15.253453,-159.13844
-14.79228,-161.89098
-14.981604,-159.80661
-14.971059,-160.18617
-14.969853,-159.99873
-15.172476,-161.14882
-14.893319,-159.06563
-14.890243,-160.33853
-15.189141,-160.73135
-15.139226,-158.85455
-14.980568,-159.39558
-15.03798,-160.57956
-15.305592,-160.49953
-15.11617,-160.27957
-15.044745,-162.52646
-15.071642,-161.57918
-14.778965,-158.96126
-15.209199,-161.55118
-14.832672,-160.16498
-15.067968,-160.07776
-15.201558,-159.03564
-14.972382,-159.62213
-15.199359,-160.19974
-15.196008,-160.31744
-14.820457,-160.94211
-14.975438,-161.03513
-15.188066,-162.68489
-15.090521,-160.83693
-15.029639,-159.80984
-15.17743,-161.19637
-15.159913,-162.5609
-15.116367,-160.41762
-15.227478,-160.63998
-14.924006,-161.55276
-14.866402,-162.06792
-14.974841,-159.74522
-15.267278,-158.85786
-15.085618,-161.57869
-15.24139,-160.87634
-14.901299,-158.70444
-15.055589,-163.25847
-15.033181,-158.92752
-15.000537,-160.08067
-14.810365,-161.45164
-15.267717,-158.41345
-15.166873,-161.46819
-15.128594,-159.82103
-15.010315,-159.67151
-14.711321,-157.76402
-14.939244,-160.19664
-14.969631,-160.59
-14.88403,-161.51581
-15.111239,-161.21049
-15.0085,-162.33955
-14.887446,-159.38127
-15.113536,-160.18906
-14.743129,-160.30232
-14.924614,-159.44177
-15.025944,-162.60873
-15.130844,-158.91615
-14.944027,-160.48358
-15.13817,-161.26222
-15.014235,-163.00067
-14.913957,-160.64861
-15.001966,-159.78688
-15.350946,-160.76569
-15.061247,-161.35822
-15.249367,-162.78606
-15.361091,-160.58089
-14.970985,-161.51819
-15.228144,-163.42491
-15.052266,-160.74072
-15.041807,-160.31638
-15.2379,-160.55919
-15.450186,-160.60811
-15.080607,-160.91959
-15.11293,-158.58394
-14.956513,-161.79427
-15.17638,-160.51163
-15.269942,-159.64726
-15.150012,-161.21172
-14.940017,-161.8342
-15.044056,-162.06758
-14.854407,-161.15305
-15.22677,-159.70572
-15.026486,-162.71066
-14.87226,-160.45418
-15.146194,-159.91006
-14.809515,-159.58864
-15.323167,-160.90201
-14.983427,-159.92726
-15.158828,-160.73831
-14.961234,-160.84099
-14.998101,-160.65363
-15.052892,-161.31865
-15.212081,-161.57454
-15.09444,-161.04184
-15.484619,-160.11562
-14.991404,-161.40813
-14.912128,-160.50865
-14.998187,-160.8268
-15.011073,-159.61038
-14.763737,-160.04576
-15.167208,-160.30896
-14.878449,-162.8683
-15.284164,-160.42624
-14.997617,-160.63316
-15.089884,-159.77328
-15.108439,-161.81721
-14.982706,-160.02542
-15.06158,-160.5686
-15.27866,-160.37451
-15.067393,-160.59138
-15.116229,-161.12392
-14.717616,-160.40796
-14.834276,-161.48116
-15.064981,-160.89444
-14.877294,-162.42337
-14.939207,-160.25224
-15.053179,-160.74847
-15.129875,-159.38965
-14.892355,-160.1787
-14.996161,-159.9151
-15.182291,-160.20348
-15.206936,-162.87962
-15.155371,-161.26558
-15.08285,-160.80206
-15.160526,-161.07097
-15.051091,-160.9236
-14.9441,-161.30504
-14.969125,-159.73509
-15.191939,-159.72502
-15.079579,-161.5825
-15.147157,-160.47409
-15.215774,-159.33208
-14.881877,-162.90399
-15.130006,-161.07312
-14.989271,-160.8084
-15.205308,-161.34856
-15.006264,-159.82904
-15.105946,-161.00427
-14.999398,-160.7576
-14.980329,-160.00719
-15.173728,-160.14957
-14.897885,-161.28117
-14.965533,-159.84767
-15.038879,-160.90146
-15.222764,-160.59656
-15.111132,-160.63988
-14.966832,-159.6207
-15.140812,-160.72705
-15.015455,-161.07542
-15.043435,-159.45586
-15.061715,-159.91725
-15.153021,-163.76129
-15.175445,-159.98326
-15.253728,-161.07214
-14.935987,-159.8918
-14.86984,-157.84558
-15.0949,-161.57355
-14.894471,-159.98274
-14.874816,-160.03525
-15.052305,-160.5419
-15.174005,-161.63884
-14.872366,-160.79422
-14.92485,-161.75079
-15.123079,-160.99878
-15.054183,-161.01558
-15.174924,-160.04099
-14.981153,-160.75578
-14.971166,-159.5909
-15.125969,-161.63945
-15.173662,-160.52289
-15.00963,-161.58224
-14.846569,-162.4317
-15.153307,-159.71729
-15.111885,-160.97267
-14.82513,-160.71391
-15.127409,-159.64813
-15.176539,-161.39131
-14.965039,-160.66113
-14.840054,-161.26596
-15.17857,-160.67517
-14.986265,-160.08672
-14.945873,-160.33257
-15.125891,-160.59235
-15.236348,-158.28592
-15.012289,-161.18028
-15.122849,-160.31125
-15.141418,-160.05733
-15.189742,-161.01115
-15.241867,-161.52606
-14.991973,-161.632
-15.131217,-160.93434
-15.058635,-160.23073
-15.035078,-161.02164
-14.995562,-161.48021
-15.255554,-160.63843
-14.958019,-160.5817
-14.876659,-159.66151
-14.778163,-160.66855
-15.180919,-160.14806
-14.950367,-159.39191
-15.136642,-160.60428
-15.080578,-159.90993
-15.170249,-160.14406
-14.978802,-161.11604
-15.131406,-160.28557
-14.997432,-160.2093
-15.10363,-160.53291
-15.131895,-159.92714
-15.042869,-159.81682
-15.036258,-160.55807
-14.896722,-161.71648
-15.224179,-159.28244
-15.008076,-161.25539
-15.055368,-161.56619
-14.978428,-161.05086
-14.978583,-160.83206
-14.982388,-159.90871
-15.036109,-160.80946
-15.06108,-160.43369
-15.196688,-160.68951
-15.2094,-159.90634
-15.170971,-160.50188
-15.062141,-160.01537
-15.10302,-160.53317
-15.074121,-161.02959
-15.210333,-160.96646
-15.181758,-159.66612
-15.119431,-160.40369
