CITIFILE A.01.01
!Agilent Technologies,N5230C,MY48100142,A.08.04.10
!Agilent N5230C: A.08.04.10
!Format: LogMag/Angle
!Date: Friday, September 11, 2020 12:08:17
NAME CH1_DATA
VAR Power MAG 801
DATA S11 DBANGLE
DATA S21 DBANGLE
DATA S12 DBANGLE
DATA S22 DBANGLE
VAR_LIST_BEGIN
-40
-39.975
-39.95
-39.925
-39.9
-39.875
-39.85
-39.825
-39.8
-39.775
-39.75
-39.725
-39.7
-39.675
-39.65
-39.625
-39.6
-39.575
-39.55
-39.525
-39.5
-39.475
-39.45
-39.425
-39.4
-39.375
-39.35
-39.325
-39.3
-39.275
-39.25
-39.225
-39.2
-39.175
-39.15
-39.125
-39.1
-39.075
-39.05
-39.025
-39
-38.975
-38.95
-38.925
-38.9
-38.875
-38.85
-38.825
-38.8
-38.775
-38.75
-38.725
-38.7
-38.675
-38.65
-38.625
-38.6
-38.575
-38.55
-38.525
-38.5
-38.475
-38.45
-38.425
-38.4
-38.375
-38.35
-38.325
-38.3
-38.275
-38.25
-38.225
-38.2
-38.175
-38.15
-38.125
-38.1
-38.075
-38.05
-38.025
-38
-37.975
-37.95
-37.925
-37.9
-37.875
-37.85
-37.825
-37.8
-37.775
-37.75
-37.725
-37.7
-37.675
-37.65
-37.625
-37.6
-37.575
-37.55
-37.525
-37.5
-37.475
-37.45
-37.425
-37.4
-37.375
-37.35
-37.325
-37.3
-37.275
-37.25
-37.225
-37.2
-37.175
-37.15
-37.125
-37.1
-37.075
-37.05
-37.025
-37
-36.975
-36.95
-36.925
-36.9
-36.875
-36.85
-36.825
-36.8
-36.775
-36.75
-36.725
-36.7
-36.675
-36.65
-36.625
-36.6
-36.575
-36.55
-36.525
-36.5
-36.475
-36.45
-36.425
-36.4
-36.375
-36.35
-36.325
-36.3
-36.275
-36.25
-36.225
-36.2
-36.175
-36.15
-36.125
-36.1
-36.075
-36.05
-36.025
-36
-35.975
-35.95
-35.925
-35.9
-35.875
-35.85
-35.825
-35.8
-35.775
-35.75
-35.725
-35.7
-35.675
-35.65
-35.625
-35.6
-35.575
-35.55
-35.525
-35.5
-35.475
-35.45
-35.425
-35.4
-35.375
-35.35
-35.325
-35.3
-35.275
-35.25
-35.225
-35.2
-35.175
-35.15
-35.125
-35.1
-35.075
-35.05
-35.025
-35
-34.975
-34.95
-34.925
-34.9
-34.875
-34.85
-34.825
-34.8
-34.775
-34.75
-34.725
-34.7
-34.675
-34.65
-34.625
-34.6
-34.575
-34.55
-34.525
-34.5
-34.475
-34.45
-34.425
-34.4
-34.375
-34.35
-34.325
-34.3
-34.275
-34.25
-34.225
-34.2
-34.175
-34.15
-34.125
-34.1
-34.075
-34.05
-34.025
-34
-33.975
-33.95
-33.925
-33.9
-33.875
-33.85
-33.825
-33.8
-33.775
-33.75
-33.725
-33.7
-33.675
-33.65
-33.625
-33.6
-33.575
-33.55
-33.525
-33.5
-33.475
-33.45
-33.425
-33.4
-33.375
-33.35
-33.325
-33.3
-33.275
-33.25
-33.225
-33.2
-33.175
-33.15
-33.125
-33.1
-33.075
-33.05
-33.025
-33
-32.975
-32.95
-32.925
-32.9
-32.875
-32.85
-32.825
-32.8
-32.775
-32.75
-32.725
-32.7
-32.675
-32.65
-32.625
-32.6
-32.575
-32.55
-32.525
-32.5
-32.475
-32.45
-32.425
-32.4
-32.375
-32.35
-32.325
-32.3
-32.275
-32.25
-32.225
-32.2
-32.175
-32.15
-32.125
-32.1
-32.075
-32.05
-32.025
-32
-31.975
-31.95
-31.925
-31.9
-31.875
-31.85
-31.825
-31.8
-31.775
-31.75
-31.725
-31.7
-31.675
-31.65
-31.625
-31.6
-31.575
-31.55
-31.525
-31.5
-31.475
-31.45
-31.425
-31.4
-31.375
-31.35
-31.325
-31.3
-31.275
-31.25
-31.225
-31.2
-31.175
-31.15
-31.125
-31.1
-31.075
-31.05
-31.025
-31
-30.975
-30.95
-30.925
-30.9
-30.875
-30.85
-30.825
-30.8
-30.775
-30.75
-30.725
-30.7
-30.675
-30.65
-30.625
-30.6
-30.575
-30.55
-30.525
-30.5
-30.475
-30.45
-30.425
-30.4
-30.375
-30.35
-30.325
-30.3
-30.275
-30.25
-30.225
-30.2
-30.175
-30.15
-30.125
-30.1
-30.075
-30.05
-30.025
-30
-29.975
-29.95
-29.925
-29.9
-29.875
-29.85
-29.825
-29.8
-29.775
-29.75
-29.725
-29.7
-29.675
-29.65
-29.625
-29.6
-29.575
-29.55
-29.525
-29.5
-29.475
-29.45
-29.425
-29.4
-29.375
-29.35
-29.325
-29.3
-29.275
-29.25
-29.225
-29.2
-29.175
-29.15
-29.125
-29.1
-29.075
-29.05
-29.025
-29
-28.975
-28.95
-28.925
-28.9
-28.875
-28.85
-28.825
-28.8
-28.775
-28.75
-28.725
-28.7
-28.675
-28.65
-28.625
-28.6
-28.575
-28.55
-28.525
-28.5
-28.475
-28.45
-28.425
-28.4
-28.375
-28.35
-28.325
-28.3
-28.275
-28.25
-28.225
-28.2
-28.175
-28.15
-28.125
-28.1
-28.075
-28.05
-28.025
-28
-27.975
-27.95
-27.925
-27.9
-27.875
-27.85
-27.825
-27.8
-27.775
-27.75
-27.725
-27.7
-27.675
-27.65
-27.625
-27.6
-27.575
-27.55
-27.525
-27.5
-27.475
-27.45
-27.425
-27.4
-27.375
-27.35
-27.325
-27.3
-27.275
-27.25
-27.225
-27.2
-27.175
-27.15
-27.125
-27.1
-27.075
-27.05
-27.025
-27
-26.975
-26.95
-26.925
-26.9
-26.875
-26.85
-26.825
-26.8
-26.775
-26.75
-26.725
-26.7
-26.675
-26.65
-26.625
-26.6
-26.575
-26.55
-26.525
-26.5
-26.475
-26.45
-26.425
-26.4
-26.375
-26.35
-26.325
-26.3
-26.275
-26.25
-26.225
-26.2
-26.175
-26.15
-26.125
-26.1
-26.075
-26.05
-26.025
-26
-25.975
-25.95
-25.925
-25.9
-25.875
-25.85
-25.825
-25.8
-25.775
-25.75
-25.725
-25.7
-25.675
-25.65
-25.625
-25.6
-25.575
-25.55
-25.525
-25.5
-25.475
-25.45
-25.425
-25.4
-25.375
-25.35
-25.325
-25.3
-25.275
-25.25
-25.225
-25.2
-25.175
-25.15
-25.125
-25.1
-25.075
-25.05
-25.025
-25
-24.975
-24.95
-24.925
-24.9
-24.875
-24.85
-24.825
-24.8
-24.775
-24.75
-24.725
-24.7
-24.675
-24.65
-24.625
-24.6
-24.575
-24.55
-24.525
-24.5
-24.475
-24.45
-24.425
-24.4
-24.375
-24.35
-24.325
-24.3
-24.275
-24.25
-24.225
-24.2
-24.175
-24.15
-24.125
-24.1
-24.075
-24.05
-24.025
-24
-23.975
-23.95
-23.925
-23.9
-23.875
-23.85
-23.825
-23.8
-23.775
-23.75
-23.725
-23.7
-23.675
-23.65
-23.625
-23.6
-23.575
-23.55
-23.525
-23.5
-23.475
-23.45
-23.425
-23.4
-23.375
-23.35
-23.325
-23.3
-23.275
-23.25
-23.225
-23.2
-23.175
-23.15
-23.125
-23.1
-23.075
-23.05
-23.025
-23
-22.975
-22.95
-22.925
-22.9
-22.875
-22.85
-22.825
-22.8
-22.775
-22.75
-22.725
-22.7
-22.675
-22.65
-22.625
-22.6
-22.575
-22.55
-22.525
-22.5
-22.475
-22.45
-22.425
-22.4
-22.375
-22.35
-22.325
-22.3
-22.275
-22.25
-22.225
-22.2
-22.175
-22.15
-22.125
-22.1
-22.075
-22.05
-22.025
-22
-21.975
-21.95
-21.925
-21.9
-21.875
-21.85
-21.825
-21.8
-21.775
-21.75
-21.725
-21.7
-21.675
-21.65
-21.625
-21.6
-21.575
-21.55
-21.525
-21.5
-21.475
-21.45
-21.425
-21.4
-21.375
-21.35
-21.325
-21.3
-21.275
-21.25
-21.225
-21.2
-21.175
-21.15
-21.125
-21.1
-21.075
-21.05
-21.025
-21
-20.975
-20.95
-20.925
-20.9
-20.875
-20.85
-20.825
-20.8
-20.775
-20.75
-20.725
-20.7
-20.675
-20.65
-20.625
-20.6
-20.575
-20.55
-20.525
-20.5
-20.475
-20.45
-20.425
-20.4
-20.375
-20.35
-20.325
-20.3
-20.275
-20.25
-20.225
-20.2
-20.175
-20.15
-20.125
-20.1
-20.075
-20.05
-20.025
-20
VAR_LIST_END
BEGIN
-16.331411,-149.35442
-15.55156,-160.3031
-14.455233,-157.73151
-15.882036,-158.40848
-16.08486,-160.35863
-15.148382,-160.73309
-15.690418,-162.87578
-14.565386,-159.73943
-14.659853,-159.93436
-15.285724,-162.24745
-16.398113,-151.03601
-15.868444,-159.11365
-16.251215,-157.62537
-16.073507,-172.23743
-15.267525,-167.41788
-15.24401,-166.26317
-14.613668,-157.9418
-15.036549,-158.00992
-15.179494,-161.48981
-15.071404,-168.55673
-14.866413,-163.43788
-16.163782,-165.79936
-14.935326,-160.94409
-14.942787,-157.67625
-16.733273,-146.82201
-15.384337,-157.28587
-14.35887,-163.10315
-15.273367,-161.55087
-14.367352,-165.62111
-14.545033,-161.2637
-16.055969,-154.66966
-14.698722,-157.67101
-14.491438,-163.25668
-15.534859,-153.54324
-13.634046,-159.74646
-13.926342,-159.30438
-15.71861,-159.98506
-15.309622,-158.57375
-15.056273,-165.43552
-15.667466,-161.98932
-15.161598,-164.06992
-15.091916,-156.26276
-15.449531,-159.48537
-14.977628,-164.89188
-14.781466,-162.74057
-14.36562,-160.48874
-15.021199,-167.276
-15.589975,-157.73256
-14.656036,-159.55188
-14.166426,-159.12949
-15.489733,-159.7399
-15.480143,-162.22365
-16.028931,-164.77002
-15.58922,-157.55794
-15.051686,-161.60852
-15.416124,-152.50095
-15.162847,-162.23473
-15.108864,-167.84856
-15.275483,-164.17682
-14.669081,-163.29343
-14.315541,-160.5145
-15.062386,-163.19131
-15.400798,-157.33531
-14.963521,-160.20438
-15.235186,-159.2119
-15.858545,-162.75531
-16.057814,-163.09889
-15.734036,-161.48283
-16.090128,-157.50854
-16.265097,-160.02242
-14.926612,-163.29051
-15.265392,-152.39145
-15.825642,-158.12477
-15.762723,-163.54437
-15.028253,-159.62927
-14.990847,-161.7812
-14.771914,-163.15813
-14.863385,-167.70529
-14.591222,-161.22144
-14.269073,-160.64815
-15.027289,-155.99402
-14.431055,-160.03493
-14.6668,-166.04219
-14.504265,-161.4418
-15.338622,-159.23326
-15.937936,-160.23599
-15.041867,-153.44754
-14.769598,-156.22687
-14.564616,-159.94397
-14.468506,-155.89157
-15.814867,-161.14249
-14.393451,-169.71301
-15.183043,-170.45605
-16.153036,-158.94467
-14.335003,-155.20509
-15.084904,-158.26659
-15.419825,-156.72124
-15.352923,-164.66391
-14.932069,-162.80231
-15.463271,-155.58586
-15.128805,-158.32237
-14.794547,-167.62939
-14.890091,-160.46646
-15.43298,-164.17702
-15.788668,-161.24832
-14.865529,-161.95979
-14.958739,-159.412
-14.667549,-161.04907
-15.064176,-156.8754
-15.316131,-159.33176
-13.993671,-160.16261
-15.445302,-160.00102
-15.28533,-159.55225
-15.002819,-162.25856
-15.15972,-160.15924
-15.483985,-156.15991
-14.836368,-157.67856
-14.925358,-159.28804
-14.667996,-160.29369
-14.442846,-162.14058
-14.834498,-161.15526
-14.504638,-157.26199
-15.334857,-161.1739
-15.932166,-158.87387
-14.453812,-163.93744
-14.903687,-161.32317
-15.182859,-160.72076
-14.924151,-163.7253
-14.75891,-156.66248
-15.48947,-158.82005
-14.155514,-163.47772
-14.802977,-163.7729
-14.273768,-160.90492
-15.22197,-159.01903
-14.786342,-155.95815
-14.968244,-151.81523
-15.547408,-156.94072
-15.085773,-159.4299
-15.626055,-159.74887
-15.399142,-157.16789
-15.052605,-154.65454
-15.054338,-162.10583
-15.584723,-166.46536
-15.077296,-159.48866
-15.128659,-158.67175
-15.582191,-161.35066
-15.232887,-158.66364
-14.852108,-160.20158
-14.81057,-163.37231
-15.109755,-164.93417
-14.573494,-159.96309
-15.395891,-159.57344
-14.746925,-163.42754
-15.030908,-163.27644
-15.500997,-161.47458
-14.7051,-162.74898
-15.176072,-163.0674
-14.765222,-159.98306
-14.364503,-163.08849
-14.794243,-161.32251
-15.063237,-160.81456
-14.603381,-162.81529
-14.583556,-161.28857
-15.198521,-156.60728
-15.378103,-162.936
-15.151551,-160.3688
-15.404347,-163.28793
-15.084957,-160.35371
-14.598266,-157.78906
-15.355676,-158.8802
-14.775914,-161.71617
-15.061908,-160.49019
-15.824687,-161.22185
-15.233842,-163.53108
-14.97049,-159.26357
-14.494006,-162.49306
-15.402065,-159.60204
-15.338311,-158.16205
-15.277897,-157.03261
-15.257719,-157.48891
-14.947641,-159.38895
-14.363153,-158.17931
-15.336154,-156.02824
-15.089254,-162.04108
-14.873542,-165.49304
-15.419822,-163.35989
-15.068616,-157.44801
-14.615956,-164.42247
-15.193899,-163.87439
-15.383002,-159.93959
-15.110095,-163.98099
-14.888224,-159.25139
-15.33387,-155.01097
-14.411725,-157.46272
-15.487738,-162.37669
-14.821155,-159.63815
-15.712861,-157.51025
-14.824256,-161.0498
-14.417364,-163.13139
-15.118616,-156.16664
-14.85651,-157.99773
-15.514094,-160.14478
-14.976234,-162.32736
-14.965031,-158.27432
-14.805237,-158.24551
-14.83008,-164.7462
-15.465003,-155.07013
-15.357657,-158.93611
-14.793159,-160.78282
-15.469561,-159.09407
-15.147783,-161.23312
-15.363451,-164.18498
-15.91877,-162.8764
-15.029137,-157.8158
-14.740847,-161.91725
-14.98842,-152.68353
-14.56828,-156.89247
-14.962346,-161.35439
-14.324543,-158.5215
-14.640913,-160.45366
-14.644117,-160.34052
-14.651425,-162.32321
-16.040531,-165.63289
-14.953776,-164.96852
-15.43839,-162.98073
-15.589187,-163.52972
-15.32661,-164.8777
-15.090426,-161.77736
-14.866135,-163.04587
-15.442091,-158.58313
-14.771976,-162.7776
-16.216776,-159.75891
-15.020127,-158.89468
-15.327477,-162.76802
-14.968852,-162.30196
-14.615178,-167.28432
-15.437126,-161.94617
-14.813057,-159.52469
-15.22533,-159.21307
-14.573267,-159.11864
-14.757586,-160.02324
-15.098381,-160.77403
-15.996643,-162.75281
-14.868106,-157.89551
-14.380919,-163.49251
-14.784611,-158.51796
-15.30707,-162.76749
-15.313125,-161.55554
-15.577135,-160.90808
-15.24148,-156.44351
-14.860521,-158.19855
-14.675266,-160.42558
-14.509146,-156.78693
-14.966705,-159.25511
-15.211968,-159.21573
-14.843869,-161.64496
-14.34205,-155.8997
-15.153086,-157.96953
-15.217656,-159.89177
-15.238976,-165.98511
-15.625219,-159.85986
-14.877236,-160.34662
-15.500438,-159.27362
-14.638794,-162.13406
-15.01717,-161.75774
-15.70277,-158.20821
-14.395662,-164.25156
-14.754282,-160.30948
-15.122782,-161.56911
-15.268671,-158.86205
-15.585499,-160.68164
-14.859861,-162.39079
-15.330183,-163.84819
-15.345057,-161.84129
-15.059533,-159.43335
-15.776172,-161.89993
-14.420556,-161.8564
-15.321476,-158.00471
-14.743098,-159.35854
-15.786952,-162.01138
-15.243007,-163.65906
-15.263185,-157.22523
-14.831504,-159.03641
-15.001641,-158.03517
-15.246095,-158.00113
-14.831066,-162.79434
-14.284401,-162.47525
-14.841889,-162.28851
-15.67681,-161.4386
-14.756324,-163.03421
-14.810848,-161.01669
-14.266493,-161.3372
-14.991468,-162.27303
-14.835724,-164.03874
-15.332092,-160.44136
-15.823521,-159.39522
-14.808043,-163.96471
-15.190843,-160.55013
-14.824182,-159.90114
-14.804569,-157.71591
-15.032662,-159.81364
-14.704473,-158.76872
-14.698124,-164.76146
-15.278748,-157.72031
-14.347135,-164.72218
-14.996806,-166.09882
-15.362735,-163.17305
-14.952779,-158.71492
-15.533949,-158.52406
-14.919823,-160.94566
-14.766841,-161.05122
-14.977505,-161.88907
-14.988091,-160.78348
-15.127433,-159.65511
-14.790977,-159.64079
-15.392218,-161.78658
-15.657919,-158.46436
-15.389205,-162.62469
-15.165537,-161.9706
-15.018538,-161.28416
-15.08925,-160.6049
-15.32993,-161.10184
-14.935085,-163.82449
-15.036827,-162.20287
-14.943207,-162.15576
-15.028188,-159.54179
-15.175401,-160.18745
-14.572669,-158.51222
-14.940573,-160.66194
-14.874236,-158.49873
-15.249712,-159.24045
-15.110956,-161.29745
-15.608833,-161.92981
-15.077744,-162.43025
-15.234508,-161.33952
-15.0532,-160.22797
-15.344197,-158.80504
-14.935373,-163.37914
-14.957943,-162.46825
-15.080591,-159.68924
-14.399896,-160.85315
-14.500413,-158.40541
-15.426124,-160.99638
-14.830375,-162.34778
-15.352524,-160.49246
-15.453405,-157.91786
-15.161142,-159.79858
-15.474122,-159.99115
-14.613547,-161.84106
-15.177381,-157.65688
-15.673376,-162.83537
-14.775999,-159.05414
-15.251021,-162.75102
-14.351619,-165.15944
-15.130197,-161.39615
-15.333646,-159.13217
-15.132648,-161.57954
-14.932399,-161.23123
-15.326112,-162.37033
-15.50561,-158.14209
-14.9026,-161.67703
-14.941452,-159.6846
-15.424656,-160.37729
-15.396912,-164.46294
-15.167497,-160.61328
-15.12624,-161.6225
-15.163532,-165.92987
-15.228433,-161.41634
-15.266336,-158.83783
-14.634073,-162.23853
-15.01474,-160.61574
-15.021795,-161.38702
-15.037884,-160.24121
-15.375896,-157.58046
-15.160522,-157.84561
-15.192664,-161.40231
-14.868432,-160.84071
-14.920453,-162.26529
-15.218847,-159.84691
-15.147342,-160.64821
-14.582875,-162.38968
-14.665933,-161.79941
-14.707941,-159.87097
-14.931182,-162.6441
-14.737877,-159.41965
-15.518285,-158.77185
-14.769876,-161.57878
-15.711558,-160.0862
-14.923811,-162.48196
-15.118015,-163.28537
-14.508763,-158.87451
-15.019851,-158.14679
-14.998646,-159.43475
-14.969397,-161.08304
-15.316848,-161.7157
-14.674009,-160.04388
-14.868337,-160.26909
-15.461056,-160.57382
-15.15338,-160.73967
-15.613179,-161.81335
-14.653402,-159.82712
-14.861234,-160.46309
-14.740771,-158.40279
-15.513075,-163.03061
-15.045357,-158.76103
-15.073751,-160.14853
-14.754966,-157.2581
-14.960735,-162.52408
-15.171728,-159.55583
-14.897557,-158.57628
-14.846133,-159.76746
-14.843929,-160.00726
-15.112573,-163.06107
-15.232171,-160.20554
-14.933914,-161.66138
-15.123103,-161.31628
-15.264333,-160.9966
-15.011473,-161.42377
-14.997176,-160.86496
-15.018573,-160.23178
-14.879884,-160.26431
-14.86242,-160.68988
-14.809964,-161.83302
-14.813439,-161.97264
-14.940404,-159.46277
-14.89908,-163.15775
-15.026859,-159.71069
-15.114933,-159.88103
-15.206732,-162.30978
-14.987777,-160.27295
-15.002674,-159.48865
-15.244001,-159.79126
-14.856669,-157.23949
-15.142444,-161.88867
-15.44686,-158.14986
-15.310672,-161.53348
-14.972098,-159.57477
-14.88261,-158.2928
-14.898737,-160.17328
-14.740168,-158.90216
-15.192417,-163.10063
-14.815203,-163.54655
-15.268259,-162.64333
-15.073081,-162.2065
-15.001101,-159.95935
-15.065301,-161.13405
-14.732067,-160.31686
-14.87942,-160.99568
-14.756371,-160.04274
-15.36381,-161.47864
-15.124076,-157.1463
-15.16562,-159.29779
-14.989516,-160.45441
-15.053968,-160.95107
-15.019683,-160.61067
-15.022729,-159.91357
-14.942039,-159.99673
-14.745219,-162.28957
-15.02778,-160.85422
-15.30924,-161.55383
-14.886484,-162.246
-14.622683,-160.31627
-15.054455,-159.05251
-14.725598,-161.04411
-15.256222,-161.2321
-15.207826,-160.61603
-15.061544,-160.39764
-14.78794,-161.07593
-15.3633,-160.50771
-15.168579,-162.28989
-14.457091,-160.38565
-15.100395,-160.07755
-14.774544,-160.86441
-15.044389,-159.3103
-15.104563,-161.3371
-14.992048,-159.59631
-14.974222,-162.82434
-14.657977,-160.39131
-14.942851,-160.40428
-14.881232,-160.62599
-15.277467,-163.48788
-15.223777,-160.89159
-15.190818,-161.9912
-14.826013,-161.22023
-15.127297,-162.30215
-15.048308,-160.28998
-15.157125,-162.95815
-15.116909,-159.99794
-15.153669,-160.15414
-15.066018,-160.23245
-15.291939,-160.69458
-14.884139,-159.59209
-15.27564,-159.0323
-15.188918,-161.0609
-15.056949,-159.92999
-14.911606,-159.87706
-15.3072,-160.69788
-15.280829,-159.99065
-15.027431,-161.7218
-15.344653,-160.89384
-14.844931,-157.79356
-15.035784,-162.42331
-14.943847,-161.89336
-15.165567,-162.26158
-15.073561,-160.37746
-15.262043,-159.97957
-14.903129,-161.96344
-15.029066,-160.3569
-14.971121,-158.49629
-15.104555,-163.55991
-14.910982,-162.31056
-15.300571,-160.81444
-15.030375,-160.79755
-15.115047,-162.42517
-15.124856,-161.662
-15.011831,-162.93585
-14.934666,-161.23026
-14.981956,-161.0444
-15.12412,-160.05473
-15.024371,-161.64569
-15.166324,-160.51968
-15.323963,-162.26239
-14.728989,-161.39023
-14.84038,-159.38194
-15.020369,-162.62462
-15.237242,-159.0275
-15.146673,-158.76004
-14.890466,-160.21396
-14.951092,-160.02266
-15.279318,-160.82997
-15.059781,-162.59509
-15.180988,-158.79366
-14.97366,-159.81367
-15.052083,-161.19006
-15.032143,-161.83119
-15.325396,-159.51686
-14.968109,-160.12071
-15.055365,-160.04626
-14.912092,-161.08031
-15.055449,-159.27809
-15.254167,-160.7914
-15.280814,-160.42783
-14.914382,-160.99075
-14.752252,-161.758
-15.165006,-160.56395
-15.252247,-161.02086
-14.867614,-159.94682
-15.248791,-160.1293
-15.423912,-160.50418
-15.017126,-161.16599
-14.986766,-159.57323
-14.752655,-160.51212
-15.118719,-161.18787
-15.080045,-161.5576
-14.857722,-158.75453
-15.184768,-158.74359
-15.073308,-160.73549
-15.121764,-160.77936
-15.259973,-160.66437
-15.133254,-162.29749
-14.972203,-161.49205
-14.790232,-160.32155
-14.956537,-159.59033
-15.152211,-160.81693
-15.136112,-158.82208
-15.205173,-160.7506
-15.055388,-161.89705
-15.011713,-161.23167
-15.282029,-160.26427
-14.9591,-160.32161
-15.187263,-159.61905
-15.051407,-161.19865
-15.049162,-160.63364
-14.997458,-158.78171
-14.929054,-159.58458
-15.204478,-159.5631
