CITIFILE A.01.01
!Agilent Technologies,N5230C,MY48100142,A.08.04.10
!Agilent N5230C: A.08.04.10
!Format: LogMag/Angle
!Date: Monday, August 03, 2020 10:08:39
NAME CH1_DATA
VAR Power MAG 801
DATA S11 DBANGLE
DATA S21 DBANGLE
DATA S12 DBANGLE
DATA S22 DBANGLE
VAR_LIST_BEGIN
-40
-39.975
-39.95
-39.925
-39.9
-39.875
-39.85
-39.825
-39.8
-39.775
-39.75
-39.725
-39.7
-39.675
-39.65
-39.625
-39.6
-39.575
-39.55
-39.525
-39.5
-39.475
-39.45
-39.425
-39.4
-39.375
-39.35
-39.325
-39.3
-39.275
-39.25
-39.225
-39.2
-39.175
-39.15
-39.125
-39.1
-39.075
-39.05
-39.025
-39
-38.975
-38.95
-38.925
-38.9
-38.875
-38.85
-38.825
-38.8
-38.775
-38.75
-38.725
-38.7
-38.675
-38.65
-38.625
-38.6
-38.575
-38.55
-38.525
-38.5
-38.475
-38.45
-38.425
-38.4
-38.375
-38.35
-38.325
-38.3
-38.275
-38.25
-38.225
-38.2
-38.175
-38.15
-38.125
-38.1
-38.075
-38.05
-38.025
-38
-37.975
-37.95
-37.925
-37.9
-37.875
-37.85
-37.825
-37.8
-37.775
-37.75
-37.725
-37.7
-37.675
-37.65
-37.625
-37.6
-37.575
-37.55
-37.525
-37.5
-37.475
-37.45
-37.425
-37.4
-37.375
-37.35
-37.325
-37.3
-37.275
-37.25
-37.225
-37.2
-37.175
-37.15
-37.125
-37.1
-37.075
-37.05
-37.025
-37
-36.975
-36.95
-36.925
-36.9
-36.875
-36.85
-36.825
-36.8
-36.775
-36.75
-36.725
-36.7
-36.675
-36.65
-36.625
-36.6
-36.575
-36.55
-36.525
-36.5
-36.475
-36.45
-36.425
-36.4
-36.375
-36.35
-36.325
-36.3
-36.275
-36.25
-36.225
-36.2
-36.175
-36.15
-36.125
-36.1
-36.075
-36.05
-36.025
-36
-35.975
-35.95
-35.925
-35.9
-35.875
-35.85
-35.825
-35.8
-35.775
-35.75
-35.725
-35.7
-35.675
-35.65
-35.625
-35.6
-35.575
-35.55
-35.525
-35.5
-35.475
-35.45
-35.425
-35.4
-35.375
-35.35
-35.325
-35.3
-35.275
-35.25
-35.225
-35.2
-35.175
-35.15
-35.125
-35.1
-35.075
-35.05
-35.025
-35
-34.975
-34.95
-34.925
-34.9
-34.875
-34.85
-34.825
-34.8
-34.775
-34.75
-34.725
-34.7
-34.675
-34.65
-34.625
-34.6
-34.575
-34.55
-34.525
-34.5
-34.475
-34.45
-34.425
-34.4
-34.375
-34.35
-34.325
-34.3
-34.275
-34.25
-34.225
-34.2
-34.175
-34.15
-34.125
-34.1
-34.075
-34.05
-34.025
-34
-33.975
-33.95
-33.925
-33.9
-33.875
-33.85
-33.825
-33.8
-33.775
-33.75
-33.725
-33.7
-33.675
-33.65
-33.625
-33.6
-33.575
-33.55
-33.525
-33.5
-33.475
-33.45
-33.425
-33.4
-33.375
-33.35
-33.325
-33.3
-33.275
-33.25
-33.225
-33.2
-33.175
-33.15
-33.125
-33.1
-33.075
-33.05
-33.025
-33
-32.975
-32.95
-32.925
-32.9
-32.875
-32.85
-32.825
-32.8
-32.775
-32.75
-32.725
-32.7
-32.675
-32.65
-32.625
-32.6
-32.575
-32.55
-32.525
-32.5
-32.475
-32.45
-32.425
-32.4
-32.375
-32.35
-32.325
-32.3
-32.275
-32.25
-32.225
-32.2
-32.175
-32.15
-32.125
-32.1
-32.075
-32.05
-32.025
-32
-31.975
-31.95
-31.925
-31.9
-31.875
-31.85
-31.825
-31.8
-31.775
-31.75
-31.725
-31.7
-31.675
-31.65
-31.625
-31.6
-31.575
-31.55
-31.525
-31.5
-31.475
-31.45
-31.425
-31.4
-31.375
-31.35
-31.325
-31.3
-31.275
-31.25
-31.225
-31.2
-31.175
-31.15
-31.125
-31.1
-31.075
-31.05
-31.025
-31
-30.975
-30.95
-30.925
-30.9
-30.875
-30.85
-30.825
-30.8
-30.775
-30.75
-30.725
-30.7
-30.675
-30.65
-30.625
-30.6
-30.575
-30.55
-30.525
-30.5
-30.475
-30.45
-30.425
-30.4
-30.375
-30.35
-30.325
-30.3
-30.275
-30.25
-30.225
-30.2
-30.175
-30.15
-30.125
-30.1
-30.075
-30.05
-30.025
-30
-29.975
-29.95
-29.925
-29.9
-29.875
-29.85
-29.825
-29.8
-29.775
-29.75
-29.725
-29.7
-29.675
-29.65
-29.625
-29.6
-29.575
-29.55
-29.525
-29.5
-29.475
-29.45
-29.425
-29.4
-29.375
-29.35
-29.325
-29.3
-29.275
-29.25
-29.225
-29.2
-29.175
-29.15
-29.125
-29.1
-29.075
-29.05
-29.025
-29
-28.975
-28.95
-28.925
-28.9
-28.875
-28.85
-28.825
-28.8
-28.775
-28.75
-28.725
-28.7
-28.675
-28.65
-28.625
-28.6
-28.575
-28.55
-28.525
-28.5
-28.475
-28.45
-28.425
-28.4
-28.375
-28.35
-28.325
-28.3
-28.275
-28.25
-28.225
-28.2
-28.175
-28.15
-28.125
-28.1
-28.075
-28.05
-28.025
-28
-27.975
-27.95
-27.925
-27.9
-27.875
-27.85
-27.825
-27.8
-27.775
-27.75
-27.725
-27.7
-27.675
-27.65
-27.625
-27.6
-27.575
-27.55
-27.525
-27.5
-27.475
-27.45
-27.425
-27.4
-27.375
-27.35
-27.325
-27.3
-27.275
-27.25
-27.225
-27.2
-27.175
-27.15
-27.125
-27.1
-27.075
-27.05
-27.025
-27
-26.975
-26.95
-26.925
-26.9
-26.875
-26.85
-26.825
-26.8
-26.775
-26.75
-26.725
-26.7
-26.675
-26.65
-26.625
-26.6
-26.575
-26.55
-26.525
-26.5
-26.475
-26.45
-26.425
-26.4
-26.375
-26.35
-26.325
-26.3
-26.275
-26.25
-26.225
-26.2
-26.175
-26.15
-26.125
-26.1
-26.075
-26.05
-26.025
-26
-25.975
-25.95
-25.925
-25.9
-25.875
-25.85
-25.825
-25.8
-25.775
-25.75
-25.725
-25.7
-25.675
-25.65
-25.625
-25.6
-25.575
-25.55
-25.525
-25.5
-25.475
-25.45
-25.425
-25.4
-25.375
-25.35
-25.325
-25.3
-25.275
-25.25
-25.225
-25.2
-25.175
-25.15
-25.125
-25.1
-25.075
-25.05
-25.025
-25
-24.975
-24.95
-24.925
-24.9
-24.875
-24.85
-24.825
-24.8
-24.775
-24.75
-24.725
-24.7
-24.675
-24.65
-24.625
-24.6
-24.575
-24.55
-24.525
-24.5
-24.475
-24.45
-24.425
-24.4
-24.375
-24.35
-24.325
-24.3
-24.275
-24.25
-24.225
-24.2
-24.175
-24.15
-24.125
-24.1
-24.075
-24.05
-24.025
-24
-23.975
-23.95
-23.925
-23.9
-23.875
-23.85
-23.825
-23.8
-23.775
-23.75
-23.725
-23.7
-23.675
-23.65
-23.625
-23.6
-23.575
-23.55
-23.525
-23.5
-23.475
-23.45
-23.425
-23.4
-23.375
-23.35
-23.325
-23.3
-23.275
-23.25
-23.225
-23.2
-23.175
-23.15
-23.125
-23.1
-23.075
-23.05
-23.025
-23
-22.975
-22.95
-22.925
-22.9
-22.875
-22.85
-22.825
-22.8
-22.775
-22.75
-22.725
-22.7
-22.675
-22.65
-22.625
-22.6
-22.575
-22.55
-22.525
-22.5
-22.475
-22.45
-22.425
-22.4
-22.375
-22.35
-22.325
-22.3
-22.275
-22.25
-22.225
-22.2
-22.175
-22.15
-22.125
-22.1
-22.075
-22.05
-22.025
-22
-21.975
-21.95
-21.925
-21.9
-21.875
-21.85
-21.825
-21.8
-21.775
-21.75
-21.725
-21.7
-21.675
-21.65
-21.625
-21.6
-21.575
-21.55
-21.525
-21.5
-21.475
-21.45
-21.425
-21.4
-21.375
-21.35
-21.325
-21.3
-21.275
-21.25
-21.225
-21.2
-21.175
-21.15
-21.125
-21.1
-21.075
-21.05
-21.025
-21
-20.975
-20.95
-20.925
-20.9
-20.875
-20.85
-20.825
-20.8
-20.775
-20.75
-20.725
-20.7
-20.675
-20.65
-20.625
-20.6
-20.575
-20.55
-20.525
-20.5
-20.475
-20.45
-20.425
-20.4
-20.375
-20.35
-20.325
-20.3
-20.275
-20.25
-20.225
-20.2
-20.175
-20.15
-20.125
-20.1
-20.075
-20.05
-20.025
-20
VAR_LIST_END
BEGIN
-14.828808,-160.29855
-14.560015,-160.59386
-15.48348,-160.0365
-15.106724,-157.8768
-14.490176,-159.33365
-15.512436,-158.44135
-15.937831,-162.6122
-14.805489,-156.42334
-15.304532,-164.09097
-15.147281,-158.27074
-14.77243,-162.12308
-15.410002,-161.72812
-15.180222,-164.2932
-15.495259,-161.86729
-14.328025,-158.35559
-15.302336,-159.96338
-14.523284,-161.32027
-15.48152,-159.8632
-15.184336,-156.6535
-15.572703,-164.73885
-15.98722,-161.93008
-14.785261,-157.87442
-14.741525,-162.36131
-14.681785,-160.17549
-15.068453,-162.9207
-14.760802,-157.8311
-15.137346,-161.67773
-14.664516,-157.66039
-14.622244,-158.80772
-15.593547,-161.15831
-15.499355,-159.86285
-15.645201,-160.21202
-15.489889,-156.36475
-15.578542,-160.53589
-15.362227,-159.00453
-15.174663,-160.89716
-15.739908,-159.46748
-14.545978,-160.77191
-15.165323,-159.88628
-14.882133,-160.80151
-15.613746,-160.52867
-15.202934,-158.3049
-15.141064,-160.45096
-15.396103,-158.22403
-14.827753,-160.45241
-14.692941,-161.80461
-15.081298,-153.56665
-14.945675,-160.12837
-15.367234,-158.74371
-15.147417,-160.2178
-15.151889,-157.75691
-15.244786,-158.25233
-15.344042,-164.1375
-14.884095,-160.4091
-14.898878,-161.24448
-15.396961,-162.38779
-14.885777,-159.58055
-15.636099,-164.62561
-14.853268,-160.68102
-14.978612,-162.6317
-14.822291,-160.13141
-15.194898,-157.37801
-15.001336,-155.2632
-15.236729,-158.9623
-15.40317,-161.53174
-15.41397,-159.0051
-15.011562,-159.15433
-15.450258,-159.76532
-15.381849,-163.46899
-15.15283,-163.62386
-15.434392,-158.40327
-14.526816,-161.73334
-15.172063,-157.96886
-14.744238,-161.81918
-14.841868,-162.79593
-14.838225,-164.36313
-15.215411,-154.90578
-14.789292,-160.46051
-15.449635,-160.3651
-14.43612,-159.48685
-15.064369,-161.69563
-15.867894,-159.32439
-15.140215,-165.38242
-14.706492,-160.99518
-15.175182,-158.71582
-14.438226,-159.87592
-15.161729,-158.22124
-14.578293,-162.05031
-15.521881,-160.76468
-15.002449,-165.01099
-15.061517,-162.75035
-14.882407,-161.52463
-15.544877,-165.71208
-15.4538,-160.70303
-15.211099,-158.55225
-15.009473,-163.58009
-14.398356,-160.11845
-14.945647,-157.29768
-15.196601,-161.18646
-15.457381,-162.17792
-14.455218,-159.87221
-14.761051,-159.51779
-14.759917,-159.86374
-15.621982,-157.82433
-14.928675,-164.42026
-14.515772,-161.40398
-15.334446,-158.40623
-15.470345,-161.44688
-15.425127,-158.55043
-15.236205,-164.48868
-14.723283,-160.93272
-15.277122,-158.43588
-14.736567,-159.9162
-14.985138,-159.88776
-15.153968,-157.76888
-14.629336,-160.61073
-15.504469,-156.56296
-14.870183,-159.42616
-15.011414,-160.67044
-15.261796,-163.4485
-15.439758,-163.74515
-15.270363,-158.85161
-15.034558,-160.88379
-15.278732,-159.1983
-15.245686,-159.37196
-15.171184,-165.06044
-15.210654,-158.89078
-14.500675,-159.50092
-15.380213,-157.89482
-14.894771,-156.99149
-14.45301,-162.07175
-15.145323,-162.67282
-14.822685,-161.41418
-15.476619,-157.69273
-15.050643,-160.07515
-15.353623,-161.08421
-14.749557,-160.41689
-15.134808,-161.55
-14.663693,-155.62469
-15.107242,-158.09427
-14.836049,-157.71628
-14.912333,-160.65504
-15.154634,-161.19386
-15.26561,-154.0974
-14.946531,-158.84644
-15.384664,-158.38515
-14.747385,-159.70819
-15.244363,-159.66168
-15.350379,-159.52681
-15.162058,-161.34697
-15.001075,-157.12819
-14.864895,-157.91272
-14.893448,-158.46756
-14.889819,-162.02347
-15.286283,-161.40762
-14.860848,-160.75429
-15.209418,-163.50267
-15.004104,-161.67815
-14.865069,-159.60785
-15.001162,-160.45175
-14.840614,-162.78618
-15.155204,-159.80191
-15.469737,-159.64099
-15.042707,-161.53169
-15.228748,-157.66512
-14.863948,-159.45638
-14.815644,-161.07956
-14.539156,-160.75737
-14.977909,-157.12814
-15.32295,-160.52242
-14.808487,-162.62587
-14.833671,-160.45753
-15.193547,-159.64014
-15.233376,-161.12315
-15.209658,-162.49495
-15.310367,-159.2243
-15.088316,-160.77274
-15.348901,-161.37914
-15.169473,-159.32742
-14.810833,-160.33305
-15.411529,-161.15808
-14.651585,-162.1936
-15.070543,-157.76372
-15.397377,-160.7397
-15.344156,-161.15265
-14.755048,-159.30553
-14.877711,-160.53781
-15.14142,-159.97308
-14.631294,-161.33057
-15.134296,-161.20995
-15.087918,-159.03314
-14.996046,-158.74689
-14.935014,-161.90825
-14.797908,-162.85664
-15.238504,-158.33029
-14.943048,-163.5992
-15.320635,-160.49062
-15.345085,-157.72632
-14.864406,-159.83145
-14.770673,-159.2023
-15.60913,-157.82579
-15.024098,-161.89989
-14.843578,-160.53093
-15.036488,-160.18706
-14.938801,-159.36478
-15.441116,-160.65985
-14.836614,-159.97423
-15.217276,-163.61626
-14.965014,-158.04402
-14.905086,-159.38475
-14.675323,-158.98726
-15.152081,-157.35034
-15.188722,-163.12881
-15.415322,-159.22791
-15.183154,-161.31908
-14.807061,-160.7236
-15.258658,-160.2771
-14.756898,-159.66493
-14.869285,-163.15662
-15.507359,-162.15919
-15.310714,-161.70251
-15.106041,-160.04449
-14.956479,-160.73715
-14.776901,-161.09079
-15.399561,-163.2652
-14.880566,-160.52957
-15.245749,-157.80458
-15.118607,-159.16722
-15.020947,-158.29512
-15.32526,-158.8053
-15.416791,-160.93025
-15.022411,-161.57098
-14.902958,-160.26392
-15.015761,-159.61913
-15.030615,-160.49762
-15.06764,-159.36436
-14.792286,-160.69963
-14.989159,-157.94412
-14.9498,-161.52502
-15.338095,-161.32053
-15.166549,-161.33272
-15.074875,-161.66513
-14.890395,-161.729
-15.160355,-159.86533
-15.021032,-161.48337
-14.55827,-159.13254
-15.275752,-161.09048
-15.069344,-162.83627
-15.066687,-160.07744
-14.884181,-161.20232
-15.315609,-161.07265
-14.975858,-158.59456
-15.104309,-161.94321
-15.109192,-159.62491
-15.285959,-158.35028
-14.994349,-156.86641
-15.521733,-162.12877
-15.469264,-161.26906
-14.792838,-159.67191
-15.326508,-162.11655
-15.041602,-159.15234
-15.352701,-161.59529
-15.243299,-159.55818
-15.253252,-160.53432
-14.682247,-161.23936
-15.408712,-160.53458
-15.333012,-161.29283
-14.91881,-160.94263
-14.593081,-158.88728
-15.093832,-157.67055
-14.991714,-161.68803
-15.143309,-161.93774
-14.819749,-160.11049
-14.822841,-160.94345
-15.119682,-159.52104
-15.178849,-160.61998
-15.055967,-161.2478
-15.018546,-159.44112
-15.059187,-161.78177
-15.290749,-161.59698
-15.256432,-160.12184
-15.088815,-159.57039
-14.974478,-160.96854
-15.271618,-160.43886
-15.154198,-159.41928
-14.937968,-158.05345
-14.951679,-161.11537
-15.221354,-160.76694
-15.46656,-160.77347
-15.208583,-159.50397
-14.999827,-159.28931
-15.063808,-159.28296
-15.040218,-159.06796
-15.197449,-160.60869
-14.965911,-162.64922
-14.86757,-159.97646
-15.147297,-158.22778
-15.15032,-159.73775
-15.427493,-159.39299
-14.861077,-160.4247
-14.973572,-159.95354
-15.106638,-158.42314
-15.260044,-161.08397
-14.831524,-161.7403
-15.183795,-162.12343
-15.104332,-159.61913
-14.964427,-160.01546
-15.283503,-162.5009
-15.287448,-159.33
-15.26071,-160.68427
-15.247642,-161.29691
-14.981178,-158.12373
-15.231065,-157.13586
-15.086038,-160.0022
-15.239289,-160.70499
-14.905484,-161.62897
-15.510224,-161.25793
-15.133004,-161.24561
-15.16751,-162.09685
-15.18689,-160.87573
-15.108773,-160.34108
-15.04485,-158.37695
-15.01705,-160.67761
-15.30127,-161.13785
-14.752,-160.28339
-15.394839,-158.8703
-14.854715,-162.57512
-15.095369,-158.97517
-15.008528,-160.08934
-15.263933,-161.9425
-14.882953,-160.41605
-15.317205,-158.09851
-15.132322,-159.49013
-15.057984,-161.97467
-15.413328,-159.74849
-15.222962,-160.15666
-15.129447,-159.81471
-14.949314,-161.57135
-14.977504,-161.95166
-15.027683,-161.34332
-14.984886,-159.21834
-15.210243,-161.65797
-15.513286,-162.26038
-15.415281,-160.60916
-15.236088,-159.28564
-14.885781,-159.91605
-14.86433,-158.61356
-15.167843,-160.99474
-14.977045,-160.67163
-15.277511,-160.54135
-15.143728,-157.94333
-15.275213,-160.75504
-14.909135,-159.43288
-15.089086,-160.28844
-15.283916,-160.52344
-14.727317,-160.02351
-15.31613,-160.59468
-15.098909,-161.72791
-15.039474,-160.27266
-14.784164,-160.51843
-15.220892,-160.71143
-14.935259,-161.45001
-15.042112,-160.19847
-15.158931,-161.88739
-14.902898,-160.30878
-15.175708,-159.91473
-15.29635,-161.81842
-15.321813,-160.97939
-15.09931,-158.91376
-15.088821,-160.07831
-15.137123,-158.51028
-15.137445,-159.3833
-15.146379,-159.44073
-15.160279,-161.25821
-14.9507,-159.61876
-15.012037,-161.12598
-14.893302,-161.81584
-14.749465,-159.85037
-15.022799,-158.91887
-15.07493,-161.65007
-15.037599,-159.77312
-15.062001,-160.12317
-15.249029,-159.72958
-14.979812,-162.623
-15.104563,-160.38466
-15.042774,-159.1189
-15.044401,-161.76837
-15.138939,-158.78349
-14.978568,-160.75449
-15.214199,-158.97581
-15.063579,-161.09334
-15.007271,-160.36867
-14.919807,-159.41774
-15.14486,-161.02141
-15.069853,-158.799
-15.208407,-161.41106
-15.197333,-159.9814
-15.052622,-159.08334
-15.028079,-159.77861
-14.830841,-161.054
-14.817142,-161.01285
-15.260245,-159.18613
-15.245356,-159.49071
-15.018494,-159.94035
-15.050567,-159.13326
-15.033932,-160.23012
-15.083189,-158.22148
-15.082323,-161.0421
-14.962905,-159.30917
-14.797186,-161.93564
-15.259197,-160.54338
-15.186405,-159.62851
-14.923084,-160.94298
-15.201144,-160.30984
-15.099564,-160.46817
-14.998295,-160.10059
-15.152542,-159.28581
-15.18111,-162.59776
-15.402797,-159.11699
-15.03162,-160.80725
-15.142146,-160.55023
-14.930225,-160.29289
-14.974549,-159.06845
-14.82388,-159.3428
-14.886107,-159.1498
-15.271525,-160.74472
-15.117673,-159.36549
-15.279668,-159.10764
-15.239387,-159.94136
-14.832372,-159.0069
-14.920733,-160.53879
-15.162215,-160.89346
-14.895193,-161.78796
-15.185341,-160.26732
-15.204992,-160.14368
-15.2288,-160.04776
-15.133449,-160.52664
-14.864852,-160.03076
-15.081811,-159.77679
-15.060237,-160.50844
-15.082331,-160.08524
-15.090443,-160.70253
-14.982647,-158.56551
-14.922539,-159.73721
-15.06737,-160.3988
-15.002183,-159.73898
-15.223537,-159.94748
-15.083147,-160.68129
-14.965715,-158.49315
-15.084182,-160.05524
-15.149519,-158.94206
-14.863626,-159.66574
-15.048761,-158.87367
-15.269051,-160.52394
-15.056351,-161.21799
-14.962273,-160.62575
-15.109641,-161.14163
-15.008609,-161.16176
-14.932252,-160.2045
-14.795309,-160.51305
-15.233365,-159.33084
-14.999651,-158.8822
-15.305062,-159.87772
-15.254166,-160.6835
-15.025303,-159.53763
-15.063298,-160.4664
-15.037916,-160.37271
-15.220345,-160.45288
-15.023283,-160.1386
-15.133323,-159.24129
-15.120275,-159.34366
-15.425755,-159.43187
-14.973221,-161.15042
-15.130547,-160.42815
-14.959044,-160.64392
-15.317703,-160.97647
-15.105394,-160.01288
-15.1903,-160.22585
-15.215913,-160.79042
-15.175915,-160.6646
-15.121557,-160.37975
-14.862745,-160.19576
-15.023404,-159.99852
-15.031066,-159.77509
-15.095101,-159.83182
-15.340729,-159.07504
-15.244638,-160.32471
-14.901689,-161.03099
-14.977082,-158.4404
-15.0663,-160.83632
-15.252729,-159.37486
-15.137404,-160.26761
-15.027528,-159.53923
-15.114469,-160.07567
-14.904543,-160.19992
-15.047575,-159.79953
-15.191341,-158.90503
-14.915848,-160.29869
-15.054583,-160.25206
-15.137557,-159.71371
-15.146919,-159.87746
-14.950353,-160.26147
-15.096697,-160.15579
-15.022798,-159.92477
-15.128128,-159.02814
-15.100664,-160.0434
-15.1161,-159.56488
-14.987865,-161.65636
-15.092134,-160.09795
-14.949747,-159.61942
-15.022916,-159.25613
-15.010015,-159.99327
-15.203174,-159.11118
-15.153412,-160.44995
-15.110375,-159.94037
-15.022391,-160.74164
-15.188964,-160.96478
-14.966166,-159.51003
-14.90169,-160.42047
-15.13624,-159.78726
-15.120233,-159.46819
-15.208251,-160.9068
-14.983163,-160.54559
-15.113085,-160.32506
-14.972095,-160.94316
-15.10002,-159.92986
-15.189668,-161.24046
-14.975567,-160.07471
-15.016156,-159.13704
-15.144422,-160.75621
-15.245443,-160.39343
-15.044956,-159.84309
-14.998857,-159.78609
-15.210591,-160.49806
-15.065522,-161.40529
-15.226475,-160.74767
-15.049113,-160.08809
-15.114529,-160.57565
-15.133274,-160.78455
-14.915667,-159.79938
-15.210483,-160.71544
-15.114342,-160.28879
-15.120322,-160.60867
-14.973584,-160.17671
-15.216459,-160.66115
-15.136482,-158.89349
-15.160358,-160.6897
-14.881894,-159.60022
-14.953732,-160.3681
-15.124137,-160.40012
-15.058472,-159.65994
-15.078264,-160.37062
-15.101429,-160.31407
-15.038767,-160.116
-14.907552,-161.1615
-15.09282,-160.30835
-15.143107,-159.41635
-15.063232,-159.9942
-14.86575,-159.68867
-15.116941,-160.68542
-15.030498,-160.43709
-15.140942,-160.19116
-15.204351,-159.66652
-14.945365,-159.53174
-15.149778,-158.45752
-14.985841,-160.4782
-14.947824,-160.33701
-15.193991,-161.01941
-15.029382,-159.01521
-15.099821,-159.31189
-15.245905,-160.7545
-14.9297,-159.64365
-14.940771,-160.29684
-15.104324,-160.40887
-15.252178,-160.00241
-14.895863,-159.40248
