CITIFILE A.01.01
!Agilent Technologies,N5230C,MY48100142,A.08.04.10
!Agilent N5230C: A.08.04.10
!Format: LogMag/Angle
!Date: Tuesday, July 21, 2020 17:36:49
NAME CH1_DATA
VAR Power MAG 801
DATA S11 DBANGLE
DATA S21 DBANGLE
DATA S12 DBANGLE
DATA S22 DBANGLE
VAR_LIST_BEGIN
-40
-39.975
-39.95
-39.925
-39.9
-39.875
-39.85
-39.825
-39.8
-39.775
-39.75
-39.725
-39.7
-39.675
-39.65
-39.625
-39.6
-39.575
-39.55
-39.525
-39.5
-39.475
-39.45
-39.425
-39.4
-39.375
-39.35
-39.325
-39.3
-39.275
-39.25
-39.225
-39.2
-39.175
-39.15
-39.125
-39.1
-39.075
-39.05
-39.025
-39
-38.975
-38.95
-38.925
-38.9
-38.875
-38.85
-38.825
-38.8
-38.775
-38.75
-38.725
-38.7
-38.675
-38.65
-38.625
-38.6
-38.575
-38.55
-38.525
-38.5
-38.475
-38.45
-38.425
-38.4
-38.375
-38.35
-38.325
-38.3
-38.275
-38.25
-38.225
-38.2
-38.175
-38.15
-38.125
-38.1
-38.075
-38.05
-38.025
-38
-37.975
-37.95
-37.925
-37.9
-37.875
-37.85
-37.825
-37.8
-37.775
-37.75
-37.725
-37.7
-37.675
-37.65
-37.625
-37.6
-37.575
-37.55
-37.525
-37.5
-37.475
-37.45
-37.425
-37.4
-37.375
-37.35
-37.325
-37.3
-37.275
-37.25
-37.225
-37.2
-37.175
-37.15
-37.125
-37.1
-37.075
-37.05
-37.025
-37
-36.975
-36.95
-36.925
-36.9
-36.875
-36.85
-36.825
-36.8
-36.775
-36.75
-36.725
-36.7
-36.675
-36.65
-36.625
-36.6
-36.575
-36.55
-36.525
-36.5
-36.475
-36.45
-36.425
-36.4
-36.375
-36.35
-36.325
-36.3
-36.275
-36.25
-36.225
-36.2
-36.175
-36.15
-36.125
-36.1
-36.075
-36.05
-36.025
-36
-35.975
-35.95
-35.925
-35.9
-35.875
-35.85
-35.825
-35.8
-35.775
-35.75
-35.725
-35.7
-35.675
-35.65
-35.625
-35.6
-35.575
-35.55
-35.525
-35.5
-35.475
-35.45
-35.425
-35.4
-35.375
-35.35
-35.325
-35.3
-35.275
-35.25
-35.225
-35.2
-35.175
-35.15
-35.125
-35.1
-35.075
-35.05
-35.025
-35
-34.975
-34.95
-34.925
-34.9
-34.875
-34.85
-34.825
-34.8
-34.775
-34.75
-34.725
-34.7
-34.675
-34.65
-34.625
-34.6
-34.575
-34.55
-34.525
-34.5
-34.475
-34.45
-34.425
-34.4
-34.375
-34.35
-34.325
-34.3
-34.275
-34.25
-34.225
-34.2
-34.175
-34.15
-34.125
-34.1
-34.075
-34.05
-34.025
-34
-33.975
-33.95
-33.925
-33.9
-33.875
-33.85
-33.825
-33.8
-33.775
-33.75
-33.725
-33.7
-33.675
-33.65
-33.625
-33.6
-33.575
-33.55
-33.525
-33.5
-33.475
-33.45
-33.425
-33.4
-33.375
-33.35
-33.325
-33.3
-33.275
-33.25
-33.225
-33.2
-33.175
-33.15
-33.125
-33.1
-33.075
-33.05
-33.025
-33
-32.975
-32.95
-32.925
-32.9
-32.875
-32.85
-32.825
-32.8
-32.775
-32.75
-32.725
-32.7
-32.675
-32.65
-32.625
-32.6
-32.575
-32.55
-32.525
-32.5
-32.475
-32.45
-32.425
-32.4
-32.375
-32.35
-32.325
-32.3
-32.275
-32.25
-32.225
-32.2
-32.175
-32.15
-32.125
-32.1
-32.075
-32.05
-32.025
-32
-31.975
-31.95
-31.925
-31.9
-31.875
-31.85
-31.825
-31.8
-31.775
-31.75
-31.725
-31.7
-31.675
-31.65
-31.625
-31.6
-31.575
-31.55
-31.525
-31.5
-31.475
-31.45
-31.425
-31.4
-31.375
-31.35
-31.325
-31.3
-31.275
-31.25
-31.225
-31.2
-31.175
-31.15
-31.125
-31.1
-31.075
-31.05
-31.025
-31
-30.975
-30.95
-30.925
-30.9
-30.875
-30.85
-30.825
-30.8
-30.775
-30.75
-30.725
-30.7
-30.675
-30.65
-30.625
-30.6
-30.575
-30.55
-30.525
-30.5
-30.475
-30.45
-30.425
-30.4
-30.375
-30.35
-30.325
-30.3
-30.275
-30.25
-30.225
-30.2
-30.175
-30.15
-30.125
-30.1
-30.075
-30.05
-30.025
-30
-29.975
-29.95
-29.925
-29.9
-29.875
-29.85
-29.825
-29.8
-29.775
-29.75
-29.725
-29.7
-29.675
-29.65
-29.625
-29.6
-29.575
-29.55
-29.525
-29.5
-29.475
-29.45
-29.425
-29.4
-29.375
-29.35
-29.325
-29.3
-29.275
-29.25
-29.225
-29.2
-29.175
-29.15
-29.125
-29.1
-29.075
-29.05
-29.025
-29
-28.975
-28.95
-28.925
-28.9
-28.875
-28.85
-28.825
-28.8
-28.775
-28.75
-28.725
-28.7
-28.675
-28.65
-28.625
-28.6
-28.575
-28.55
-28.525
-28.5
-28.475
-28.45
-28.425
-28.4
-28.375
-28.35
-28.325
-28.3
-28.275
-28.25
-28.225
-28.2
-28.175
-28.15
-28.125
-28.1
-28.075
-28.05
-28.025
-28
-27.975
-27.95
-27.925
-27.9
-27.875
-27.85
-27.825
-27.8
-27.775
-27.75
-27.725
-27.7
-27.675
-27.65
-27.625
-27.6
-27.575
-27.55
-27.525
-27.5
-27.475
-27.45
-27.425
-27.4
-27.375
-27.35
-27.325
-27.3
-27.275
-27.25
-27.225
-27.2
-27.175
-27.15
-27.125
-27.1
-27.075
-27.05
-27.025
-27
-26.975
-26.95
-26.925
-26.9
-26.875
-26.85
-26.825
-26.8
-26.775
-26.75
-26.725
-26.7
-26.675
-26.65
-26.625
-26.6
-26.575
-26.55
-26.525
-26.5
-26.475
-26.45
-26.425
-26.4
-26.375
-26.35
-26.325
-26.3
-26.275
-26.25
-26.225
-26.2
-26.175
-26.15
-26.125
-26.1
-26.075
-26.05
-26.025
-26
-25.975
-25.95
-25.925
-25.9
-25.875
-25.85
-25.825
-25.8
-25.775
-25.75
-25.725
-25.7
-25.675
-25.65
-25.625
-25.6
-25.575
-25.55
-25.525
-25.5
-25.475
-25.45
-25.425
-25.4
-25.375
-25.35
-25.325
-25.3
-25.275
-25.25
-25.225
-25.2
-25.175
-25.15
-25.125
-25.1
-25.075
-25.05
-25.025
-25
-24.975
-24.95
-24.925
-24.9
-24.875
-24.85
-24.825
-24.8
-24.775
-24.75
-24.725
-24.7
-24.675
-24.65
-24.625
-24.6
-24.575
-24.55
-24.525
-24.5
-24.475
-24.45
-24.425
-24.4
-24.375
-24.35
-24.325
-24.3
-24.275
-24.25
-24.225
-24.2
-24.175
-24.15
-24.125
-24.1
-24.075
-24.05
-24.025
-24
-23.975
-23.95
-23.925
-23.9
-23.875
-23.85
-23.825
-23.8
-23.775
-23.75
-23.725
-23.7
-23.675
-23.65
-23.625
-23.6
-23.575
-23.55
-23.525
-23.5
-23.475
-23.45
-23.425
-23.4
-23.375
-23.35
-23.325
-23.3
-23.275
-23.25
-23.225
-23.2
-23.175
-23.15
-23.125
-23.1
-23.075
-23.05
-23.025
-23
-22.975
-22.95
-22.925
-22.9
-22.875
-22.85
-22.825
-22.8
-22.775
-22.75
-22.725
-22.7
-22.675
-22.65
-22.625
-22.6
-22.575
-22.55
-22.525
-22.5
-22.475
-22.45
-22.425
-22.4
-22.375
-22.35
-22.325
-22.3
-22.275
-22.25
-22.225
-22.2
-22.175
-22.15
-22.125
-22.1
-22.075
-22.05
-22.025
-22
-21.975
-21.95
-21.925
-21.9
-21.875
-21.85
-21.825
-21.8
-21.775
-21.75
-21.725
-21.7
-21.675
-21.65
-21.625
-21.6
-21.575
-21.55
-21.525
-21.5
-21.475
-21.45
-21.425
-21.4
-21.375
-21.35
-21.325
-21.3
-21.275
-21.25
-21.225
-21.2
-21.175
-21.15
-21.125
-21.1
-21.075
-21.05
-21.025
-21
-20.975
-20.95
-20.925
-20.9
-20.875
-20.85
-20.825
-20.8
-20.775
-20.75
-20.725
-20.7
-20.675
-20.65
-20.625
-20.6
-20.575
-20.55
-20.525
-20.5
-20.475
-20.45
-20.425
-20.4
-20.375
-20.35
-20.325
-20.3
-20.275
-20.25
-20.225
-20.2
-20.175
-20.15
-20.125
-20.1
-20.075
-20.05
-20.025
-20
VAR_LIST_END
BEGIN
-14.59676,-140.81053
-13.988193,-139.22038
-14.075044,-148.28444
-15.085799,-145.02129
-14.270434,-142.12105
-14.784062,-147.79379
-15.124352,-145.05528
-15.706502,-136.47578
-14.284488,-143.59331
-14.016729,-148.89069
-14.860543,-150.79672
-14.518557,-141.0126
-13.985564,-145.27319
-14.867732,-139.99986
-14.063474,-142.60281
-13.218568,-146.0927
-14.38529,-142.02208
-15.375226,-148.42783
-14.649961,-144.69389
-14.034636,-153.64122
-14.608837,-150.10867
-15.051876,-145.00011
-14.788588,-142.33081
-14.418042,-139.84534
-14.665895,-141.63351
-14.237823,-143.97639
-14.924321,-146.14156
-14.161716,-148.6749
-14.86974,-149.74171
-14.115163,-141.75592
-15.775803,-137.49115
-14.503905,-142.05455
-14.36692,-142.42249
-14.445251,-134.68623
-13.500916,-141.64264
-13.250327,-145.96039
-14.434831,-148.79463
-13.745164,-140.20351
-14.320221,-139.28941
-14.413647,-141.55557
-14.926398,-141.65041
-14.709735,-139.64328
-13.800942,-147.173
-15.423618,-145.07793
-14.449979,-140.69823
-13.807911,-150.44435
-13.733142,-144.00127
-14.481071,-145.23871
-14.008817,-145.18146
-14.491959,-145.11789
-14.594254,-147.55653
-14.819826,-140.50172
-15.198278,-149.23396
-15.01654,-144.13721
-14.532093,-147.42085
-14.150296,-140.92787
-14.471085,-150.95836
-14.602676,-149.44258
-13.67545,-149.27698
-14.700798,-141.07062
-15.762344,-145.1788
-14.250926,-145.17149
-15.927539,-148.474
-14.598351,-139.86212
-14.901553,-143.06348
-15.009131,-149.83121
-15.270614,-141.55809
-15.397213,-138.51947
-14.088778,-141.85246
-14.442962,-144.91074
-14.347222,-141.45055
-14.657539,-146.04166
-14.407484,-146.26711
-13.995924,-141.14331
-14.613742,-145.82445
-14.221329,-146.42316
-15.641238,-147.24718
-14.283295,-143.72388
-14.828167,-142.67145
-14.666451,-144.29503
-14.379066,-143.17902
-15.227365,-140.42543
-14.695021,-145.2018
-15.019963,-143.14331
-14.843736,-143.63968
-14.459854,-142.65465
-14.884183,-138.06114
-14.992337,-144.61723
-14.436076,-142.24409
-14.465705,-141.23546
-14.693859,-147.46141
-13.882844,-145.57599
-14.312677,-143.67825
-13.62189,-141.03081
-14.986574,-141.66577
-14.8571,-146.76393
-13.847317,-149.0298
-14.564957,-146.92993
-14.297741,-149.43045
-14.312559,-149.69817
-14.214577,-139.18533
-15.107115,-144.67937
-14.989836,-146.5804
-15.064201,-147.23004
-14.742083,-144.58743
-15.674944,-148.55676
-14.586017,-143.77023
-14.895301,-139.42043
-15.289481,-140.60905
-14.590112,-146.19008
-14.783132,-144.23965
-14.789614,-141.74362
-13.928191,-142.20981
-14.451883,-145.58047
-14.660203,-139.21303
-15.187284,-146.02061
-15.252318,-143.24741
-14.303808,-143.72226
-15.088109,-146.62379
-15.441063,-141.3091
-14.414227,-139.79912
-13.939996,-137.87018
-14.202444,-145.26251
-14.660082,-139.06447
-14.016973,-140.69983
-14.863971,-142.46423
-15.57647,-145.22775
-15.52778,-145.71799
-15.08123,-139.23465
-14.170827,-150.96786
-14.052961,-149.26706
-14.642738,-143.52312
-13.919986,-137.48941
-15.386781,-139.97885
-14.596745,-145.67776
-13.875391,-149.30817
-14.609325,-142.98734
-14.774405,-147.11102
-14.677266,-143.46901
-14.309154,-140.60838
-14.788092,-145.86882
-13.82624,-145.53741
-14.322366,-141.22762
-14.627404,-150.10504
-14.417179,-148.66028
-14.26189,-145.89821
-14.794244,-145.92421
-13.840286,-146.90416
-14.892546,-143.58469
-14.423522,-142.16524
-14.85296,-139.93796
-14.463882,-148.79433
-14.849861,-146.91751
-14.681802,-146.88084
-14.77728,-144.31544
-15.064902,-144.58029
-14.832883,-149.80028
-14.654701,-138.3277
-14.514219,-142.61346
-14.645396,-143.35403
-14.777774,-147.02408
-14.416349,-143.3912
-13.627925,-150.4601
-14.213413,-145.84172
-15.077456,-144.78107
-13.904453,-141.74553
-14.533196,-145.64412
-14.659592,-148.32524
-15.069407,-146.43851
-14.502412,-143.05403
-14.431933,-142.8076
-14.709944,-147.26973
-14.797488,-144.94312
-15.16809,-145.25525
-14.202083,-144.76352
-13.933574,-145.86771
-14.83358,-140.81367
-15.291548,-143.99399
-14.37871,-143.52855
-14.507588,-147.26083
-14.413639,-138.5696
-14.216063,-144.26469
-14.437224,-146.21635
-14.229983,-143.16006
-14.313897,-144.92822
-14.611888,-150.44878
-14.48421,-146.05795
-14.375109,-142.96976
-14.889621,-148.50783
-13.84816,-146.00134
-14.085222,-138.64099
-14.755719,-140.17404
-14.888145,-149.2858
-14.464854,-147.57857
-14.434573,-142.85056
-14.912718,-143.31215
-14.558582,-139.93436
-14.516925,-145.91113
-14.264081,-144.36853
-14.696643,-145.76965
-14.39149,-140.8884
-14.128963,-147.58858
-14.4423,-146.2861
-14.869866,-149.95502
-14.393656,-147.62827
-14.332587,-146.70915
-14.911836,-144.17253
-14.775321,-147.43301
-14.369162,-149.55763
-14.998755,-143.25511
-14.199849,-145.23691
-14.592035,-142.63113
-14.716507,-142.3799
-14.142187,-143.95984
-14.570167,-143.81857
-14.490791,-141.22246
-14.179847,-142.47412
-14.848763,-142.44046
-14.839049,-142.51328
-14.843474,-140.22296
-14.550041,-145.95444
-13.648527,-141.35327
-15.305979,-142.81677
-14.41739,-141.22662
-14.381105,-144.00664
-14.42803,-145.13359
-14.265703,-142.18951
-14.713865,-144.85936
-14.776841,-142.62057
-14.856389,-148.15054
-14.917674,-143.36977
-14.326981,-146.17091
-15.191409,-146.27763
-14.380102,-145.2914
-14.754782,-146.94788
-13.880307,-144.40372
-14.718455,-144.07031
-14.481631,-143.01971
-14.356644,-146.45471
-14.934669,-143.52464
-14.726265,-143.14569
-14.654572,-144.1313
-14.878599,-145.91502
-14.442171,-145.44684
-14.563608,-143.87845
-14.06011,-147.97356
-13.999966,-146.27322
-14.118652,-143.85767
-14.49081,-146.90126
-14.375452,-141.98523
-14.273169,-143.63991
-15.179741,-141.54195
-14.316355,-145.19437
-14.985353,-143.22249
-14.371565,-142.88338
-14.24757,-143.32788
-14.15683,-146.77609
-14.539016,-144.07454
-14.726075,-141.95338
-14.818753,-143.24272
-14.454693,-142.95728
-14.82583,-141.89104
-14.590097,-145.0555
-14.70996,-145.77948
-14.936445,-144.59583
-14.399585,-144.99948
-14.240833,-139.88689
-14.337188,-143.03326
-14.272985,-148.14827
-14.399102,-142.98132
-14.728315,-145.70795
-14.647445,-142.45332
-14.664787,-144.36786
-14.532151,-142.02052
-15.067019,-145.73973
-14.570683,-143.67403
-14.266169,-142.39748
-14.357083,-141.85036
-14.472532,-147.91862
-14.417132,-141.48451
-14.367339,-144.62971
-14.329029,-146.3235
-14.376193,-143.12962
-14.64432,-147.89734
-14.29665,-144.39633
-14.599969,-142.32637
-14.295009,-145.76025
-14.676599,-146.09248
-14.829026,-146.35226
-14.693887,-147.38828
-14.493521,-144.02499
-14.786159,-140.70541
-14.748411,-143.93172
-14.751398,-143.24208
-14.859497,-144.39133
-14.811275,-141.99728
-14.091973,-144.39325
-14.742479,-144.65916
-15.393109,-144.84494
-14.674398,-145.90108
-14.399887,-144.75827
-14.857653,-144.91788
-14.89407,-143.07721
-14.789607,-142.61848
-14.122264,-141.86595
-14.091265,-143.69002
-14.701012,-146.39394
-14.518206,-145.76865
-14.620693,-145.15486
-14.372482,-141.07179
-14.199097,-145.2066
-14.69736,-140.8781
-14.676937,-144.28825
-14.936653,-145.55086
-14.402239,-143.62488
-14.734818,-146.64839
-14.929463,-147.97356
-14.881601,-141.62241
-14.188262,-140.13885
-14.220517,-146.55858
-14.709283,-146.79395
-14.439281,-144.52658
-14.136569,-147.49889
-14.449461,-144.49425
-14.699846,-146.23071
-14.702297,-140.10356
-14.980106,-143.95369
-14.538086,-144.54684
-14.514215,-146.662
-14.304669,-146.17488
-14.9131,-143.57021
-14.755503,-143.18886
-14.075727,-141.96863
-14.59069,-142.92072
-14.674846,-145.89949
-14.418404,-142.26941
-14.4196,-144.6857
-14.848776,-144.45636
-14.692245,-143.99922
-14.852679,-144.10706
-15.3277,-144.37645
-14.520168,-144.75984
-14.546142,-143.68254
-14.454893,-145.47588
-14.355321,-143.60747
-14.595084,-144.05582
-14.962233,-141.92642
-14.524218,-143.5941
-14.501183,-145.4637
-14.459772,-144.25043
-14.794479,-142.78271
-14.347523,-145.9185
-14.570453,-144.89119
-14.469427,-144.32736
-14.878601,-144.24503
-14.723046,-145.2728
-14.240618,-146.79605
-14.757553,-146.42635
-14.35943,-144.17139
-14.325573,-144.32657
-14.49859,-143.33539
-14.43966,-143.48543
-14.544853,-145.49782
-15.174023,-145.6747
-14.48519,-143.92767
-14.458514,-145.55977
-14.721762,-144.70836
-14.333156,-143.80391
-14.449462,-145.09894
-14.536618,-144.06468
-14.647778,-145.01064
-14.662191,-144.6199
-14.834708,-143.90324
-14.465055,-141.34459
-14.731709,-144.44702
-14.898583,-143.2623
-14.790072,-145.26897
-14.432961,-142.7588
-14.563971,-144.66454
-14.654167,-142.81137
-14.485957,-144.04863
-14.525132,-142.44258
-14.890072,-143.92421
-14.045705,-142.76364
-14.893251,-146.59204
-14.936233,-142.43135
-14.862784,-145.93642
-14.734663,-143.97667
-14.491554,-146.71994
-14.515228,-146.59727
-14.822238,-142.32494
-15.062232,-145.13914
-14.997064,-144.62898
-14.79749,-144.17355
-14.453243,-143.84036
-14.615542,-143.93106
-14.854238,-145.08658
-14.719762,-146.34615
-14.966166,-145.46196
-14.67182,-145.30817
-14.680497,-145.52277
-14.568816,-144.9496
-14.902734,-146.17564
-14.873952,-145.54578
-14.240406,-144.42296
-14.223453,-144.75793
-14.698389,-144.36557
-14.590695,-142.94867
-14.48973,-142.06476
-14.766088,-146.19745
-14.746593,-144.4409
-14.698635,-145.31735
-14.561208,-144.06708
-14.599813,-143.39609
-14.444082,-146.92899
-14.64394,-147.05698
-14.733976,-143.52745
-14.67261,-147.11551
-14.712652,-145.3004
-14.424934,-142.81915
-14.451347,-143.57132
-14.640629,-143.72914
-14.374865,-144.4227
-15.25281,-144.32919
-14.442677,-145.96437
-14.762067,-149.18494
-14.801955,-141.87846
-14.818193,-145.58975
-14.713425,-143.45805
-14.727418,-145.88599
-14.50229,-144.23172
-14.758819,-144.21768
-14.732945,-143.49744
-14.540681,-142.49887
-14.459236,-144.74617
-14.716891,-144.21379
-14.51004,-143.36418
-14.455228,-142.84943
-14.844521,-145.53018
-14.584136,-145.46559
-14.615638,-145.64053
-14.47277,-144.8354
-14.448025,-145.36293
-14.281793,-144.04642
-15.015972,-144.38031
-14.870666,-142.76595
-14.955252,-144.04184
-14.388125,-144.06813
-14.463352,-142.8694
-14.804219,-143.09746
-14.891685,-145.99986
-14.663407,-144.41875
-14.43906,-143.13625
-14.539185,-145.12495
-14.66081,-142.80859
-14.879314,-145.933
-14.569947,-144.91609
-14.496915,-143.31313
-14.875426,-145.22267
-14.490413,-144.06056
-14.715717,-144.32639
-14.464427,-143.89905
-14.602967,-145.18452
-14.805309,-145.26518
-14.736359,-142.96616
-14.585775,-144.31168
-15.023214,-141.881
-14.577438,-143.42636
-14.874375,-142.43047
-14.554147,-146.91409
-15.019347,-145.49838
-14.509872,-144.74121
-14.665308,-142.01697
-14.393214,-142.79309
-14.534576,-145.06122
-14.495305,-143.02583
-14.523815,-143.30855
-14.672998,-146.58305
-14.669282,-142.26053
-14.661203,-143.83601
-14.482934,-143.067
-14.559478,-146.25401
-14.913568,-144.13396
-14.525072,-144.0901
-14.599941,-145.19475
-14.23568,-145.56609
-14.467676,-144.09946
-14.650675,-143.37059
-14.771356,-144.2462
-14.50805,-145.08632
-14.811743,-144.4129
-14.562123,-145.05209
-14.944574,-143.14534
-14.637951,-143.03525
-14.625342,-142.48329
-14.418445,-143.90123
-14.617736,-142.09261
-14.633518,-143.38432
-14.349868,-144.30595
-14.608348,-145.34842
-14.655845,-145.39636
-14.791242,-143.91423
-14.54074,-143.63484
-14.567492,-144.21498
-14.814578,-145.26883
-14.413107,-144.14386
-14.461298,-142.76694
-14.502811,-143.50983
-14.617594,-144.60954
-14.467873,-143.2319
-14.627003,-143.1214
-14.803265,-143.18048
-14.744345,-142.58833
-14.608079,-144.48514
-14.382672,-143.43376
-14.367812,-142.9411
-14.824193,-145.00325
-14.789539,-142.15297
-14.675461,-141.75121
-14.571204,-143.19637
-14.588138,-144.65891
-14.633525,-144.7202
-14.860543,-144.21964
-14.586263,-143.95569
-14.676621,-142.00955
-14.600005,-145.63342
-14.575089,-142.78592
-14.723568,-145.06523
-14.409782,-143.55368
-14.932201,-142.89493
-14.383862,-144.03575
-14.378285,-143.23959
-14.748722,-144.1633
-14.682416,-142.50009
-14.663876,-143.92279
-14.379352,-146.8519
-14.652274,-143.56522
-14.532011,-144.71729
-14.762541,-142.58818
-14.602996,-144.4185
-14.399245,-143.40637
-14.564015,-143.66849
-14.790321,-143.72691
-14.36053,-144.88393
-14.629352,-145.7739
-14.769856,-145.00829
-14.743948,-142.63306
-14.594362,-144.33556
-14.557845,-143.21715
-14.554207,-144.49513
-14.479152,-142.52347
-14.434052,-145.43507
-14.322371,-144.75145
-14.670763,-143.46217
-14.636353,-144.83826
-14.52542,-143.74998
-14.248822,-144.5468
-14.839948,-143.48848
-14.553872,-143.37852
-14.436233,-144.21597
-14.646158,-143.64323
-14.680171,-143.47603
-14.342277,-143.78096
-14.615002,-142.60333
-14.75578,-144.48769
-14.661058,-144.77225
-14.626659,-143.49072
-14.640581,-144.25172
-14.722034,-145.20454
-14.486615,-143.75021
-14.539775,-144.58128
-14.476663,-145.06445
-14.623939,-141.66771
-14.464561,-143.16072
-14.473677,-145.45425
-14.662232,-144.42934
