CITIFILE A.01.01
!Agilent Technologies,N5230C,MY48100142,A.08.04.10
!Agilent N5230C: A.08.04.10
!Date: Thursday, August 11, 2022 11:33:36
NAME CH1_DATA
VAR Power MAG 801
DATA S11 RI
DATA S21 RI
DATA S12 RI
DATA S22 RI
VAR_LIST_BEGIN
-40
-39.975
-39.95
-39.925
-39.9
-39.875
-39.85
-39.825
-39.8
-39.775
-39.75
-39.725
-39.7
-39.675
-39.65
-39.625
-39.6
-39.575
-39.55
-39.525
-39.5
-39.475
-39.45
-39.425
-39.4
-39.375
-39.35
-39.325
-39.3
-39.275
-39.25
-39.225
-39.2
-39.175
-39.15
-39.125
-39.1
-39.075
-39.05
-39.025
-39
-38.975
-38.95
-38.925
-38.9
-38.875
-38.85
-38.825
-38.8
-38.775
-38.75
-38.725
-38.7
-38.675
-38.65
-38.625
-38.6
-38.575
-38.55
-38.525
-38.5
-38.475
-38.45
-38.425
-38.4
-38.375
-38.35
-38.325
-38.3
-38.275
-38.25
-38.225
-38.2
-38.175
-38.15
-38.125
-38.1
-38.075
-38.05
-38.025
-38
-37.975
-37.95
-37.925
-37.9
-37.875
-37.85
-37.825
-37.8
-37.775
-37.75
-37.725
-37.7
-37.675
-37.65
-37.625
-37.6
-37.575
-37.55
-37.525
-37.5
-37.475
-37.45
-37.425
-37.4
-37.375
-37.35
-37.325
-37.3
-37.275
-37.25
-37.225
-37.2
-37.175
-37.15
-37.125
-37.1
-37.075
-37.05
-37.025
-37
-36.975
-36.95
-36.925
-36.9
-36.875
-36.85
-36.825
-36.8
-36.775
-36.75
-36.725
-36.7
-36.675
-36.65
-36.625
-36.6
-36.575
-36.55
-36.525
-36.5
-36.475
-36.45
-36.425
-36.4
-36.375
-36.35
-36.325
-36.3
-36.275
-36.25
-36.225
-36.2
-36.175
-36.15
-36.125
-36.1
-36.075
-36.05
-36.025
-36
-35.975
-35.95
-35.925
-35.9
-35.875
-35.85
-35.825
-35.8
-35.775
-35.75
-35.725
-35.7
-35.675
-35.65
-35.625
-35.6
-35.575
-35.55
-35.525
-35.5
-35.475
-35.45
-35.425
-35.4
-35.375
-35.35
-35.325
-35.3
-35.275
-35.25
-35.225
-35.2
-35.175
-35.15
-35.125
-35.1
-35.075
-35.05
-35.025
-35
-34.975
-34.95
-34.925
-34.9
-34.875
-34.85
-34.825
-34.8
-34.775
-34.75
-34.725
-34.7
-34.675
-34.65
-34.625
-34.6
-34.575
-34.55
-34.525
-34.5
-34.475
-34.45
-34.425
-34.4
-34.375
-34.35
-34.325
-34.3
-34.275
-34.25
-34.225
-34.2
-34.175
-34.15
-34.125
-34.1
-34.075
-34.05
-34.025
-34
-33.975
-33.95
-33.925
-33.9
-33.875
-33.85
-33.825
-33.8
-33.775
-33.75
-33.725
-33.7
-33.675
-33.65
-33.625
-33.6
-33.575
-33.55
-33.525
-33.5
-33.475
-33.45
-33.425
-33.4
-33.375
-33.35
-33.325
-33.3
-33.275
-33.25
-33.225
-33.2
-33.175
-33.15
-33.125
-33.1
-33.075
-33.05
-33.025
-33
-32.975
-32.95
-32.925
-32.9
-32.875
-32.85
-32.825
-32.8
-32.775
-32.75
-32.725
-32.7
-32.675
-32.65
-32.625
-32.6
-32.575
-32.55
-32.525
-32.5
-32.475
-32.45
-32.425
-32.4
-32.375
-32.35
-32.325
-32.3
-32.275
-32.25
-32.225
-32.2
-32.175
-32.15
-32.125
-32.1
-32.075
-32.05
-32.025
-32
-31.975
-31.95
-31.925
-31.9
-31.875
-31.85
-31.825
-31.8
-31.775
-31.75
-31.725
-31.7
-31.675
-31.65
-31.625
-31.6
-31.575
-31.55
-31.525
-31.5
-31.475
-31.45
-31.425
-31.4
-31.375
-31.35
-31.325
-31.3
-31.275
-31.25
-31.225
-31.2
-31.175
-31.15
-31.125
-31.1
-31.075
-31.05
-31.025
-31
-30.975
-30.95
-30.925
-30.9
-30.875
-30.85
-30.825
-30.8
-30.775
-30.75
-30.725
-30.7
-30.675
-30.65
-30.625
-30.6
-30.575
-30.55
-30.525
-30.5
-30.475
-30.45
-30.425
-30.4
-30.375
-30.35
-30.325
-30.3
-30.275
-30.25
-30.225
-30.2
-30.175
-30.15
-30.125
-30.1
-30.075
-30.05
-30.025
-30
-29.975
-29.95
-29.925
-29.9
-29.875
-29.85
-29.825
-29.8
-29.775
-29.75
-29.725
-29.7
-29.675
-29.65
-29.625
-29.6
-29.575
-29.55
-29.525
-29.5
-29.475
-29.45
-29.425
-29.4
-29.375
-29.35
-29.325
-29.3
-29.275
-29.25
-29.225
-29.2
-29.175
-29.15
-29.125
-29.1
-29.075
-29.05
-29.025
-29
-28.975
-28.95
-28.925
-28.9
-28.875
-28.85
-28.825
-28.8
-28.775
-28.75
-28.725
-28.7
-28.675
-28.65
-28.625
-28.6
-28.575
-28.55
-28.525
-28.5
-28.475
-28.45
-28.425
-28.4
-28.375
-28.35
-28.325
-28.3
-28.275
-28.25
-28.225
-28.2
-28.175
-28.15
-28.125
-28.1
-28.075
-28.05
-28.025
-28
-27.975
-27.95
-27.925
-27.9
-27.875
-27.85
-27.825
-27.8
-27.775
-27.75
-27.725
-27.7
-27.675
-27.65
-27.625
-27.6
-27.575
-27.55
-27.525
-27.5
-27.475
-27.45
-27.425
-27.4
-27.375
-27.35
-27.325
-27.3
-27.275
-27.25
-27.225
-27.2
-27.175
-27.15
-27.125
-27.1
-27.075
-27.05
-27.025
-27
-26.975
-26.95
-26.925
-26.9
-26.875
-26.85
-26.825
-26.8
-26.775
-26.75
-26.725
-26.7
-26.675
-26.65
-26.625
-26.6
-26.575
-26.55
-26.525
-26.5
-26.475
-26.45
-26.425
-26.4
-26.375
-26.35
-26.325
-26.3
-26.275
-26.25
-26.225
-26.2
-26.175
-26.15
-26.125
-26.1
-26.075
-26.05
-26.025
-26
-25.975
-25.95
-25.925
-25.9
-25.875
-25.85
-25.825
-25.8
-25.775
-25.75
-25.725
-25.7
-25.675
-25.65
-25.625
-25.6
-25.575
-25.55
-25.525
-25.5
-25.475
-25.45
-25.425
-25.4
-25.375
-25.35
-25.325
-25.3
-25.275
-25.25
-25.225
-25.2
-25.175
-25.15
-25.125
-25.1
-25.075
-25.05
-25.025
-25
-24.975
-24.95
-24.925
-24.9
-24.875
-24.85
-24.825
-24.8
-24.775
-24.75
-24.725
-24.7
-24.675
-24.65
-24.625
-24.6
-24.575
-24.55
-24.525
-24.5
-24.475
-24.45
-24.425
-24.4
-24.375
-24.35
-24.325
-24.3
-24.275
-24.25
-24.225
-24.2
-24.175
-24.15
-24.125
-24.1
-24.075
-24.05
-24.025
-24
-23.975
-23.95
-23.925
-23.9
-23.875
-23.85
-23.825
-23.8
-23.775
-23.75
-23.725
-23.7
-23.675
-23.65
-23.625
-23.6
-23.575
-23.55
-23.525
-23.5
-23.475
-23.45
-23.425
-23.4
-23.375
-23.35
-23.325
-23.3
-23.275
-23.25
-23.225
-23.2
-23.175
-23.15
-23.125
-23.1
-23.075
-23.05
-23.025
-23
-22.975
-22.95
-22.925
-22.9
-22.875
-22.85
-22.825
-22.8
-22.775
-22.75
-22.725
-22.7
-22.675
-22.65
-22.625
-22.6
-22.575
-22.55
-22.525
-22.5
-22.475
-22.45
-22.425
-22.4
-22.375
-22.35
-22.325
-22.3
-22.275
-22.25
-22.225
-22.2
-22.175
-22.15
-22.125
-22.1
-22.075
-22.05
-22.025
-22
-21.975
-21.95
-21.925
-21.9
-21.875
-21.85
-21.825
-21.8
-21.775
-21.75
-21.725
-21.7
-21.675
-21.65
-21.625
-21.6
-21.575
-21.55
-21.525
-21.5
-21.475
-21.45
-21.425
-21.4
-21.375
-21.35
-21.325
-21.3
-21.275
-21.25
-21.225
-21.2
-21.175
-21.15
-21.125
-21.1
-21.075
-21.05
-21.025
-21
-20.975
-20.95
-20.925
-20.9
-20.875
-20.85
-20.825
-20.8
-20.775
-20.75
-20.725
-20.7
-20.675
-20.65
-20.625
-20.6
-20.575
-20.55
-20.525
-20.5
-20.475
-20.45
-20.425
-20.4
-20.375
-20.35
-20.325
-20.3
-20.275
-20.25
-20.225
-20.2
-20.175
-20.15
-20.125
-20.1
-20.075
-20.05
-20.025
-20
VAR_LIST_END
BEGIN
-0.078725688,-0.10859647
-0.18200938,-0.098842233
-0.1739943,-0.044431761
-0.16414836,-0.12158835
-0.11224134,-0.10038538
-0.1766026,-0.070930518
-0.19003493,-0.072761074
-0.18731977,-0.12620899
-0.18574898,-0.10387729
-0.205934,-0.070253707
-0.17170681,-0.097134791
-0.16907232,-0.08798372
-0.17745954,-0.06463252
-0.13231088,-0.062091313
-0.15964827,-0.08450985
-0.16077791,-0.070006914
-0.15938553,-0.087618597
-0.19780309,-0.091877677
-0.11929701,-0.079258732
-0.15371647,-0.057358149
-0.18598755,-0.09167397
-0.17901082,-0.078582168
-0.15497136,-0.08646562
-0.178038,-0.082393155
-0.19577363,-0.083768867
-0.17143901,-0.062895119
-0.17460252,-0.11168226
-0.16816638,-0.066336669
-0.15648963,-0.094321758
-0.13040896,-0.095992051
-0.14792067,-0.1128671
-0.14518523,-0.085031845
-0.16552369,-0.10236243
-0.18283777,-0.051821679
-0.17565465,-0.084701575
-0.17112884,-0.1061262
-0.17580114,-0.10676932
-0.15324788,-0.068940982
-0.18388596,-0.077865414
-0.22407609,-0.070529677
-0.1829825,-0.10753974
-0.19880274,-0.045033168
-0.1736532,-0.11033711
-0.14632437,-0.068598934
-0.15672529,-0.072448373
-0.18335049,-0.049458113
-0.20813072,-0.039889481
-0.1748473,-0.090414472
-0.21808171,-0.071423568
-0.17228119,-0.10430563
-0.20239569,-0.089172177
-0.18009728,-0.096506022
-0.14831142,-0.10190294
-0.18347216,-0.092162579
-0.16365479,-0.10956936
-0.17821677,-0.084564663
-0.22505414,-0.096064188
-0.21955331,-0.1002593
-0.19199698,-0.08457844
-0.1581337,-0.091382526
-0.14244722,-0.11045361
-0.18979195,-0.084427834
-0.19905254,-0.091007456
-0.1533768,-0.064129226
-0.1849238,-0.064870209
-0.20624158,-0.076583572
-0.19739167,-0.084338516
-0.13142385,-0.069228716
-0.14063628,-0.068974175
-0.15456,-0.10584901
-0.17802796,-0.066567704
-0.16046223,-0.048413303
-0.17241436,-0.08925578
-0.17563875,-0.095040374
-0.14270213,-0.070360787
-0.17366818,-0.088870481
-0.13785824,-0.08013995
-0.16332331,-0.088068344
-0.15945703,-0.086607017
-0.1410263,-0.084515966
-0.18221863,-0.078326672
-0.15758114,-0.096376687
-0.16596241,-0.087033808
-0.18132713,-0.063872568
-0.22193171,-0.055328332
-0.14280847,-0.053363629
-0.13943714,-0.077695541
-0.19880009,-0.071396098
-0.14269787,-0.10402171
-0.13897313,-0.10970445
-0.13956465,-0.062588908
-0.19559358,-0.10916571
-0.20532908,-0.076285832
-0.16236499,-0.078466512
-0.14662397,-0.064683892
-0.16675898,-0.078335464
-0.17213318,-0.06559743
-0.11198264,-0.10042791
-0.17371592,-0.044238944
-0.14816408,-0.15502386
-0.18852369,-0.078228898
-0.19059278,-0.058972839
-0.17940836,-0.11564436
-0.17373183,-0.098128267
-0.18884936,-0.076702751
-0.17456119,-0.084635101
-0.18835692,-0.12210204
-0.15795945,-0.057092711
-0.16993257,-0.068123825
-0.18617222,-0.11436637
-0.17078081,-0.10255779
-0.1447901,-0.060643982
-0.16874893,-0.11059144
-0.18234287,-0.060950525
-0.17636923,-0.06915611
-0.21545222,-0.086852796
-0.18980411,-0.07117261
-0.15928334,-0.10001239
-0.14904889,-0.097977877
-0.18591835,-0.05242661
-0.17843159,-0.087844789
-0.19274896,-0.09369491
-0.18616025,-0.076714791
-0.12521821,-0.1018419
-0.14894365,-0.071743079
-0.1641863,-0.08922562
-0.17114785,-0.088853486
-0.19976187,-0.089763299
-0.17379427,-0.10187779
-0.14127016,-0.095198005
-0.16042787,-0.081767887
-0.18690749,-0.094318099
-0.19422345,-0.089003377
-0.18538785,-0.099767499
-0.18248327,-0.056824122
-0.1477965,-0.087174356
-0.18584515,-0.063733585
-0.13923895,-0.095281273
-0.16736104,-0.099651046
-0.19903876,-0.097240269
-0.18999775,-0.053158645
-0.18363029,-0.076837651
-0.19390094,-0.10712507
-0.17647572,-0.10407084
-0.13267581,-0.06138761
-0.15270612,-0.091147043
-0.15807684,-0.054417495
-0.19183961,-0.086517036
-0.1773394,-0.080784291
-0.16838703,-0.071896091
-0.1464542,-0.040882267
-0.16422975,-0.09037368
-0.21017124,-0.12393752
-0.16521607,-0.084216736
-0.19568494,-0.1031328
-0.17524607,-0.068080589
-0.17694075,-0.11192033
-0.19006765,-0.11614842
-0.18635866,-0.061627321
-0.17829099,-0.097704418
-0.20415601,-0.063814566
-0.17232512,-0.10810181
-0.16988795,-0.10205089
-0.17008603,-0.10947563
-0.2083645,-0.091497563
-0.12597305,-0.085385047
-0.18304622,-0.096493118
-0.18138617,-0.081391484
-0.21653849,-0.072033122
-0.15321836,-0.08126381
-0.17436861,-0.066374898
-0.16793008,-0.094080687
-0.19588256,-0.074587069
-0.16681275,-0.08511892
-0.17746782,-0.092527956
-0.17590564,-0.067110948
-0.19177234,-0.052571442
-0.15139946,-0.061395053
-0.18054129,-0.088158727
-0.17880452,-0.092089832
-0.15419649,-0.08427301
-0.19136602,-0.13142702
-0.20765804,-0.084299363
-0.18291834,-0.098819971
-0.1258228,-0.080507457
-0.16769691,-0.069195345
-0.17010169,-0.095759943
-0.147357,-0.12293972
-0.17497492,-0.084978767
-0.16489956,-0.091434665
-0.18322289,-0.1024141
-0.1766406,-0.11865053
-0.19051935,-0.10998029
-0.19822174,-0.12927787
-0.15084827,-0.09553697
-0.20108058,-0.10110002
-0.13726476,-0.087908842
-0.20251243,-0.086867191
-0.18070653,-0.083141789
-0.17510082,-0.064624347
-0.12827742,-0.10809132
-0.18140459,-0.10115901
-0.15916981,-0.081207179
-0.17020161,-0.07710918
-0.19201182,-0.076067202
-0.16206867,-0.075747043
-0.18116732,-0.070036665
-0.14025263,-0.068821661
-0.1984774,-0.04865168
-0.18858601,-0.10521027
-0.19721015,-0.10109121
-0.18673034,-0.08628796
-0.13726026,-0.090304241
-0.16471502,-0.082957521
-0.16526107,-0.073337428
-0.19696638,-0.092045285
-0.15086555,-0.083886832
-0.17208776,-0.091129355
-0.1663119,-0.10769969
-0.17409955,-0.11305089
-0.19555411,-0.079294577
-0.15565689,-0.065332949
-0.18975276,-0.080240667
-0.16243316,-0.097303681
-0.17324881,-0.082699627
-0.21008357,-0.066575818
-0.18525121,-0.13293329
-0.15176648,-0.077474579
-0.1901436,-0.091253884
-0.16811064,-0.082136348
-0.14884339,-0.094649814
-0.1689851,-0.09092772
-0.18409808,-0.069500744
-0.16218649,-0.090486169
-0.16491224,-0.097919486
-0.15760642,-0.079016097
-0.16912715,-0.06261874
-0.14335118,-0.10405307
-0.17733069,-0.071858563
-0.17493778,-0.07404945
-0.19097571,-0.099235348
-0.18576977,-0.068724662
-0.16837429,-0.071436971
-0.17820886,-0.083642751
-0.17552601,-0.095086515
-0.17424032,-0.087462597
-0.17196685,-0.076147757
-0.14904347,-0.076028079
-0.1404617,-0.070821427
-0.19889385,-0.071298413
-0.17114706,-0.084756516
-0.15456875,-0.10551956
-0.15034766,-0.036997523
-0.18277232,-0.053407196
-0.19984551,-0.095569685
-0.18902868,-0.068424329
-0.18043421,-0.090657078
-0.17237228,-0.077696778
-0.17242287,-0.097356319
-0.18321134,-0.054950058
-0.18151444,-0.1005789
-0.16737428,-0.08094953
-0.17439097,-0.072657824
-0.20823593,-0.088737652
-0.17396155,-0.10518664
-0.16814253,-0.09457095
-0.16690873,-0.079127699
-0.16863008,-0.070473269
-0.17552897,-0.061094519
-0.15803586,-0.063839227
-0.20454137,-0.068819597
-0.19199969,-0.071842931
-0.17019491,-0.09546002
-0.20475954,-0.064344101
-0.14618112,-0.10798325
-0.1821622,-0.071459495
-0.18686891,-0.10980289
-0.17433082,-0.088548869
-0.18060297,-0.098707676
-0.16393845,-0.10777515
-0.16766307,-0.084027074
-0.19393548,-0.095076054
-0.19450179,-0.070768729
-0.19404259,-0.068966068
-0.16032527,-0.093988933
-0.18783619,-0.063714579
-0.16166155,-0.074946113
-0.16695592,-0.075135641
-0.17820327,-0.096960492
-0.16986343,-0.076985352
-0.18445189,-0.075293839
-0.17453918,-0.097642481
-0.17631523,-0.053660985
-0.15400678,-0.085149914
-0.1670346,-0.089270763
-0.17303421,-0.084758513
-0.16124296,-0.083171509
-0.19434454,-0.092337601
-0.1713526,-0.073558688
-0.16161367,-0.071665153
-0.18585578,-0.078171566
-0.18420742,-0.10146344
-0.15459527,-0.10546214
-0.17212722,-0.077755846
-0.17970431,-0.084360994
-0.16710056,-0.072554775
-0.19075774,-0.069699652
-0.17081805,-0.067435138
-0.14344214,-0.091382548
-0.16828513,-0.093763418
-0.19157465,-0.074108303
-0.17284466,-0.077308647
-0.18192045,-0.098023057
-0.16605231,-0.072150096
-0.17430586,-0.070039414
-0.17394373,-0.08754912
-0.17046122,-0.077081814
-0.1808667,-0.093919024
-0.20008054,-0.10307815
-0.1573194,-0.11027789
-0.18481298,-0.094526544
-0.18122724,-0.087726653
-0.184402,-0.084808633
-0.17365994,-0.10415606
-0.17746459,-0.096512273
-0.17181373,-0.081988297
-0.17292903,-0.09162946
-0.19484571,-0.09200462
-0.18864612,-0.063095137
-0.1859495,-0.065645009
-0.16297321,-0.074528649
-0.18535158,-0.065312184
-0.16317934,-0.069572657
-0.17604509,-0.075035676
-0.17184368,-0.080448024
-0.16406105,-0.061796956
-0.18306665,-0.050016347
-0.17250709,-0.068750858
-0.16919033,-0.083556913
-0.17868787,-0.092713952
-0.17600732,-0.10086637
-0.1598459,-0.067785777
-0.18114926,-0.08422792
-0.16661049,-0.078342095
-0.17720264,-0.088685572
-0.15714312,-0.075559713
-0.1742367,-0.073355705
-0.17011999,-0.080868475
-0.18275377,-0.08789853
-0.19086649,-0.089770488
-0.16812639,-0.091676392
-0.18371372,-0.071000248
-0.16967188,-0.076357119
-0.17739086,-0.078191787
-0.17301515,-0.083972767
-0.17391177,-0.085356064
-0.17917569,-0.10801262
-0.19679406,-0.088255189
-0.17888369,-0.11186315
-0.1814712,-0.086464703
-0.18284003,-0.089661911
-0.16382971,-0.091267839
-0.18420784,-0.081773072
-0.1786202,-0.087016799
-0.18102266,-0.087108865
-0.16778328,-0.081823528
-0.15666935,-0.093286633
-0.16332422,-0.079126649
-0.19384734,-0.068278439
-0.17518783,-0.079562552
-0.17809935,-0.079607017
-0.15852855,-0.085136749
-0.16516352,-0.078148328
-0.1799513,-0.089424081
-0.16433652,-0.069835939
-0.17148039,-0.081779927
-0.17376214,-0.082531847
-0.16383681,-0.080653958
-0.1727253,-0.096206896
-0.18199362,-0.097747996
-0.15682948,-0.095556192
-0.18595293,-0.069467984
-0.16560043,-0.081795454
-0.16053112,-0.09503299
-0.17265518,-0.091444083
-0.18819049,-0.087300181
-0.17641051,-0.099238656
-0.17838974,-0.082066804
-0.19669171,-0.071858719
-0.16236405,-0.07212878
-0.17063338,-0.10048103
-0.17148447,-0.087961473
-0.19045198,-0.078066975
-0.17587548,-0.0958336
-0.17050898,-0.075947814
-0.17195939,-0.077575304
-0.17239694,-0.083060421
-0.15850535,-0.091321655
-0.18346655,-0.098743223
-0.15870067,-0.08174219
-0.17445694,-0.081147596
-0.1703438,-0.08782135
-0.16979355,-0.10190375
-0.20280056,-0.082663335
-0.17361283,-0.08095824
-0.15805708,-0.087625466
-0.18949001,-0.076033443
-0.17736052,-0.081205115
-0.16313873,-0.078696363
-0.18599816,-0.08567097
-0.18075234,-0.08142785
-0.18511152,-0.093444429
-0.16302256,-0.090752125
-0.17527257,-0.089879319
-0.19282459,-0.090543196
-0.18408011,-0.08481852
-0.17218146,-0.11230717
-0.18212397,-0.078910165
-0.17090498,-0.081556953
-0.1678353,-0.076632261
-0.19576748,-0.091313772
-0.16060805,-0.089375846
-0.17599148,-0.08567328
-0.1814065,-0.10215384
-0.18508708,-0.094234861
-0.18647316,-0.098237135
-0.18512462,-0.08218623
-0.15740341,-0.07706333
-0.16192843,-0.096783698
-0.16990837,-0.0908124
-0.15661594,-0.085358545
-0.17423515,-0.085376218
-0.17869517,-0.082278855
-0.18419789,-0.086854361
-0.16886462,-0.066588163
-0.18002515,-0.08965373
-0.18045485,-0.090141512
-0.16506915,-0.085935503
-0.18376292,-0.080128662
-0.17108916,-0.086872913
-0.1708127,-0.071040317
-0.17125821,-0.090411268
-0.17975938,-0.096964911
-0.17855561,-0.078404449
-0.18757826,-0.07795541
-0.17551507,-0.085623965
-0.18687579,-0.076192155
-0.17095016,-0.091234773
-0.17636067,-0.088755317
-0.18654098,-0.081700191
-0.17813045,-0.080440223
-0.18484721,-0.090156734
-0.18353741,-0.092669725
-0.18413763,-0.078980006
-0.17645262,-0.091211855
-0.16449603,-0.1003501
-0.17904328,-0.085940056
-0.17270529,-0.08723864
-0.16811113,-0.083399989
-0.1785852,-0.078092188
-0.1755439,-0.10296814
-0.17385806,-0.094481692
-0.16794175,-0.087958001
-0.1686275,-0.090814076
-0.18129033,-0.083034433
-0.17325538,-0.085461199
-0.17513832,-0.082652323
-0.16577117,-0.083377525
-0.17525619,-0.074320897
-0.17355277,-0.076007798
-0.17277348,-0.084890977
-0.17104527,-0.073344834
-0.18460944,-0.077467568
-0.16809303,-0.085509852
-0.16531113,-0.087669961
-0.18212825,-0.070903197
-0.18715222,-0.081520922
-0.17671144,-0.073672049
-0.15907213,-0.087820321
-0.16820385,-0.089604154
-0.18213169,-0.095836267
-0.17251828,-0.088437401
-0.17954226,-0.091240145
-0.16290441,-0.078597106
-0.17784262,-0.093867838
-0.1681983,-0.080883875
-0.17460604,-0.082090788
-0.1724201,-0.085791223
-0.17045793,-0.094783537
-0.1805072,-0.086025722
-0.16910608,-0.085453995
-0.17495108,-0.085432522
-0.17413653,-0.079657555
-0.17747784,-0.082053043
-0.16016668,-0.078643061
-0.15965229,-0.093898974
-0.16279927,-0.080445476
-0.17156985,-0.068581857
-0.17586078,-0.098135769
-0.16891406,-0.086366214
-0.1786696,-0.087558754
-0.17221646,-0.083379902
-0.16213015,-0.083525807
-0.18839911,-0.076676622
-0.16983408,-0.089289799
-0.18487224,-0.081407033
-0.16452692,-0.083014272
-0.1747165,-0.088263802
-0.16125275,-0.084036864
-0.17729996,-0.068206571
-0.17138267,-0.085416682
-0.17164828,-0.07295391
-0.16268027,-0.08227098
-0.1732748,-0.0782075
