CITIFILE A.01.01
!Agilent Technologies,N5230C,MY48100142,A.08.04.10
!Agilent N5230C: A.08.04.10
!Date: Tuesday, September 20, 2022 15:00:41
NAME CH1_DATA
VAR Power MAG 801
DATA S11 RI
DATA S21 RI
DATA S12 RI
DATA S22 RI
VAR_LIST_BEGIN
-40
-39.975
-39.95
-39.925
-39.9
-39.875
-39.85
-39.825
-39.8
-39.775
-39.75
-39.725
-39.7
-39.675
-39.65
-39.625
-39.6
-39.575
-39.55
-39.525
-39.5
-39.475
-39.45
-39.425
-39.4
-39.375
-39.35
-39.325
-39.3
-39.275
-39.25
-39.225
-39.2
-39.175
-39.15
-39.125
-39.1
-39.075
-39.05
-39.025
-39
-38.975
-38.95
-38.925
-38.9
-38.875
-38.85
-38.825
-38.8
-38.775
-38.75
-38.725
-38.7
-38.675
-38.65
-38.625
-38.6
-38.575
-38.55
-38.525
-38.5
-38.475
-38.45
-38.425
-38.4
-38.375
-38.35
-38.325
-38.3
-38.275
-38.25
-38.225
-38.2
-38.175
-38.15
-38.125
-38.1
-38.075
-38.05
-38.025
-38
-37.975
-37.95
-37.925
-37.9
-37.875
-37.85
-37.825
-37.8
-37.775
-37.75
-37.725
-37.7
-37.675
-37.65
-37.625
-37.6
-37.575
-37.55
-37.525
-37.5
-37.475
-37.45
-37.425
-37.4
-37.375
-37.35
-37.325
-37.3
-37.275
-37.25
-37.225
-37.2
-37.175
-37.15
-37.125
-37.1
-37.075
-37.05
-37.025
-37
-36.975
-36.95
-36.925
-36.9
-36.875
-36.85
-36.825
-36.8
-36.775
-36.75
-36.725
-36.7
-36.675
-36.65
-36.625
-36.6
-36.575
-36.55
-36.525
-36.5
-36.475
-36.45
-36.425
-36.4
-36.375
-36.35
-36.325
-36.3
-36.275
-36.25
-36.225
-36.2
-36.175
-36.15
-36.125
-36.1
-36.075
-36.05
-36.025
-36
-35.975
-35.95
-35.925
-35.9
-35.875
-35.85
-35.825
-35.8
-35.775
-35.75
-35.725
-35.7
-35.675
-35.65
-35.625
-35.6
-35.575
-35.55
-35.525
-35.5
-35.475
-35.45
-35.425
-35.4
-35.375
-35.35
-35.325
-35.3
-35.275
-35.25
-35.225
-35.2
-35.175
-35.15
-35.125
-35.1
-35.075
-35.05
-35.025
-35
-34.975
-34.95
-34.925
-34.9
-34.875
-34.85
-34.825
-34.8
-34.775
-34.75
-34.725
-34.7
-34.675
-34.65
-34.625
-34.6
-34.575
-34.55
-34.525
-34.5
-34.475
-34.45
-34.425
-34.4
-34.375
-34.35
-34.325
-34.3
-34.275
-34.25
-34.225
-34.2
-34.175
-34.15
-34.125
-34.1
-34.075
-34.05
-34.025
-34
-33.975
-33.95
-33.925
-33.9
-33.875
-33.85
-33.825
-33.8
-33.775
-33.75
-33.725
-33.7
-33.675
-33.65
-33.625
-33.6
-33.575
-33.55
-33.525
-33.5
-33.475
-33.45
-33.425
-33.4
-33.375
-33.35
-33.325
-33.3
-33.275
-33.25
-33.225
-33.2
-33.175
-33.15
-33.125
-33.1
-33.075
-33.05
-33.025
-33
-32.975
-32.95
-32.925
-32.9
-32.875
-32.85
-32.825
-32.8
-32.775
-32.75
-32.725
-32.7
-32.675
-32.65
-32.625
-32.6
-32.575
-32.55
-32.525
-32.5
-32.475
-32.45
-32.425
-32.4
-32.375
-32.35
-32.325
-32.3
-32.275
-32.25
-32.225
-32.2
-32.175
-32.15
-32.125
-32.1
-32.075
-32.05
-32.025
-32
-31.975
-31.95
-31.925
-31.9
-31.875
-31.85
-31.825
-31.8
-31.775
-31.75
-31.725
-31.7
-31.675
-31.65
-31.625
-31.6
-31.575
-31.55
-31.525
-31.5
-31.475
-31.45
-31.425
-31.4
-31.375
-31.35
-31.325
-31.3
-31.275
-31.25
-31.225
-31.2
-31.175
-31.15
-31.125
-31.1
-31.075
-31.05
-31.025
-31
-30.975
-30.95
-30.925
-30.9
-30.875
-30.85
-30.825
-30.8
-30.775
-30.75
-30.725
-30.7
-30.675
-30.65
-30.625
-30.6
-30.575
-30.55
-30.525
-30.5
-30.475
-30.45
-30.425
-30.4
-30.375
-30.35
-30.325
-30.3
-30.275
-30.25
-30.225
-30.2
-30.175
-30.15
-30.125
-30.1
-30.075
-30.05
-30.025
-30
-29.975
-29.95
-29.925
-29.9
-29.875
-29.85
-29.825
-29.8
-29.775
-29.75
-29.725
-29.7
-29.675
-29.65
-29.625
-29.6
-29.575
-29.55
-29.525
-29.5
-29.475
-29.45
-29.425
-29.4
-29.375
-29.35
-29.325
-29.3
-29.275
-29.25
-29.225
-29.2
-29.175
-29.15
-29.125
-29.1
-29.075
-29.05
-29.025
-29
-28.975
-28.95
-28.925
-28.9
-28.875
-28.85
-28.825
-28.8
-28.775
-28.75
-28.725
-28.7
-28.675
-28.65
-28.625
-28.6
-28.575
-28.55
-28.525
-28.5
-28.475
-28.45
-28.425
-28.4
-28.375
-28.35
-28.325
-28.3
-28.275
-28.25
-28.225
-28.2
-28.175
-28.15
-28.125
-28.1
-28.075
-28.05
-28.025
-28
-27.975
-27.95
-27.925
-27.9
-27.875
-27.85
-27.825
-27.8
-27.775
-27.75
-27.725
-27.7
-27.675
-27.65
-27.625
-27.6
-27.575
-27.55
-27.525
-27.5
-27.475
-27.45
-27.425
-27.4
-27.375
-27.35
-27.325
-27.3
-27.275
-27.25
-27.225
-27.2
-27.175
-27.15
-27.125
-27.1
-27.075
-27.05
-27.025
-27
-26.975
-26.95
-26.925
-26.9
-26.875
-26.85
-26.825
-26.8
-26.775
-26.75
-26.725
-26.7
-26.675
-26.65
-26.625
-26.6
-26.575
-26.55
-26.525
-26.5
-26.475
-26.45
-26.425
-26.4
-26.375
-26.35
-26.325
-26.3
-26.275
-26.25
-26.225
-26.2
-26.175
-26.15
-26.125
-26.1
-26.075
-26.05
-26.025
-26
-25.975
-25.95
-25.925
-25.9
-25.875
-25.85
-25.825
-25.8
-25.775
-25.75
-25.725
-25.7
-25.675
-25.65
-25.625
-25.6
-25.575
-25.55
-25.525
-25.5
-25.475
-25.45
-25.425
-25.4
-25.375
-25.35
-25.325
-25.3
-25.275
-25.25
-25.225
-25.2
-25.175
-25.15
-25.125
-25.1
-25.075
-25.05
-25.025
-25
-24.975
-24.95
-24.925
-24.9
-24.875
-24.85
-24.825
-24.8
-24.775
-24.75
-24.725
-24.7
-24.675
-24.65
-24.625
-24.6
-24.575
-24.55
-24.525
-24.5
-24.475
-24.45
-24.425
-24.4
-24.375
-24.35
-24.325
-24.3
-24.275
-24.25
-24.225
-24.2
-24.175
-24.15
-24.125
-24.1
-24.075
-24.05
-24.025
-24
-23.975
-23.95
-23.925
-23.9
-23.875
-23.85
-23.825
-23.8
-23.775
-23.75
-23.725
-23.7
-23.675
-23.65
-23.625
-23.6
-23.575
-23.55
-23.525
-23.5
-23.475
-23.45
-23.425
-23.4
-23.375
-23.35
-23.325
-23.3
-23.275
-23.25
-23.225
-23.2
-23.175
-23.15
-23.125
-23.1
-23.075
-23.05
-23.025
-23
-22.975
-22.95
-22.925
-22.9
-22.875
-22.85
-22.825
-22.8
-22.775
-22.75
-22.725
-22.7
-22.675
-22.65
-22.625
-22.6
-22.575
-22.55
-22.525
-22.5
-22.475
-22.45
-22.425
-22.4
-22.375
-22.35
-22.325
-22.3
-22.275
-22.25
-22.225
-22.2
-22.175
-22.15
-22.125
-22.1
-22.075
-22.05
-22.025
-22
-21.975
-21.95
-21.925
-21.9
-21.875
-21.85
-21.825
-21.8
-21.775
-21.75
-21.725
-21.7
-21.675
-21.65
-21.625
-21.6
-21.575
-21.55
-21.525
-21.5
-21.475
-21.45
-21.425
-21.4
-21.375
-21.35
-21.325
-21.3
-21.275
-21.25
-21.225
-21.2
-21.175
-21.15
-21.125
-21.1
-21.075
-21.05
-21.025
-21
-20.975
-20.95
-20.925
-20.9
-20.875
-20.85
-20.825
-20.8
-20.775
-20.75
-20.725
-20.7
-20.675
-20.65
-20.625
-20.6
-20.575
-20.55
-20.525
-20.5
-20.475
-20.45
-20.425
-20.4
-20.375
-20.35
-20.325
-20.3
-20.275
-20.25
-20.225
-20.2
-20.175
-20.15
-20.125
-20.1
-20.075
-20.05
-20.025
-20
VAR_LIST_END
BEGIN
-0.0078230398,-0.050994404
0.0041852654,-0.042741373
0.00456751,-0.060433663
-0.017834812,-0.046747036
-0.0039014311,-0.047225643
0.0086977975,-0.041882113
-0.0059874081,-0.047942441
-0.015977437,-0.038577527
0.0083806096,-0.046041109
-0.0073983888,-0.050382499
-0.0045256969,-0.031327672
-0.00495914,-0.036471214
-0.011564746,-0.049292292
0.011928862,-0.056033745
-0.0094606383,-0.040548783
-0.02218527,-0.052555241
-0.010618339,-0.050281964
-0.0041722171,-0.047159545
-0.0034561255,-0.048596811
-0.00030227765,-0.051028572
-0.0010795954,-0.037545614
0.0040812199,-0.030573305
-0.00043615408,-0.048787359
-0.024033619,-0.04941019
0.0051173731,-0.076508529
-0.011459354,-0.041540448
0.012838159,-0.028367536
-0.0041211229,-0.055139747
0.020567872,-0.070400529
-0.0059783356,-0.032096222
-0.012655415,-0.050363559
-0.011259516,-0.034288291
-0.0011390939,-0.037197676
-0.029615793,-0.047764458
-0.014911184,-0.043417882
0.010651404,-0.062186874
-0.013147389,-0.05680066
-0.012178925,-0.045387067
-0.003707102,-0.037794605
0.0061033219,-0.052343696
-0.0046974644,-0.057176832
-0.01101858,-0.036056533
0.0099274972,-0.05117235
-0.0048308512,-0.046884034
-0.0097727049,-0.040111929
-0.0051118373,-0.02049933
-0.0011172119,-0.04331081
0.008362961,-0.047689524
-0.010458831,-0.05129366
0.0018586343,-0.027855555
-0.015737904,-0.047112081
-0.012430397,-0.05246608
-0.01200376,-0.046481654
0.0013939751,-0.053448483
-0.014900047,-0.039370112
0.025675468,-0.069761842
0.0012889294,-0.052623101
-0.0084737353,-0.039013304
-0.012044209,-0.047549091
0.014979758,-0.050542284
-0.012643324,-0.042565599
-0.0098376041,-0.039635926
-0.016091747,-0.040407043
-0.0025839852,-0.048781235
-0.0021217484,-0.053179048
-0.011887975,-0.038822796
-0.013436646,-0.049809322
-0.004449077,-0.026272643
-0.0062173856,-0.044730052
-0.00671488,-0.028745577
-0.0040046819,-0.039835267
0.0032016716,-0.037710402
-0.014469835,-0.043921117
-0.0024676314,-0.049366996
-0.0044023208,-0.037697446
-0.014006781,-0.050994355
-0.0071461797,-0.036878072
-0.0077815964,-0.05346635
0.0070635704,-0.043546468
-0.008311904,-0.043412358
0.0034318138,-0.046304833
0.0044808029,-0.052231152
-0.0069110659,-0.046707969
0.0038562801,-0.04956973
-0.0014717542,-0.062310327
0.00018260763,-0.049599644
0.0021359669,-0.052456584
0.00098853896,-0.039809279
0.010874552,-0.050006375
-0.0079589505,-0.054462343
-0.0026072343,-0.048821025
0.0097560454,-0.043919954
0.008784906,-0.049961761
-0.014621901,-0.035807714
0.0026096825,-0.043523002
-0.011105369,-0.044859663
0.0038313507,-0.061731953
-0.0098065026,-0.033508129
-0.0097639011,-0.049645346
-0.0087950882,-0.039956026
-0.0038229669,-0.035184015
-0.012886632,-0.035652511
-0.014086611,-0.044628233
-0.013850371,-0.057950012
-0.0038792007,-0.049059577
0.0054348181,-0.05222505
-0.0079715885,-0.04699558
-0.0073476946,-0.034561142
-0.008487178,-0.052126925
-0.005053367,-0.031850215
-0.010945798,-0.052701686
0.00050137483,-0.033641543
-0.0042656986,-0.039531585
0.0025006237,-0.051225718
0.0081890272,-0.044537876
-0.020897023,-0.046593748
0.0034515588,-0.051869135
-0.0012052382,-0.046887651
-0.013226071,-0.052266255
-0.012015995,-0.036303252
-0.0052181599,-0.050447758
-0.0025427612,-0.04601508
-0.0013858216,-0.056270376
-0.0093848547,-0.051389035
-0.019219862,-0.052647348
-0.002674826,-0.047865722
0.00098071992,-0.045663454
-0.0021362426,-0.046854753
-0.014565257,-0.060159579
-0.030440569,-0.05371923
0.011310419,-0.053026732
-0.014952054,-0.058660507
-0.00049972569,-0.047624461
-0.013461562,-0.050613258
-0.0074956543,-0.050761715
-0.0044106767,-0.042537242
-0.010923099,-0.044239063
-0.0066612721,-0.053487491
0.0042908536,-0.061972924
-0.0074755722,-0.045995738
-0.003070123,-0.033221666
-0.0070774397,-0.043676291
0.00036389221,-0.045666527
-0.0032570045,-0.049963117
-0.0097698309,-0.054476552
-0.014411312,-0.054819338
-0.0029529608,-0.056394204
0.0055944035,-0.041374132
-0.006480433,-0.043672115
-0.0068453639,-0.058922857
-0.005678847,-0.066189066
-0.015934458,-0.05925611
-0.014826363,-0.026368983
-0.013069741,-0.048408132
0.0020316008,-0.038202737
-0.01579841,-0.059083167
-0.009459882,-0.051775981
-0.0010175616,-0.052165974
-0.0059953723,-0.048207767
-0.0006271071,-0.058002945
-0.01041325,-0.052644633
-0.011966307,-0.044882916
-0.01025332,-0.029631102
-0.013258182,-0.047309585
-0.0098666912,-0.047663663
-0.013250756,-0.043817613
-0.0021500529,-0.048500698
0.0087468894,-0.044343021
-0.008904214,-0.052965764
0.0020641624,-0.05236648
-0.0041594901,-0.039349027
-0.0037417875,-0.0470705
-0.0072483853,-0.04117747
-0.0015674345,-0.03565038
-0.0074991765,-0.047699206
0.0045530302,-0.042898804
-0.0082231453,-0.049223889
-0.0059345402,-0.055135466
-0.0087489532,-0.04541545
-0.0010493943,-0.048416469
-0.010753326,-0.047541648
-0.014642831,-0.047484614
-0.0093864817,-0.046030588
-0.019573338,-0.043645266
-0.0080807358,-0.055084277
-0.014948056,-0.043743886
-0.0020472065,-0.053010136
-0.014209997,-0.043831553
-0.011970674,-0.046009928
-0.002033357,-0.041353498
0.00085266022,-0.045573257
-0.01025622,-0.045803666
-0.0073051434,-0.044427145
-0.0036886334,-0.045568235
-0.0028134785,-0.045704495
-0.0087606497,-0.045066334
0.0023851187,-0.035039727
0.00075269263,-0.045209568
0.0033229757,-0.059723713
-0.01908922,-0.04890617
-0.0063990941,-0.049930703
-0.0062770601,-0.040645719
-0.0075031598,-0.039078169
-0.00083029264,-0.044389714
-0.0026572028,-0.044863418
0.0015104044,-0.05471665
-0.011784925,-0.044405021
0.0041169231,-0.046790209
-0.0053858515,-0.042062551
-0.014284183,-0.041205559
-0.0040541142,-0.044515431
-0.005813275,-0.057369132
-0.0044473461,-0.049238402
-0.0065218494,-0.05098981
0.0086274752,-0.046476942
0.0076237256,-0.050342124
-0.0067236503,-0.039251205
-0.0052158125,-0.052607991
-0.0086261081,-0.049409971
-0.0049263509,-0.044799928
0.0034878685,-0.050002448
-0.010749801,-0.044662748
-0.017973881,-0.044659674
-0.0074246321,-0.049603842
-0.011767789,-0.053165015
-0.0064351186,-0.045689773
-0.01438987,-0.04508879
0.010270093,-0.038088627
0.00041450074,-0.039423779
0.009553954,-0.047671624
-0.00091166631,-0.037621938
-0.0046184938,-0.055928253
-0.018473051,-0.052616958
-0.0098595964,-0.045255259
0.0067925886,-0.057508819
-0.0054718223,-0.054041032
-0.003443785,-0.043685395
0.00067068008,-0.046540659
-0.015383243,-0.044096455
-0.0095436499,-0.059410289
-0.010163611,-0.038760442
-0.00051785191,-0.043748509
-0.0041781887,-0.038309272
0.0021282216,-0.045769025
0.0084641296,-0.044552255
-0.0049247374,-0.049665879
-0.00021478909,-0.039363191
-0.01051256,-0.048176803
0.0015586659,-0.035430599
-0.0072461306,-0.040996101
-0.009002991,-0.050593529
-0.011533794,-0.036259405
-0.0027495085,-0.058307678
-0.0094737215,-0.043384958
-0.0061222664,-0.034724981
-0.0011085378,-0.054604087
-0.0015621582,-0.051341828
-0.012179925,-0.052704848
-0.0015183174,-0.050488118
-0.0088378908,-0.047621373
0.0010133011,-0.045012638
-0.0068818661,-0.034931805
-0.012925685,-0.051406808
-0.0064521898,-0.051105857
-0.0076557952,-0.045199219
-0.016436599,-0.050710421
-0.0038981931,-0.044564947
-0.0035761334,-0.043982882
-0.0051289275,-0.054003179
-0.00076751079,-0.054091822
-0.0046456289,-0.044453237
-0.0071730427,-0.05214246
0.0073405174,-0.051540371
0.00090885197,-0.046973523
-0.004934811,-0.040765036
-0.0046917829,-0.045801271
0.0061841472,-0.051978685
-0.0041169883,-0.050425868
-0.0083086779,-0.052348826
-0.00029329574,-0.046346847
0.0088552013,-0.046297599
-0.0072497516,-0.050407778
-0.0049805208,-0.05549432
-0.0055967029,-0.044436138
-0.0023080376,-0.053187873
-0.0062007699,-0.037227344
-0.010261116,-0.056935098
-0.0066140941,-0.040695343
-0.0051504103,-0.048689865
-0.0052828384,-0.043586839
-0.0060022473,-0.048894823
-0.012126701,-0.045824435
-0.011019814,-0.036539268
0.00068566186,-0.047072835
-0.006480495,-0.047986936
0.0013603523,-0.046064395
-0.00023347378,-0.045771923
-0.00075546786,-0.040575009
-0.0024819644,-0.037786506
0.0031716279,-0.048852883
-0.0014305246,-0.054526646
-0.004509009,-0.052605573
-0.012314978,-0.043996453
-0.0099450974,-0.03872538
0.0042839642,-0.045185462
-0.0095254155,-0.054931134
0.00081767113,-0.04625874
-0.0077025243,-0.039507098
-0.0069553629,-0.04880001
-0.00054645893,-0.0436556
-0.0032034307,-0.044211958
-0.0082354909,-0.046454933
-0.0031032895,-0.046899728
-0.0036839128,-0.043709226
-0.0062994873,-0.051197242
-0.0076874373,-0.043268625
-0.010489412,-0.041827675
0.00040760936,-0.053377498
-0.0128843,-0.048184421
-0.017629828,-0.04170705
-0.0073961397,-0.052662287
-0.0070548723,-0.043191288
-0.0040962882,-0.042362157
-0.0035187807,-0.045690481
0.004103173,-0.048985828
-0.00057679263,-0.054271352
-0.004536265,-0.045084562
-0.011078976,-0.041219238
-0.0072255218,-0.047316793
-0.012746098,-0.047238495
-0.0048404378,-0.044316769
-0.0046003684,-0.043596137
-0.0047749151,-0.042536069
-0.0055503547,-0.042435843
-0.0042997035,-0.04297664
-0.0031534038,-0.044276655
-0.0028245861,-0.048205853
0.0013765359,-0.05060884
-0.014335923,-0.04870782
-0.0024160652,-0.051729936
-0.0025923247,-0.048042729
-0.0098251356,-0.040057663
-0.0068745594,-0.045709446
0.00070737599,-0.040919412
-0.0060800537,-0.044830699
0.0035125967,-0.037981696
-0.0037381118,-0.042125981
0.00014761783,-0.045977596
-0.0085452376,-0.046272308
-0.0020037552,-0.048507914
-0.0030886047,-0.043261576
-0.0081827249,-0.044677939
-0.0038559523,-0.047522172
-0.014413325,-0.047064204
-0.0067169499,-0.043803688
0.0066349939,-0.049239654
-0.00049828028,-0.039239999
-0.007113745,-0.039951362
-0.0082378862,-0.050697707
-0.0022073651,-0.04642871
-0.0026173783,-0.045734234
-3.0037651e-005,-0.050904948
0.0031550266,-0.048794307
-0.0033422946,-0.045049578
-0.0058325655,-0.051982388
-0.00032052179,-0.044546802
-0.0026276768,-0.051687002
-0.0028367655,-0.046653125
-0.0092147626,-0.053941909
-0.0064686737,-0.045562085
-0.00086959777,-0.047837596
-0.0011099555,-0.046151705
-0.0056448029,-0.042007141
-0.0033370727,-0.045986988
0.0022691635,-0.04622668
-0.0013691949,-0.047045127
-0.0044011972,-0.047385659
-0.010212938,-0.044751864
0.0024928912,-0.047226317
-0.0068684788,-0.037706107
-0.0071982481,-0.045424689
-0.010533962,-0.039997499
-0.0071473881,-0.042930972
-0.0081558563,-0.042799354
-0.0088871736,-0.046185903
-0.0028606963,-0.049330126
-0.0012110819,-0.047902148
-0.0049127517,-0.045594949
-0.0033554775,-0.044232041
-5.4197884e-005,-0.04436446
-0.0034372651,-0.041639548
-0.0073970687,-0.046777882
-0.007619177,-0.043859903
-0.0098397424,-0.047138497
-0.0065083457,-0.050255347
-0.005130379,-0.042549107
-0.0031051876,-0.045223732
-0.0052817785,-0.046801474
-0.0055728145,-0.047615923
-0.0041247681,-0.047607619
-0.0018438782,-0.041735616
-0.0041863639,-0.049163178
-0.0053106495,-0.045904186
-0.0048828083,-0.047348194
-0.0045837248,-0.046826188
-0.00478533,-0.048702408
-0.0093897199,-0.048711557
-0.0045121158,-0.051845942
-0.009426943,-0.042753723
-0.003589734,-0.040187735
-0.0068157236,-0.05037754
-0.0039418233,-0.045499898
-0.0011362846,-0.04845706
-0.0021669986,-0.052712273
-0.00090511737,-0.046071596
-0.0097397827,-0.052454233
-0.0013996251,-0.054410975
-0.0012949005,-0.044714577
-0.0031330364,-0.046058208
-0.00075047452,-0.046845425
-0.0058287694,-0.047231611
-0.0060260119,-0.047233611
-0.0043846471,-0.048452836
-0.0011186788,-0.044102795
-0.003319293,-0.045313932
-0.0046303715,-0.045267839
-0.0059183976,-0.048231464
-0.0062690419,-0.046200588
-0.0036678885,-0.050996505
-0.0095408056,-0.044498865
-0.0001416507,-0.048252717
-0.0050152298,-0.049291167
-0.0005786515,-0.044695001
-0.0095844949,-0.051433016
-0.010260267,-0.042349227
-0.0070190844,-0.048736796
-0.004350875,-0.046301335
-0.0069981618,-0.048816726
-0.0031848715,-0.04490608
-0.010808534,-0.049674958
-0.0065793386,-0.042439487
-0.0085987672,-0.044029187
-0.0024616478,-0.045290522
-0.0081204185,-0.043252584
-0.0014985501,-0.048374794
-0.0035572127,-0.040975895
-0.0003198527,-0.057850752
-0.00037418565,-0.049265426
-0.0031836138,-0.046722189
-0.0042806296,-0.045180544
-0.0044780853,-0.05011341
-0.0027149841,-0.05155598
-0.0007239288,-0.044639885
-0.0033128588,-0.049404062
-0.0079621281,-0.045150891
-0.0053000879,-0.042101458
-0.0072601861,-0.045334853
-0.0062003913,-0.047325343
-0.011737687,-0.05070914
-0.0054823426,-0.040816084
-0.0035138074,-0.042585813
0.0026497173,-0.044060465
-0.0014250899,-0.048159789
0.00021408942,-0.04850848
-1.9939905e-006,-0.046369582
-0.0035732535,-0.044318009
-0.011732525,-0.048671667
-0.0017983492,-0.051452894
-0.0093745263,-0.045008831
-0.0059812474,-0.047433402
-0.0068832301,-0.051036537
-0.0056837285,-0.046728265
-0.0039154598,-0.045745697
-0.0081777759,-0.041519247
-0.00094894116,-0.051632639
-4.574424e-005,-0.048865329
-0.0030336289,-0.044541601
-0.0036048046,-0.043635037
