CITIFILE A.01.01
!Agilent Technologies,N5230C,MY48100142,A.08.04.10
!Agilent N5230C: A.08.04.10
!Date: Tuesday, September 20, 2022 14:58:24
NAME CH1_DATA
VAR Power MAG 801
DATA S11 RI
DATA S21 RI
DATA S12 RI
DATA S22 RI
VAR_LIST_BEGIN
-40
-39.975
-39.95
-39.925
-39.9
-39.875
-39.85
-39.825
-39.8
-39.775
-39.75
-39.725
-39.7
-39.675
-39.65
-39.625
-39.6
-39.575
-39.55
-39.525
-39.5
-39.475
-39.45
-39.425
-39.4
-39.375
-39.35
-39.325
-39.3
-39.275
-39.25
-39.225
-39.2
-39.175
-39.15
-39.125
-39.1
-39.075
-39.05
-39.025
-39
-38.975
-38.95
-38.925
-38.9
-38.875
-38.85
-38.825
-38.8
-38.775
-38.75
-38.725
-38.7
-38.675
-38.65
-38.625
-38.6
-38.575
-38.55
-38.525
-38.5
-38.475
-38.45
-38.425
-38.4
-38.375
-38.35
-38.325
-38.3
-38.275
-38.25
-38.225
-38.2
-38.175
-38.15
-38.125
-38.1
-38.075
-38.05
-38.025
-38
-37.975
-37.95
-37.925
-37.9
-37.875
-37.85
-37.825
-37.8
-37.775
-37.75
-37.725
-37.7
-37.675
-37.65
-37.625
-37.6
-37.575
-37.55
-37.525
-37.5
-37.475
-37.45
-37.425
-37.4
-37.375
-37.35
-37.325
-37.3
-37.275
-37.25
-37.225
-37.2
-37.175
-37.15
-37.125
-37.1
-37.075
-37.05
-37.025
-37
-36.975
-36.95
-36.925
-36.9
-36.875
-36.85
-36.825
-36.8
-36.775
-36.75
-36.725
-36.7
-36.675
-36.65
-36.625
-36.6
-36.575
-36.55
-36.525
-36.5
-36.475
-36.45
-36.425
-36.4
-36.375
-36.35
-36.325
-36.3
-36.275
-36.25
-36.225
-36.2
-36.175
-36.15
-36.125
-36.1
-36.075
-36.05
-36.025
-36
-35.975
-35.95
-35.925
-35.9
-35.875
-35.85
-35.825
-35.8
-35.775
-35.75
-35.725
-35.7
-35.675
-35.65
-35.625
-35.6
-35.575
-35.55
-35.525
-35.5
-35.475
-35.45
-35.425
-35.4
-35.375
-35.35
-35.325
-35.3
-35.275
-35.25
-35.225
-35.2
-35.175
-35.15
-35.125
-35.1
-35.075
-35.05
-35.025
-35
-34.975
-34.95
-34.925
-34.9
-34.875
-34.85
-34.825
-34.8
-34.775
-34.75
-34.725
-34.7
-34.675
-34.65
-34.625
-34.6
-34.575
-34.55
-34.525
-34.5
-34.475
-34.45
-34.425
-34.4
-34.375
-34.35
-34.325
-34.3
-34.275
-34.25
-34.225
-34.2
-34.175
-34.15
-34.125
-34.1
-34.075
-34.05
-34.025
-34
-33.975
-33.95
-33.925
-33.9
-33.875
-33.85
-33.825
-33.8
-33.775
-33.75
-33.725
-33.7
-33.675
-33.65
-33.625
-33.6
-33.575
-33.55
-33.525
-33.5
-33.475
-33.45
-33.425
-33.4
-33.375
-33.35
-33.325
-33.3
-33.275
-33.25
-33.225
-33.2
-33.175
-33.15
-33.125
-33.1
-33.075
-33.05
-33.025
-33
-32.975
-32.95
-32.925
-32.9
-32.875
-32.85
-32.825
-32.8
-32.775
-32.75
-32.725
-32.7
-32.675
-32.65
-32.625
-32.6
-32.575
-32.55
-32.525
-32.5
-32.475
-32.45
-32.425
-32.4
-32.375
-32.35
-32.325
-32.3
-32.275
-32.25
-32.225
-32.2
-32.175
-32.15
-32.125
-32.1
-32.075
-32.05
-32.025
-32
-31.975
-31.95
-31.925
-31.9
-31.875
-31.85
-31.825
-31.8
-31.775
-31.75
-31.725
-31.7
-31.675
-31.65
-31.625
-31.6
-31.575
-31.55
-31.525
-31.5
-31.475
-31.45
-31.425
-31.4
-31.375
-31.35
-31.325
-31.3
-31.275
-31.25
-31.225
-31.2
-31.175
-31.15
-31.125
-31.1
-31.075
-31.05
-31.025
-31
-30.975
-30.95
-30.925
-30.9
-30.875
-30.85
-30.825
-30.8
-30.775
-30.75
-30.725
-30.7
-30.675
-30.65
-30.625
-30.6
-30.575
-30.55
-30.525
-30.5
-30.475
-30.45
-30.425
-30.4
-30.375
-30.35
-30.325
-30.3
-30.275
-30.25
-30.225
-30.2
-30.175
-30.15
-30.125
-30.1
-30.075
-30.05
-30.025
-30
-29.975
-29.95
-29.925
-29.9
-29.875
-29.85
-29.825
-29.8
-29.775
-29.75
-29.725
-29.7
-29.675
-29.65
-29.625
-29.6
-29.575
-29.55
-29.525
-29.5
-29.475
-29.45
-29.425
-29.4
-29.375
-29.35
-29.325
-29.3
-29.275
-29.25
-29.225
-29.2
-29.175
-29.15
-29.125
-29.1
-29.075
-29.05
-29.025
-29
-28.975
-28.95
-28.925
-28.9
-28.875
-28.85
-28.825
-28.8
-28.775
-28.75
-28.725
-28.7
-28.675
-28.65
-28.625
-28.6
-28.575
-28.55
-28.525
-28.5
-28.475
-28.45
-28.425
-28.4
-28.375
-28.35
-28.325
-28.3
-28.275
-28.25
-28.225
-28.2
-28.175
-28.15
-28.125
-28.1
-28.075
-28.05
-28.025
-28
-27.975
-27.95
-27.925
-27.9
-27.875
-27.85
-27.825
-27.8
-27.775
-27.75
-27.725
-27.7
-27.675
-27.65
-27.625
-27.6
-27.575
-27.55
-27.525
-27.5
-27.475
-27.45
-27.425
-27.4
-27.375
-27.35
-27.325
-27.3
-27.275
-27.25
-27.225
-27.2
-27.175
-27.15
-27.125
-27.1
-27.075
-27.05
-27.025
-27
-26.975
-26.95
-26.925
-26.9
-26.875
-26.85
-26.825
-26.8
-26.775
-26.75
-26.725
-26.7
-26.675
-26.65
-26.625
-26.6
-26.575
-26.55
-26.525
-26.5
-26.475
-26.45
-26.425
-26.4
-26.375
-26.35
-26.325
-26.3
-26.275
-26.25
-26.225
-26.2
-26.175
-26.15
-26.125
-26.1
-26.075
-26.05
-26.025
-26
-25.975
-25.95
-25.925
-25.9
-25.875
-25.85
-25.825
-25.8
-25.775
-25.75
-25.725
-25.7
-25.675
-25.65
-25.625
-25.6
-25.575
-25.55
-25.525
-25.5
-25.475
-25.45
-25.425
-25.4
-25.375
-25.35
-25.325
-25.3
-25.275
-25.25
-25.225
-25.2
-25.175
-25.15
-25.125
-25.1
-25.075
-25.05
-25.025
-25
-24.975
-24.95
-24.925
-24.9
-24.875
-24.85
-24.825
-24.8
-24.775
-24.75
-24.725
-24.7
-24.675
-24.65
-24.625
-24.6
-24.575
-24.55
-24.525
-24.5
-24.475
-24.45
-24.425
-24.4
-24.375
-24.35
-24.325
-24.3
-24.275
-24.25
-24.225
-24.2
-24.175
-24.15
-24.125
-24.1
-24.075
-24.05
-24.025
-24
-23.975
-23.95
-23.925
-23.9
-23.875
-23.85
-23.825
-23.8
-23.775
-23.75
-23.725
-23.7
-23.675
-23.65
-23.625
-23.6
-23.575
-23.55
-23.525
-23.5
-23.475
-23.45
-23.425
-23.4
-23.375
-23.35
-23.325
-23.3
-23.275
-23.25
-23.225
-23.2
-23.175
-23.15
-23.125
-23.1
-23.075
-23.05
-23.025
-23
-22.975
-22.95
-22.925
-22.9
-22.875
-22.85
-22.825
-22.8
-22.775
-22.75
-22.725
-22.7
-22.675
-22.65
-22.625
-22.6
-22.575
-22.55
-22.525
-22.5
-22.475
-22.45
-22.425
-22.4
-22.375
-22.35
-22.325
-22.3
-22.275
-22.25
-22.225
-22.2
-22.175
-22.15
-22.125
-22.1
-22.075
-22.05
-22.025
-22
-21.975
-21.95
-21.925
-21.9
-21.875
-21.85
-21.825
-21.8
-21.775
-21.75
-21.725
-21.7
-21.675
-21.65
-21.625
-21.6
-21.575
-21.55
-21.525
-21.5
-21.475
-21.45
-21.425
-21.4
-21.375
-21.35
-21.325
-21.3
-21.275
-21.25
-21.225
-21.2
-21.175
-21.15
-21.125
-21.1
-21.075
-21.05
-21.025
-21
-20.975
-20.95
-20.925
-20.9
-20.875
-20.85
-20.825
-20.8
-20.775
-20.75
-20.725
-20.7
-20.675
-20.65
-20.625
-20.6
-20.575
-20.55
-20.525
-20.5
-20.475
-20.45
-20.425
-20.4
-20.375
-20.35
-20.325
-20.3
-20.275
-20.25
-20.225
-20.2
-20.175
-20.15
-20.125
-20.1
-20.075
-20.05
-20.025
-20
VAR_LIST_END
BEGIN
0.01177863,-0.064424545
-0.0043231333,-0.058993191
0.028286122,-0.031575389
0.0040637455,-0.066561483
-0.00073632749,-0.066038705
-0.014565138,-0.028084042
-0.0041043018,-0.051888004
-0.032166071,-0.028112223
-0.034053791,-0.032137614
-0.0065670577,-0.068203643
0.0014432307,-0.054396201
0.012792923,-0.034103144
0.015900353,-0.063284412
-0.016088672,-0.057407159
-0.015598121,-0.056428965
0.0051501803,-0.0099199004
-0.0055126995,-0.058243692
0.0018783018,-0.041293547
-0.0011950122,-0.038373258
-0.0015035399,-0.035140675
-0.036467317,-0.052658848
-0.018979603,-0.053720985
-0.0065293298,-0.045051403
0.00018752267,-0.028198985
0.0068045855,-0.061281707
-0.016325593,-0.053543165
-0.00033200745,-0.024489913
-0.0086228009,-0.054056346
0.0098015256,-0.060743149
-0.029966379,-0.029198704
0.0030598363,-0.04268644
-0.0098346863,-0.042669766
-0.016506668,-0.05146008
0.023212716,-0.038290743
-0.014900091,-0.053434052
-0.0072251991,-0.048967693
-0.00031518255,-0.071395941
0.0019593714,-0.036931641
0.0033926081,-0.067635067
-4.8474016e-005,-0.06915047
-0.0122393,-0.051198859
-0.00092114019,-0.027860146
0.013281059,-0.02706885
0.032002535,-0.020041954
-0.017626466,-0.033126052
-0.02623477,-0.042802799
0.01397826,-0.03764306
-0.016959967,-0.050189767
-0.0060192901,-0.075951219
-0.0043671704,-0.019239761
0.0090271896,-0.053497098
-0.017943883,-0.024975849
-0.0040341993,-0.053212255
-0.026479123,-0.068190396
-0.0036366088,-0.033648752
-0.007558133,-0.048551563
-0.017790839,-0.038071506
-0.0042732167,-0.0338028
0.0048512849,-0.052212223
-0.0081730997,-0.051768832
-0.019075517,-0.063275695
-0.0085858088,-0.048425868
-0.0074152476,-0.052286819
-0.014604827,-0.050644696
-0.00242834,-0.063313529
-0.0042921244,-0.037795711
-0.0091900649,-0.015568174
-0.00053960714,-0.036559962
-0.020109577,-0.030914754
-0.0072673522,-0.043787822
-0.01057585,-0.049693067
-0.01460647,-0.039641749
0.0048404261,-0.059428118
-0.010172658,-0.035954334
0.00038697291,-0.016467277
0.012421174,-0.038068146
-0.016037643,-0.060172781
-0.030101934,-0.046073582
-0.0071749371,-0.035300594
0.002011247,-0.047656801
-0.01381771,-0.049189318
-0.0058354903,-0.048142523
-0.02596591,-0.062971234
0.011083838,-0.032937896
-0.01961083,-0.058824044
-0.019815139,-0.028733699
0.0086131254,-0.058266096
0.0079651931,-0.023636969
-0.0087741427,-0.040819705
0.0093168309,-0.026649166
0.0013083462,-0.048729893
0.019393485,-0.037061505
-0.0013241535,-0.046680748
-0.0062608114,-0.03910109
0.0013890221,-0.06544333
-0.0036978244,-0.05562837
0.014459221,-0.056554645
-0.0016483064,-0.045812875
-0.007407072,-0.050555032
-0.0094811451,-0.039607976
-0.013092361,-0.048647869
0.011348504,-0.048074838
-0.0078252722,-0.048278634
-1.3435586e-005,-0.050277092
-0.0076304059,-0.066037923
0.025533626,-0.0656671
-0.014455318,-0.037683263
-0.021749938,-0.049629074
0.018049929,-0.039195735
-0.020420093,-0.04604537
-0.0038246105,-0.035526048
0.0078239022,-0.048105851
-5.8680667e-005,-0.04472192
-0.012127918,-0.033834357
-0.0096490579,-0.02652985
-0.0070165335,-0.053195409
-0.0054314001,-0.032602396
-0.0069688959,-0.046370964
-0.0049276594,-0.0649518
0.0013180604,-0.020642966
0.0088804215,-0.045756817
-0.0024635887,-0.040132772
0.0030386283,-0.04622918
-0.0086264173,-0.044075292
0.0055738403,-0.068196736
-0.013260467,-0.041483603
0.0054211169,-0.038308408
0.019096183,-0.035818487
-0.019343283,-0.037767708
0.0083446912,-0.044789437
-0.00083007955,-0.048876517
-0.011014035,-0.06627623
-0.015868524,-0.060394865
-0.017192768,-0.026981954
0.0024821421,-0.038884796
0.00081250304,-0.050507117
0.0007661077,-0.046958067
-0.0077793342,-0.067875259
0.0021733807,-0.061062567
-0.025766658,-0.058803022
-0.0079539428,-0.045888331
-0.00032061114,-0.039373536
0.0018470903,-0.043302108
0.0098564168,-0.046132416
0.0072822683,-0.037991874
0.009697062,-0.040196218
-0.017237494,-0.036679428
0.0029579967,-0.046854742
0.010334987,-0.051395837
-0.0088023599,-0.06917768
-0.0098152952,-0.058369417
-0.0010451366,-0.048848536
0.0043930965,-0.044326823
0.007404001,-0.051831331
-0.016760973,-0.050982799
-0.016685221,-0.061533686
0.0010968425,-0.034278832
0.0083268462,-0.059473533
-0.0053110104,-0.048310641
-0.0092014764,-0.02764803
0.0035765369,-0.045556143
-0.019777086,-0.045212589
-0.0080996072,-0.052441582
-0.0021487861,-0.040453043
0.012802814,-0.048676267
-0.0012810265,-0.04415457
-0.0069646728,-0.037132807
0.00079629209,-0.051049463
-0.017318603,-0.051381499
-0.0019156599,-0.055949431
0.0031593605,-0.05009592
-0.0093300175,-0.046945445
-0.012658124,-0.042651538
0.0044434224,-0.057106093
-0.010277714,-0.056023493
-0.015413596,-0.035927832
0.0039496329,-0.044545244
-0.02069802,-0.058408353
0.011777615,-0.059681915
-0.014200469,-0.038941797
-0.0081993658,-0.035147794
-0.010974666,-0.051098231
0.0060524703,-0.036818855
-0.0010289591,-0.054092795
-0.0044603497,-0.032390963
-0.0044943327,-0.065274701
-0.010167638,-0.041487135
-0.01373834,-0.034348805
-0.014874632,-0.039651986
-0.013262252,-0.029724998
-0.013859405,-0.064680927
-0.0055688191,-0.050160099
0.0032547365,-0.035138953
0.0035656583,-0.030138239
-0.0002729565,-0.055753238
-0.0038430742,-0.036641404
-0.012296476,-0.046218336
0.0097751394,-0.041535061
-0.010204664,-0.043552309
0.012365961,-0.041174725
-0.023484591,-0.051885217
-0.0085646063,-0.040642139
0.007510554,-0.04606951
0.00039812474,-0.023109704
-0.011796058,-0.041537084
-0.017522534,-0.042914797
-0.0072910888,-0.070144489
0.010290932,-0.064959347
-0.0084885359,-0.062152177
0.013534022,-0.039098252
-0.0043233843,-0.039631236
-0.0020107462,-0.049010135
-0.0056461119,-0.045760859
0.0013323867,-0.052269865
-0.0071438989,-0.037970897
0.0019775226,-0.053335179
-0.0035957987,-0.053588592
-0.015603539,-0.04971661
-0.0056913048,-0.053184994
-0.007664823,-0.055178035
-0.0081717903,-0.040236238
0.0048696459,-0.038949858
-0.0085324096,-0.057914607
0.0025785496,-0.052002601
-0.012827312,-0.042742085
-0.017229479,-0.04958725
-0.0020753739,-0.052044693
0.0045924196,-0.053084649
0.004693896,-0.042163577
-0.0038773285,-0.048455331
-0.011091243,-0.03340691
-0.0019123934,-0.038459368
-0.015229467,-0.059028227
-0.0025830057,-0.041368116
-0.00080621574,-0.04372789
0.0020667384,-0.049180835
-0.0084294761,-0.070759758
-0.0064380537,-0.057531103
-0.0045882221,-0.061034773
0.0041241054,-0.042174488
-0.0072441204,-0.044418924
-0.015503836,-0.038371582
0.0020957743,-0.048486736
0.010100745,-0.034128316
-0.0074362694,-0.036292229
-0.0014357389,-0.03987933
-0.0037446641,-0.035422582
-0.015637973,-0.049383245
-0.008056297,-0.055828836
0.0077519901,-0.043684255
0.0053864555,-0.051131044
-0.015162577,-0.044090573
-0.0073293396,-0.036512125
-0.00047199076,-0.048599165
-0.01553777,-0.043830227
-0.0036173763,-0.055038191
-0.011493756,-0.059059255
-0.0046903794,-0.047835737
-0.011886961,-0.051939454
-0.0047253403,-0.033650305
0.001416508,-0.034295615
-0.0082408059,-0.046055611
-0.0056368597,-0.052852519
-0.0070172632,-0.044331409
0.00067046884,-0.053219594
-0.0098418789,-0.033662174
-0.0061341324,-0.054005254
-0.018581623,-0.039945465
-0.010473319,-0.050140955
-0.0088912658,-0.049825456
-0.0075275837,-0.055671643
-0.0041297097,-0.065297082
-0.010478436,-0.061858505
-0.02673411,-0.046953194
0.0027139231,-0.045263819
-0.011007112,-0.029121853
-0.004246518,-0.044723812
-0.020578166,-0.048620794
2.0035357e-005,-0.053890035
0.00065544568,-0.033489164
-0.007403905,-0.047471657
0.0040136017,-0.04683429
-0.016342422,-0.039958522
-0.0048369891,-0.040115517
0.0017507676,-0.063706979
-0.014018678,-0.038418956
-0.0059755612,-0.036352072
-0.020203285,-0.047681592
0.0096703721,-0.036841664
0.0055901613,-0.045949787
-0.0011557462,-0.056420419
-0.0039993888,-0.03954649
-0.00036729721,-0.043216527
-0.0085212439,-0.047083959
-0.014139061,-0.046800058
-0.006002408,-0.039041426
-0.0059333332,-0.053376298
-0.0026875818,-0.050444625
0.0084128827,-0.038086656
-0.0025104661,-0.056391507
-0.01078985,-0.048719708
-0.00057423511,-0.03877734
-0.010437925,-0.046563223
-1.659732e-005,-0.045608647
-0.011390642,-0.050441939
-0.0027278657,-0.049688175
0.0091800662,-0.040899213
-0.0066142278,-0.043212995
-0.0078214137,-0.050008412
-0.0069460259,-0.051712006
0.0041835234,-0.04514277
0.00026683614,-0.044842217
-0.021400606,-0.044972576
0.0053727482,-0.046517141
-0.0031232452,-0.055151552
-0.0077137453,-0.044362593
-0.011498159,-0.0454349
-0.0014887694,-0.055755232
-0.00047311897,-0.032777596
0.0055645695,-0.039172851
0.0066905119,-0.040717542
-0.011611906,-0.046109449
-0.0075491886,-0.046523556
0.0043461397,-0.050557461
0.0065660961,-0.04880704
-0.0025349632,-0.057454728
0.010798057,-0.046944965
-0.0044201822,-0.048352759
-0.0046576983,-0.050148733
-0.0082985451,-0.052473348
-0.0021553377,-0.038498767
-0.0088753905,-0.045643356
-0.0022978964,-0.051974684
0.0089267287,-0.047560982
0.0012694774,-0.049812734
-0.001789897,-0.036846977
-0.012290289,-0.035837971
-0.00034159317,-0.047254477
-0.0092626177,-0.056850225
-0.0085889427,-0.044070624
-0.0060071959,-0.045647398
-0.0011683407,-0.03694034
-0.0072704316,-0.058264501
-0.0061265929,-0.047538247
-0.0094044656,-0.054779384
-0.010164374,-0.047408119
-0.0035015084,-0.049333394
-0.0036293885,-0.043073121
-0.0074482411,-0.050158445
-0.0060430081,-0.037079882
0.0078903297,-0.05764148
0.0019408806,-0.059040289
-0.0019552843,-0.057457652
-0.010083999,-0.039686393
-0.013180975,-0.057012722
-0.011001743,-0.04906195
-0.011746115,-0.04190477
1.012153e-005,-0.054903146
-0.0044861613,-0.059568699
-0.0041502453,-0.046020802
-0.016015628,-0.054591466
-0.013605756,-0.044709444
0.0020715671,-0.05085035
-0.0071207043,-0.040211793
0.0082461163,-0.050197583
-0.0062973015,-0.036791638
-0.0012380233,-0.04866023
-0.011687011,-0.044277459
-0.0048752977,-0.047160525
0.0024825942,-0.034727994
-0.010321756,-0.062006436
-0.0048517697,-0.046927381
-0.0056246882,-0.039851543
-0.018965291,-0.047861218
0.00088736764,-0.05016033
-0.0034390779,-0.051514901
0.012410182,-0.047364462
-0.006822153,-0.025081821
-0.0080289692,-0.036001436
0.00015231772,-0.053031463
-0.008489023,-0.0450451
-0.0026354473,-0.049718577
0.0031272017,-0.044745658
-0.0095321331,-0.052791659
-0.0075672711,-0.049110122
-0.005871064,-0.050557431
-0.002322545,-0.046984795
-0.006967633,-0.052301727
0.00056023471,-0.045614675
-0.0021243154,-0.039617505
0.0029692801,-0.04796337
-0.012752051,-0.042079892
-0.014252357,-0.047184967
-0.0032665706,-0.044121809
0.0032382593,-0.049572203
-0.0057107029,-0.04681699
-0.005950049,-0.040697407
-0.0021769551,-0.042045433
-0.0065030255,-0.052322548
-0.0049555684,-0.060026612
-0.0036766175,-0.055554502
-0.00092277915,-0.049739726
-0.0088553792,-0.047904301
-0.0010651411,-0.048498284
-0.0010017563,-0.042439133
0.0041493513,-0.043802887
0.0045833657,-0.039002445
-0.0080304723,-0.054517183
0.0014027908,-0.047441442
-0.0058154208,-0.048128519
0.0055278437,-0.048636273
-0.0058550518,-0.043005567
-0.0062514236,-0.045595169
0.0030552056,-0.049202278
-0.0024443441,-0.050189737
-0.013334064,-0.043261968
-0.0059255268,-0.047035214
-0.0062582646,-0.05208284
-0.0032724037,-0.047427528
-0.0035716759,-0.050416101
-0.0059236703,-0.047617339
0.00090607553,-0.046512078
-0.00048904325,-0.049806435
0.00092659437,-0.054637175
-0.012809323,-0.046854567
-0.00071041274,-0.04959986
-0.010163052,-0.039975248
-0.014307225,-0.053368609
0.0012958756,-0.049983326
0.001377463,-0.048306048
-0.0075206659,-0.04664148
-0.0053051612,-0.047384851
0.0021025853,-0.047939938
-0.0071059903,-0.050700475
-0.011282282,-0.053452373
0.00046890829,-0.042928554
-0.0011180422,-0.044890076
-0.0016817076,-0.049766868
-0.0030883336,-0.047017444
0.0080542173,-0.052019153
-0.0029353055,-0.050367583
-0.0064089014,-0.044913847
-0.0011992926,-0.043034192
0.00015616462,-0.053779993
-0.002065338,-0.04485485
-0.0044996468,-0.049442321
-0.0060802666,-0.041048929
-0.010329895,-0.050420303
-0.00059139385,-0.042982493
-0.012185369,-0.045583334
-0.0028147148,-0.039346192
-0.0013388467,-0.047563519
-0.0074209031,-0.046171091
-0.0077934647,-0.049032003
-0.012083665,-0.045305602
0.00097708113,-0.049619172
-0.0026971174,-0.044734266
-0.0094997454,-0.051300783
-0.010626709,-0.046450768
-0.0093990434,-0.048075028
-0.0031121981,-0.051304132
-0.0047729611,-0.044983983
-0.0037788609,-0.048632499
-0.0060349829,-0.038546957
-0.0063078147,-0.05292251
-0.0020026469,-0.050050698
-0.0063947779,-0.041485146
-0.0018385387,-0.049974635
-0.0045957076,-0.051433738
-0.0033501845,-0.051528811
-0.0044280742,-0.05082798
0.00074318534,-0.043647457
-0.011436614,-0.046102501
-0.0097529013,-0.03776326
-0.0042541325,-0.049174923
-0.0084792795,-0.044855084
0.0016972939,-0.047603648
-0.0041655614,-0.047593795
-0.0096062524,-0.046707701
-0.0036748459,-0.043871775
-0.0085424399,-0.051659066
