CITIFILE A.01.01
!Agilent Technologies,N5230C,MY48100142,A.08.04.10
!Agilent N5230C: A.08.04.10
!Format: LogMag/Angle
!Date: Thursday, July 30, 2020 12:08:49
NAME CH1_DATA
VAR Power MAG 801
DATA S11 DBANGLE
DATA S21 DBANGLE
DATA S12 DBANGLE
DATA S22 DBANGLE
VAR_LIST_BEGIN
-40
-39.975
-39.95
-39.925
-39.9
-39.875
-39.85
-39.825
-39.8
-39.775
-39.75
-39.725
-39.7
-39.675
-39.65
-39.625
-39.6
-39.575
-39.55
-39.525
-39.5
-39.475
-39.45
-39.425
-39.4
-39.375
-39.35
-39.325
-39.3
-39.275
-39.25
-39.225
-39.2
-39.175
-39.15
-39.125
-39.1
-39.075
-39.05
-39.025
-39
-38.975
-38.95
-38.925
-38.9
-38.875
-38.85
-38.825
-38.8
-38.775
-38.75
-38.725
-38.7
-38.675
-38.65
-38.625
-38.6
-38.575
-38.55
-38.525
-38.5
-38.475
-38.45
-38.425
-38.4
-38.375
-38.35
-38.325
-38.3
-38.275
-38.25
-38.225
-38.2
-38.175
-38.15
-38.125
-38.1
-38.075
-38.05
-38.025
-38
-37.975
-37.95
-37.925
-37.9
-37.875
-37.85
-37.825
-37.8
-37.775
-37.75
-37.725
-37.7
-37.675
-37.65
-37.625
-37.6
-37.575
-37.55
-37.525
-37.5
-37.475
-37.45
-37.425
-37.4
-37.375
-37.35
-37.325
-37.3
-37.275
-37.25
-37.225
-37.2
-37.175
-37.15
-37.125
-37.1
-37.075
-37.05
-37.025
-37
-36.975
-36.95
-36.925
-36.9
-36.875
-36.85
-36.825
-36.8
-36.775
-36.75
-36.725
-36.7
-36.675
-36.65
-36.625
-36.6
-36.575
-36.55
-36.525
-36.5
-36.475
-36.45
-36.425
-36.4
-36.375
-36.35
-36.325
-36.3
-36.275
-36.25
-36.225
-36.2
-36.175
-36.15
-36.125
-36.1
-36.075
-36.05
-36.025
-36
-35.975
-35.95
-35.925
-35.9
-35.875
-35.85
-35.825
-35.8
-35.775
-35.75
-35.725
-35.7
-35.675
-35.65
-35.625
-35.6
-35.575
-35.55
-35.525
-35.5
-35.475
-35.45
-35.425
-35.4
-35.375
-35.35
-35.325
-35.3
-35.275
-35.25
-35.225
-35.2
-35.175
-35.15
-35.125
-35.1
-35.075
-35.05
-35.025
-35
-34.975
-34.95
-34.925
-34.9
-34.875
-34.85
-34.825
-34.8
-34.775
-34.75
-34.725
-34.7
-34.675
-34.65
-34.625
-34.6
-34.575
-34.55
-34.525
-34.5
-34.475
-34.45
-34.425
-34.4
-34.375
-34.35
-34.325
-34.3
-34.275
-34.25
-34.225
-34.2
-34.175
-34.15
-34.125
-34.1
-34.075
-34.05
-34.025
-34
-33.975
-33.95
-33.925
-33.9
-33.875
-33.85
-33.825
-33.8
-33.775
-33.75
-33.725
-33.7
-33.675
-33.65
-33.625
-33.6
-33.575
-33.55
-33.525
-33.5
-33.475
-33.45
-33.425
-33.4
-33.375
-33.35
-33.325
-33.3
-33.275
-33.25
-33.225
-33.2
-33.175
-33.15
-33.125
-33.1
-33.075
-33.05
-33.025
-33
-32.975
-32.95
-32.925
-32.9
-32.875
-32.85
-32.825
-32.8
-32.775
-32.75
-32.725
-32.7
-32.675
-32.65
-32.625
-32.6
-32.575
-32.55
-32.525
-32.5
-32.475
-32.45
-32.425
-32.4
-32.375
-32.35
-32.325
-32.3
-32.275
-32.25
-32.225
-32.2
-32.175
-32.15
-32.125
-32.1
-32.075
-32.05
-32.025
-32
-31.975
-31.95
-31.925
-31.9
-31.875
-31.85
-31.825
-31.8
-31.775
-31.75
-31.725
-31.7
-31.675
-31.65
-31.625
-31.6
-31.575
-31.55
-31.525
-31.5
-31.475
-31.45
-31.425
-31.4
-31.375
-31.35
-31.325
-31.3
-31.275
-31.25
-31.225
-31.2
-31.175
-31.15
-31.125
-31.1
-31.075
-31.05
-31.025
-31
-30.975
-30.95
-30.925
-30.9
-30.875
-30.85
-30.825
-30.8
-30.775
-30.75
-30.725
-30.7
-30.675
-30.65
-30.625
-30.6
-30.575
-30.55
-30.525
-30.5
-30.475
-30.45
-30.425
-30.4
-30.375
-30.35
-30.325
-30.3
-30.275
-30.25
-30.225
-30.2
-30.175
-30.15
-30.125
-30.1
-30.075
-30.05
-30.025
-30
-29.975
-29.95
-29.925
-29.9
-29.875
-29.85
-29.825
-29.8
-29.775
-29.75
-29.725
-29.7
-29.675
-29.65
-29.625
-29.6
-29.575
-29.55
-29.525
-29.5
-29.475
-29.45
-29.425
-29.4
-29.375
-29.35
-29.325
-29.3
-29.275
-29.25
-29.225
-29.2
-29.175
-29.15
-29.125
-29.1
-29.075
-29.05
-29.025
-29
-28.975
-28.95
-28.925
-28.9
-28.875
-28.85
-28.825
-28.8
-28.775
-28.75
-28.725
-28.7
-28.675
-28.65
-28.625
-28.6
-28.575
-28.55
-28.525
-28.5
-28.475
-28.45
-28.425
-28.4
-28.375
-28.35
-28.325
-28.3
-28.275
-28.25
-28.225
-28.2
-28.175
-28.15
-28.125
-28.1
-28.075
-28.05
-28.025
-28
-27.975
-27.95
-27.925
-27.9
-27.875
-27.85
-27.825
-27.8
-27.775
-27.75
-27.725
-27.7
-27.675
-27.65
-27.625
-27.6
-27.575
-27.55
-27.525
-27.5
-27.475
-27.45
-27.425
-27.4
-27.375
-27.35
-27.325
-27.3
-27.275
-27.25
-27.225
-27.2
-27.175
-27.15
-27.125
-27.1
-27.075
-27.05
-27.025
-27
-26.975
-26.95
-26.925
-26.9
-26.875
-26.85
-26.825
-26.8
-26.775
-26.75
-26.725
-26.7
-26.675
-26.65
-26.625
-26.6
-26.575
-26.55
-26.525
-26.5
-26.475
-26.45
-26.425
-26.4
-26.375
-26.35
-26.325
-26.3
-26.275
-26.25
-26.225
-26.2
-26.175
-26.15
-26.125
-26.1
-26.075
-26.05
-26.025
-26
-25.975
-25.95
-25.925
-25.9
-25.875
-25.85
-25.825
-25.8
-25.775
-25.75
-25.725
-25.7
-25.675
-25.65
-25.625
-25.6
-25.575
-25.55
-25.525
-25.5
-25.475
-25.45
-25.425
-25.4
-25.375
-25.35
-25.325
-25.3
-25.275
-25.25
-25.225
-25.2
-25.175
-25.15
-25.125
-25.1
-25.075
-25.05
-25.025
-25
-24.975
-24.95
-24.925
-24.9
-24.875
-24.85
-24.825
-24.8
-24.775
-24.75
-24.725
-24.7
-24.675
-24.65
-24.625
-24.6
-24.575
-24.55
-24.525
-24.5
-24.475
-24.45
-24.425
-24.4
-24.375
-24.35
-24.325
-24.3
-24.275
-24.25
-24.225
-24.2
-24.175
-24.15
-24.125
-24.1
-24.075
-24.05
-24.025
-24
-23.975
-23.95
-23.925
-23.9
-23.875
-23.85
-23.825
-23.8
-23.775
-23.75
-23.725
-23.7
-23.675
-23.65
-23.625
-23.6
-23.575
-23.55
-23.525
-23.5
-23.475
-23.45
-23.425
-23.4
-23.375
-23.35
-23.325
-23.3
-23.275
-23.25
-23.225
-23.2
-23.175
-23.15
-23.125
-23.1
-23.075
-23.05
-23.025
-23
-22.975
-22.95
-22.925
-22.9
-22.875
-22.85
-22.825
-22.8
-22.775
-22.75
-22.725
-22.7
-22.675
-22.65
-22.625
-22.6
-22.575
-22.55
-22.525
-22.5
-22.475
-22.45
-22.425
-22.4
-22.375
-22.35
-22.325
-22.3
-22.275
-22.25
-22.225
-22.2
-22.175
-22.15
-22.125
-22.1
-22.075
-22.05
-22.025
-22
-21.975
-21.95
-21.925
-21.9
-21.875
-21.85
-21.825
-21.8
-21.775
-21.75
-21.725
-21.7
-21.675
-21.65
-21.625
-21.6
-21.575
-21.55
-21.525
-21.5
-21.475
-21.45
-21.425
-21.4
-21.375
-21.35
-21.325
-21.3
-21.275
-21.25
-21.225
-21.2
-21.175
-21.15
-21.125
-21.1
-21.075
-21.05
-21.025
-21
-20.975
-20.95
-20.925
-20.9
-20.875
-20.85
-20.825
-20.8
-20.775
-20.75
-20.725
-20.7
-20.675
-20.65
-20.625
-20.6
-20.575
-20.55
-20.525
-20.5
-20.475
-20.45
-20.425
-20.4
-20.375
-20.35
-20.325
-20.3
-20.275
-20.25
-20.225
-20.2
-20.175
-20.15
-20.125
-20.1
-20.075
-20.05
-20.025
-20
VAR_LIST_END
BEGIN
-14.967195,-157.57788
-15.674176,-156.1781
-15.472235,-163.74533
-14.929683,-148.94882
-14.988528,-160.24573
-14.419578,-155.44823
-14.131434,-165.56285
-14.515659,-161.54039
-14.234508,-164.02533
-15.166327,-156.8157
-14.855849,-157.78282
-15.355577,-156.19992
-15.706426,-156.41888
-15.642486,-154.8712
-16.438473,-154.27377
-14.955963,-165.0554
-13.898123,-166.58214
-14.670978,-161.1376
-14.291876,-161.47543
-16.379169,-159.16216
-14.26355,-155.19427
-15.196429,-163.95628
-15.656133,-160.3208
-15.743028,-166.52048
-14.653969,-162.21976
-14.909114,-162.09416
-15.077068,-153.0535
-15.639965,-156.82063
-14.654368,-156.65463
-14.794613,-159.88065
-15.613617,-147.43646
-14.645068,-155.57796
-15.692323,-168.31607
-14.916566,-160.02611
-14.372125,-165.07892
-14.735031,-158.58188
-15.404219,-166.12054
-15.677176,-155.02042
-15.060969,-164.02808
-15.946367,-161.42422
-16.002436,-157.44305
-15.427588,-156.72362
-15.734984,-155.19951
-14.502352,-154.0661
-14.344762,-157.23405
-15.207026,-155.70825
-13.626695,-163.36938
-15.609248,-163.01724
-15.580931,-158.56467
-16.245956,-162.14261
-15.419879,-163.47533
-15.291995,-161.6882
-15.395385,-165.0341
-14.905023,-160.25703
-14.269008,-155.00339
-14.51065,-162.55936
-14.816926,-158.34923
-14.307111,-154.62778
-15.077919,-161.49841
-15.614227,-162.14021
-15.540946,-164.61632
-15.565242,-157.49919
-15.309484,-163.50687
-14.930079,-162.04913
-14.682244,-160.4507
-14.737223,-158.79483
-15.740127,-163.02983
-15.798356,-164.24033
-15.225706,-153.46664
-14.780785,-161.39259
-16.548933,-152.32881
-15.946607,-160.60199
-14.355646,-160.46751
-14.857172,-159.89725
-14.794616,-156.53336
-15.635826,-161.3392
-14.670156,-156.64847
-14.571692,-159.43814
-14.81106,-160.47557
-14.295511,-161.26434
-16.855774,-151.61758
-15.439078,-159.20503
-15.740306,-153.1342
-14.59563,-156.85477
-16.527731,-165.70303
-13.93178,-160.50977
-14.884824,-158.22693
-14.954638,-157.13541
-15.196646,-163.99745
-15.957508,-162.44969
-15.431391,-158.1143
-15.637286,-160.48029
-14.851939,-161.48396
-15.489336,-163.10509
-15.42534,-165.11893
-14.799932,-158.51799
-14.872538,-162.89035
-15.67315,-160.97348
-14.720441,-157.42163
-14.75339,-160.23972
-15.088495,-161.78203
-14.767614,-160.78375
-14.496696,-160.49654
-14.172219,-157.87494
-15.020786,-161.80745
-14.9098,-162.57996
-15.23508,-154.82915
-14.807688,-157.40431
-14.972571,-160.69194
-15.119127,-166.92738
-14.981954,-155.06418
-15.185882,-160.31184
-15.498583,-160.69032
-14.860368,-160.05396
-15.805277,-165.89421
-14.504815,-159.02631
-15.640368,-163.84132
-14.280491,-165.75056
-14.994781,-163.21794
-15.551108,-158.69711
-15.161522,-158.04369
-15.11746,-161.39745
-14.756238,-158.68108
-14.915995,-162.05685
-14.914484,-157.88785
-16.104973,-158.9126
-14.945335,-157.95898
-14.36002,-157.72177
-15.125686,-164.96393
-14.930539,-162.10367
-14.613605,-165.12054
-15.39506,-159.0636
-15.297226,-165.0257
-15.884699,-158.23874
-14.940084,-168.11005
-14.394517,-160.33345
-14.964165,-163.17081
-15.282825,-161.59698
-14.156879,-157.20447
-15.386737,-162.24916
-16.268137,-156.39316
-15.240006,-160.71635
-15.264931,-158.9718
-15.819952,-163.65663
-14.898522,-164.87575
-15.592305,-162.13429
-15.60087,-158.21762
-14.738499,-158.68768
-15.053073,-164.90672
-15.045401,-162.85843
-14.861278,-162.34137
-14.760773,-158.74991
-14.889802,-162.06503
-15.299591,-156.71669
-14.798908,-159.96788
-16.107513,-157.56842
-15.233796,-161.70976
-14.866174,-164.20056
-14.958715,-160.65981
-15.213729,-158.02441
-14.667043,-157.79927
-15.038323,-159.79517
-15.432076,-157.43602
-15.347317,-159.96346
-14.784282,-160.12666
-15.328726,-161.03374
-15.043662,-162.85132
-15.239841,-160.9604
-15.114088,-166.52228
-16.097101,-163.03958
-15.161769,-164.55708
-14.718166,-161.62665
-15.031225,-158.57037
-14.816029,-159.85559
-14.577581,-160.10069
-15.791376,-156.51465
-15.086532,-158.91838
-15.368792,-157.689
-15.057663,-157.77206
-15.185659,-163.33514
-15.164017,-162.64932
-15.570655,-162.25958
-15.184743,-160.76994
-15.52698,-161.63808
-15.701219,-159.39043
-15.55963,-156.99873
-14.696343,-160.36664
-15.294602,-161.52344
-15.722086,-153.9164
-15.413713,-164.91214
-16.042084,-161.56778
-14.96755,-162.50943
-16.045639,-159.94341
-14.999123,-157.28793
-15.9257,-162.60701
-14.825924,-157.07059
-14.949019,-157.12608
-14.847629,-160.44379
-14.713215,-158.33139
-15.276249,-162.1776
-15.574558,-155.8325
-15.310816,-162.0183
-14.548223,-160.14471
-15.807308,-158.14685
-15.658478,-160.88596
-15.46223,-162.53667
-14.991292,-156.86295
-15.391929,-161.49339
-15.25491,-154.8537
-14.964215,-162.77612
-15.632675,-163.5574
-14.966077,-165.21439
-14.998299,-161.48454
-14.963234,-159.02066
-15.644417,-164.26193
-14.816392,-158.42865
-15.367227,-153.44063
-15.404507,-158.23907
-14.450627,-163.14412
-14.387278,-162.606
-15.282255,-158.26155
-14.679831,-157.25043
-15.290989,-161.51543
-15.255669,-162.62508
-14.792681,-163.07048
-14.990416,-159.27278
-14.938853,-154.50833
-15.553062,-161.4919
-15.241362,-162.02629
-14.412153,-158.14665
-15.142495,-163.07727
-14.579579,-159.46361
-14.990092,-162.2057
-14.67131,-159.50995
-14.622359,-154.75137
-15.476313,-158.91629
-14.851928,-158.3726
-14.94922,-162.6254
-15.001875,-163.43683
-15.166711,-160.65988
-14.435328,-164.11865
-14.396015,-160.10515
-14.90029,-161.15112
-15.882228,-159.50826
-14.959611,-161.08005
-15.936199,-159.70872
-15.137935,-160.69804
-15.507354,-160.65753
-14.939273,-160.94215
-14.935541,-157.04749
-15.059898,-159.60603
-15.005526,-160.61784
-15.321878,-163.10815
-14.468582,-157.24901
-14.962443,-164.49649
-14.908016,-160.83658
-14.991906,-157.37521
-15.107259,-164.41612
-14.970407,-161.44968
-15.186843,-161.53847
-14.839043,-161.06578
-15.092611,-163.81598
-14.754451,-160.46115
-14.963342,-160.7932
-15.046202,-166.37198
-15.252496,-162.65326
-14.939138,-158.41724
-15.347381,-158.4501
-14.620972,-162.46326
-15.440283,-157.73946
-15.033727,-159.78918
-15.036057,-161.15205
-14.902674,-162.0482
-14.991308,-160.80849
-14.579038,-159.86478
-15.320042,-158.77579
-15.550133,-161.91777
-14.855657,-162.02467
-15.013957,-159.25272
-14.669993,-155.07021
-15.384014,-159.63365
-14.485282,-157.44983
-14.922907,-159.16753
-15.005076,-161.47227
-14.97792,-158.74033
-15.417148,-158.53821
-15.08924,-158.87254
-15.565672,-161.74368
-15.148935,-161.47499
-14.814855,-160.83086
-15.192101,-163.61311
-14.932139,-160.27171
-14.933766,-159.65523
-15.026743,-162.36728
-14.947839,-158.91359
-15.008006,-157.38466
-15.03951,-159.91815
-15.020617,-162.10614
-15.703622,-163.17366
-14.65755,-159.77196
-14.958979,-160.69464
-14.877254,-159.90666
-15.241126,-157.28778
-15.376551,-157.96103
-15.070681,-158.52892
-15.233663,-157.82668
-14.554107,-158.02477
-15.064636,-158.1286
-14.725149,-160.94807
-15.071235,-158.20657
-14.755982,-158.4014
-14.838616,-158.95744
-14.933913,-156.25693
-15.20309,-158.97343
-15.711822,-159.68333
-14.746276,-157.67908
-14.330974,-161.16617
-14.922049,-160.00064
-15.310616,-162.34073
-15.356205,-158.30634
-14.80523,-157.30444
-15.747577,-162.62671
-14.489724,-158.81862
-14.763778,-156.50273
-14.838923,-158.36919
-15.339197,-160.91721
-15.020042,-160.11952
-14.534281,-161.54756
-15.594541,-162.22589
-14.988943,-162.7838
-14.988727,-159.63719
-14.94983,-160.67973
-15.245481,-158.99141
-15.13838,-161.17865
-15.109654,-162.86314
-14.856649,-161.75621
-15.345571,-162.32085
-15.297837,-158.31372
-15.488464,-158.59332
-15.179937,-160.3559
-14.88741,-156.95609
-15.285634,-158.53877
-14.273618,-162.28174
-15.273431,-157.74561
-15.193899,-159.50967
-15.412596,-158.39796
-14.71209,-160.95988
-15.182829,-159.44316
-15.467194,-159.2108
-14.629054,-157.35324
-14.453957,-160.37479
-15.507145,-158.30518
-14.940866,-159.97243
-15.038196,-161.93591
-14.618403,-160.69305
-15.176259,-159.85077
-15.111086,-159.56885
-14.859433,-157.42715
-15.139063,-161.48442
-14.901411,-159.30728
-15.080105,-162.31572
-15.188146,-162.08525
-14.625154,-158.41078
-15.174283,-161.48453
-14.876244,-158.44894
-14.659857,-160.27156
-14.866735,-160.43613
-15.425072,-158.43211
-15.022135,-162.26843
-14.632836,-157.9192
-15.263382,-158.4248
-14.82716,-159.03098
-15.006174,-160.21072
-14.799671,-159.03999
-14.641795,-162.51544
-14.911968,-160.50566
-15.808384,-160.36435
-15.682041,-160.9725
-14.952533,-161.15718
-15.635427,-161.77086
-15.355441,-161.94588
-15.23724,-160.18799
-14.943619,-160.23228
-15.338084,-158.12192
-14.826467,-159.16739
-15.032351,-163.40637
-14.868336,-162.27689
-14.918781,-160.17122
-15.205929,-158.07875
-15.022854,-160.48378
-15.074671,-159.67639
-15.231117,-161.06381
-14.946678,-159.60176
-15.089118,-163.2645
-15.102748,-159.64157
-15.403912,-162.35364
-15.264501,-158.56064
-14.889976,-159.32715
-15.169991,-162.83517
-14.913715,-158.33801
-15.326632,-157.94972
-15.235279,-161.97076
-14.751203,-160.73044
-14.843153,-160.26434
-14.866623,-160.24428
-15.311928,-159.33459
-15.043846,-162.85013
-15.141249,-160.21045
-15.220596,-159.14993
-14.908932,-161.68918
-15.089361,-158.89668
-15.235441,-158.82777
-14.490637,-157.99516
-15.365384,-160.12209
-15.227989,-159.59286
-15.116405,-159.88187
-15.144709,-159.12782
-15.312451,-159.09642
-15.309267,-159.09555
-15.328452,-161.20198
-15.126498,-160.61697
-14.758451,-159.68106
-14.893591,-161.99828
-14.79513,-159.45117
-15.109171,-161.28569
-15.114825,-162.12285
-14.846624,-160.75729
-15.157792,-159.94084
-14.976614,-156.87503
-14.979187,-160.65189
-15.146942,-160.25288
-14.833829,-162.05219
-15.244014,-159.70741
-15.121426,-159.479
-15.106434,-159.13582
-15.277357,-160.63879
-15.125002,-158.93771
-15.105558,-159.07133
-14.937793,-159.62544
-14.988856,-157.42191
-14.867768,-159.56866
-14.739381,-158.51178
-14.781989,-160.58128
-15.020688,-160.69849
-15.450094,-160.42705
-15.422993,-158.23682
-15.139652,-155.84988
-14.968247,-159.82739
-15.349328,-162.40358
-15.251145,-159.26137
-15.046893,-160.10902
-15.081715,-160.94072
-15.173806,-159.94008
-15.147495,-161.02599
-14.919506,-161.50285
-14.935517,-161.10222
-15.016618,-159.14288
-15.153473,-162.24661
-15.019362,-157.98334
-15.15729,-160.25943
-15.263442,-161.72603
-14.983501,-157.65582
-15.403936,-161.47688
-15.117494,-159.27176
-15.072215,-161.5732
-14.901499,-160.46367
-15.031767,-161.34874
-15.231306,-159.94617
-15.457515,-158.80464
-14.837853,-159.34578
-15.108122,-159.26907
-15.235416,-159.8559
-15.07445,-161.16676
-14.843634,-163.86357
-14.709476,-159.79224
-15.071247,-161.39577
-15.219258,-158.22467
-15.180441,-159.10715
-15.189029,-159.15338
-14.849145,-159.79253
-14.808047,-158.60664
-15.220846,-160.00522
-15.070566,-159.38535
-14.671288,-160.93481
-14.9784,-160.09009
-14.91409,-159.82669
-14.953863,-158.68588
-15.103518,-159.91353
-14.923252,-159.13843
-15.252607,-160.44713
-15.22685,-160.24248
-15.14262,-159.15916
-15.004101,-159.5135
-15.298736,-158.60434
-14.915163,-161.63557
-15.002591,-159.56639
-15.280478,-160.9832
-15.226868,-160.32928
-14.944123,-161.44576
-15.196428,-161.86307
-15.046844,-160.81328
-15.317013,-158.88142
-15.091297,-161.18918
-15.215334,-159.61676
-15.27837,-159.26701
-15.525886,-160.91197
-15.13462,-160.44685
-15.197196,-161.54971
-14.983387,-159.57481
-14.828679,-161.02142
-15.087504,-158.68501
-14.919229,-158.0927
-14.820989,-160.24571
-14.960591,-157.0148
-14.927303,-159.47008
-14.981045,-159.70554
-15.02485,-160.63577
-14.855866,-159.82062
-14.941293,-159.77087
-14.938801,-161.97841
-15.298278,-158.24146
-15.471827,-160.85403
-14.862298,-159.6823
-15.123544,-161.07367
-15.208372,-160.31282
-14.971201,-161.96928
-15.066596,-159.0896
-15.412569,-160.05464
-15.09226,-159.43736
-15.05592,-160.11032
-15.040695,-161.01152
-15.002141,-159.96402
-14.96736,-160.12611
-15.200432,-160.79694
-15.075096,-159.97925
-14.995955,-159.46269
-15.14625,-158.90309
-15.033928,-160.85158
-15.070175,-160.22151
-15.234579,-158.74071
-15.120056,-159.41759
-14.770178,-161.196
-14.883226,-158.32545
-15.193077,-159.82285
-14.950831,-160.96516
-14.797098,-159.82187
-15.045329,-160.48543
-15.181158,-161.45824
-15.080852,-158.44536
-15.260893,-160.26582
-14.833652,-160.11694
-15.165592,-160.13271
-14.900694,-160.58978
-15.271458,-158.94272
-15.139104,-160.01268
-15.208685,-159.61923
-15.192546,-158.83673
-15.050528,-159.70622
-15.025877,-159.35193
-15.159508,-160.71642
-15.093286,-158.06995
-15.246253,-159.85378
-14.944282,-159.15094
-15.011836,-159.8584
-15.165228,-160.24809
-15.333322,-159.48224
-14.953554,-161.39471
-15.064476,-160.98013
-15.038021,-157.41949
-15.023593,-161.49673
-14.898791,-160.65076
-15.082825,-161.2617
-15.036155,-159.69687
-15.010703,-160.24754
-15.32997,-161.55994
