CITIFILE A.01.01
!Agilent Technologies,N5230C,MY48100142,A.08.04.10
!Agilent N5230C: A.08.04.10
!Format: LogMag/Angle
!Date: Friday, February 14, 2020 10:46:55
NAME CH1_DATA
VAR Power MAG 801
DATA S11 DBANGLE
DATA S21 DBANGLE
DATA S12 DBANGLE
DATA S22 DBANGLE
VAR_LIST_BEGIN
-40
-39.975
-39.95
-39.925
-39.9
-39.875
-39.85
-39.825
-39.8
-39.775
-39.75
-39.725
-39.7
-39.675
-39.65
-39.625
-39.6
-39.575
-39.55
-39.525
-39.5
-39.475
-39.45
-39.425
-39.4
-39.375
-39.35
-39.325
-39.3
-39.275
-39.25
-39.225
-39.2
-39.175
-39.15
-39.125
-39.1
-39.075
-39.05
-39.025
-39
-38.975
-38.95
-38.925
-38.9
-38.875
-38.85
-38.825
-38.8
-38.775
-38.75
-38.725
-38.7
-38.675
-38.65
-38.625
-38.6
-38.575
-38.55
-38.525
-38.5
-38.475
-38.45
-38.425
-38.4
-38.375
-38.35
-38.325
-38.3
-38.275
-38.25
-38.225
-38.2
-38.175
-38.15
-38.125
-38.1
-38.075
-38.05
-38.025
-38
-37.975
-37.95
-37.925
-37.9
-37.875
-37.85
-37.825
-37.8
-37.775
-37.75
-37.725
-37.7
-37.675
-37.65
-37.625
-37.6
-37.575
-37.55
-37.525
-37.5
-37.475
-37.45
-37.425
-37.4
-37.375
-37.35
-37.325
-37.3
-37.275
-37.25
-37.225
-37.2
-37.175
-37.15
-37.125
-37.1
-37.075
-37.05
-37.025
-37
-36.975
-36.95
-36.925
-36.9
-36.875
-36.85
-36.825
-36.8
-36.775
-36.75
-36.725
-36.7
-36.675
-36.65
-36.625
-36.6
-36.575
-36.55
-36.525
-36.5
-36.475
-36.45
-36.425
-36.4
-36.375
-36.35
-36.325
-36.3
-36.275
-36.25
-36.225
-36.2
-36.175
-36.15
-36.125
-36.1
-36.075
-36.05
-36.025
-36
-35.975
-35.95
-35.925
-35.9
-35.875
-35.85
-35.825
-35.8
-35.775
-35.75
-35.725
-35.7
-35.675
-35.65
-35.625
-35.6
-35.575
-35.55
-35.525
-35.5
-35.475
-35.45
-35.425
-35.4
-35.375
-35.35
-35.325
-35.3
-35.275
-35.25
-35.225
-35.2
-35.175
-35.15
-35.125
-35.1
-35.075
-35.05
-35.025
-35
-34.975
-34.95
-34.925
-34.9
-34.875
-34.85
-34.825
-34.8
-34.775
-34.75
-34.725
-34.7
-34.675
-34.65
-34.625
-34.6
-34.575
-34.55
-34.525
-34.5
-34.475
-34.45
-34.425
-34.4
-34.375
-34.35
-34.325
-34.3
-34.275
-34.25
-34.225
-34.2
-34.175
-34.15
-34.125
-34.1
-34.075
-34.05
-34.025
-34
-33.975
-33.95
-33.925
-33.9
-33.875
-33.85
-33.825
-33.8
-33.775
-33.75
-33.725
-33.7
-33.675
-33.65
-33.625
-33.6
-33.575
-33.55
-33.525
-33.5
-33.475
-33.45
-33.425
-33.4
-33.375
-33.35
-33.325
-33.3
-33.275
-33.25
-33.225
-33.2
-33.175
-33.15
-33.125
-33.1
-33.075
-33.05
-33.025
-33
-32.975
-32.95
-32.925
-32.9
-32.875
-32.85
-32.825
-32.8
-32.775
-32.75
-32.725
-32.7
-32.675
-32.65
-32.625
-32.6
-32.575
-32.55
-32.525
-32.5
-32.475
-32.45
-32.425
-32.4
-32.375
-32.35
-32.325
-32.3
-32.275
-32.25
-32.225
-32.2
-32.175
-32.15
-32.125
-32.1
-32.075
-32.05
-32.025
-32
-31.975
-31.95
-31.925
-31.9
-31.875
-31.85
-31.825
-31.8
-31.775
-31.75
-31.725
-31.7
-31.675
-31.65
-31.625
-31.6
-31.575
-31.55
-31.525
-31.5
-31.475
-31.45
-31.425
-31.4
-31.375
-31.35
-31.325
-31.3
-31.275
-31.25
-31.225
-31.2
-31.175
-31.15
-31.125
-31.1
-31.075
-31.05
-31.025
-31
-30.975
-30.95
-30.925
-30.9
-30.875
-30.85
-30.825
-30.8
-30.775
-30.75
-30.725
-30.7
-30.675
-30.65
-30.625
-30.6
-30.575
-30.55
-30.525
-30.5
-30.475
-30.45
-30.425
-30.4
-30.375
-30.35
-30.325
-30.3
-30.275
-30.25
-30.225
-30.2
-30.175
-30.15
-30.125
-30.1
-30.075
-30.05
-30.025
-30
-29.975
-29.95
-29.925
-29.9
-29.875
-29.85
-29.825
-29.8
-29.775
-29.75
-29.725
-29.7
-29.675
-29.65
-29.625
-29.6
-29.575
-29.55
-29.525
-29.5
-29.475
-29.45
-29.425
-29.4
-29.375
-29.35
-29.325
-29.3
-29.275
-29.25
-29.225
-29.2
-29.175
-29.15
-29.125
-29.1
-29.075
-29.05
-29.025
-29
-28.975
-28.95
-28.925
-28.9
-28.875
-28.85
-28.825
-28.8
-28.775
-28.75
-28.725
-28.7
-28.675
-28.65
-28.625
-28.6
-28.575
-28.55
-28.525
-28.5
-28.475
-28.45
-28.425
-28.4
-28.375
-28.35
-28.325
-28.3
-28.275
-28.25
-28.225
-28.2
-28.175
-28.15
-28.125
-28.1
-28.075
-28.05
-28.025
-28
-27.975
-27.95
-27.925
-27.9
-27.875
-27.85
-27.825
-27.8
-27.775
-27.75
-27.725
-27.7
-27.675
-27.65
-27.625
-27.6
-27.575
-27.55
-27.525
-27.5
-27.475
-27.45
-27.425
-27.4
-27.375
-27.35
-27.325
-27.3
-27.275
-27.25
-27.225
-27.2
-27.175
-27.15
-27.125
-27.1
-27.075
-27.05
-27.025
-27
-26.975
-26.95
-26.925
-26.9
-26.875
-26.85
-26.825
-26.8
-26.775
-26.75
-26.725
-26.7
-26.675
-26.65
-26.625
-26.6
-26.575
-26.55
-26.525
-26.5
-26.475
-26.45
-26.425
-26.4
-26.375
-26.35
-26.325
-26.3
-26.275
-26.25
-26.225
-26.2
-26.175
-26.15
-26.125
-26.1
-26.075
-26.05
-26.025
-26
-25.975
-25.95
-25.925
-25.9
-25.875
-25.85
-25.825
-25.8
-25.775
-25.75
-25.725
-25.7
-25.675
-25.65
-25.625
-25.6
-25.575
-25.55
-25.525
-25.5
-25.475
-25.45
-25.425
-25.4
-25.375
-25.35
-25.325
-25.3
-25.275
-25.25
-25.225
-25.2
-25.175
-25.15
-25.125
-25.1
-25.075
-25.05
-25.025
-25
-24.975
-24.95
-24.925
-24.9
-24.875
-24.85
-24.825
-24.8
-24.775
-24.75
-24.725
-24.7
-24.675
-24.65
-24.625
-24.6
-24.575
-24.55
-24.525
-24.5
-24.475
-24.45
-24.425
-24.4
-24.375
-24.35
-24.325
-24.3
-24.275
-24.25
-24.225
-24.2
-24.175
-24.15
-24.125
-24.1
-24.075
-24.05
-24.025
-24
-23.975
-23.95
-23.925
-23.9
-23.875
-23.85
-23.825
-23.8
-23.775
-23.75
-23.725
-23.7
-23.675
-23.65
-23.625
-23.6
-23.575
-23.55
-23.525
-23.5
-23.475
-23.45
-23.425
-23.4
-23.375
-23.35
-23.325
-23.3
-23.275
-23.25
-23.225
-23.2
-23.175
-23.15
-23.125
-23.1
-23.075
-23.05
-23.025
-23
-22.975
-22.95
-22.925
-22.9
-22.875
-22.85
-22.825
-22.8
-22.775
-22.75
-22.725
-22.7
-22.675
-22.65
-22.625
-22.6
-22.575
-22.55
-22.525
-22.5
-22.475
-22.45
-22.425
-22.4
-22.375
-22.35
-22.325
-22.3
-22.275
-22.25
-22.225
-22.2
-22.175
-22.15
-22.125
-22.1
-22.075
-22.05
-22.025
-22
-21.975
-21.95
-21.925
-21.9
-21.875
-21.85
-21.825
-21.8
-21.775
-21.75
-21.725
-21.7
-21.675
-21.65
-21.625
-21.6
-21.575
-21.55
-21.525
-21.5
-21.475
-21.45
-21.425
-21.4
-21.375
-21.35
-21.325
-21.3
-21.275
-21.25
-21.225
-21.2
-21.175
-21.15
-21.125
-21.1
-21.075
-21.05
-21.025
-21
-20.975
-20.95
-20.925
-20.9
-20.875
-20.85
-20.825
-20.8
-20.775
-20.75
-20.725
-20.7
-20.675
-20.65
-20.625
-20.6
-20.575
-20.55
-20.525
-20.5
-20.475
-20.45
-20.425
-20.4
-20.375
-20.35
-20.325
-20.3
-20.275
-20.25
-20.225
-20.2
-20.175
-20.15
-20.125
-20.1
-20.075
-20.05
-20.025
-20
VAR_LIST_END
BEGIN
-14.822585,-158.43562
-14.642501,-160.0145
-15.227117,-159.8898
-15.795581,-159.66246
-15.193169,-159.40565
-14.504666,-157.66574
-14.506894,-163.21434
-14.874775,-162.20174
-15.318594,-164.43243
-15.118189,-164.50676
-15.047783,-161.79181
-15.249257,-161.37228
-14.965961,-161.41521
-15.075858,-165.48657
-15.487759,-162.86726
-14.922978,-158.35605
-15.088369,-163.93779
-15.239274,-160.09689
-14.186666,-164.81821
-14.875597,-157.59067
-14.941035,-163.00842
-14.982157,-160.4901
-15.685654,-161.01672
-15.124276,-160.52556
-15.561069,-159.35425
-15.558271,-163.38606
-14.672843,-159.24762
-14.658997,-157.64584
-14.803477,-161.46817
-15.140854,-161.00978
-14.884786,-159.0498
-15.300693,-163.16647
-15.182386,-160.06012
-15.073794,-158.239
-15.240316,-161.59596
-14.87915,-161.71761
-15.061136,-159.43954
-15.089604,-161.22127
-14.7956,-162.88869
-14.701826,-161.28096
-15.428944,-159.9146
-14.765259,-158.22894
-15.367233,-160.3537
-15.225859,-160.76776
-14.957236,-162.35258
-15.412937,-164.24384
-15.240487,-161.89774
-15.143345,-164.53537
-14.525746,-159.01706
-15.499373,-156.74298
-14.908502,-163.58578
-14.819157,-161.89539
-15.084831,-158.97484
-15.149571,-158.27174
-15.016786,-163.21594
-14.762761,-161.21355
-14.847394,-162.23734
-15.046379,-160.93701
-15.408443,-163.97635
-15.041165,-158.38744
-14.614964,-161.90445
-14.500863,-161.35248
-15.464383,-162.3679
-14.954876,-162.25536
-15.146437,-162.99332
-15.210212,-160.3385
-14.378809,-158.87572
-14.911566,-160.59813
-14.975187,-162.75594
-14.728977,-162.97746
-14.852803,-159.07443
-14.747725,-160.78189
-14.82012,-160.99643
-15.074788,-158.66533
-14.929664,-158.06366
-15.275862,-161.41016
-15.070924,-161.91164
-15.643909,-158.08743
-15.110995,-162.43373
-15.346439,-162.96202
-15.274655,-162.92905
-15.335154,-161.23372
-15.569139,-160.58594
-15.077769,-160.00597
-14.925251,-158.1097
-15.430144,-158.58975
-14.375032,-159.32913
-15.170064,-162.45811
-15.301358,-160.96901
-15.278013,-161.13062
-15.516222,-161.00403
-14.715958,-161.4225
-15.554852,-158.89728
-15.160477,-159.81088
-14.575119,-159.51215
-14.38538,-162.92032
-15.090371,-163.15273
-15.531622,-162.8154
-15.149868,-160.07896
-14.93284,-161.86102
-14.945486,-158.38684
-14.819954,-162.4144
-15.193998,-160.41356
-14.818723,-163.48738
-14.680503,-159.25478
-15.311213,-163.3448
-15.159207,-160.72865
-14.884877,-160.23312
-15.060427,-163.23492
-14.818281,-160.23907
-14.696545,-159.43982
-14.957151,-161.00224
-15.032167,-163.03069
-15.097043,-157.05016
-15.158304,-161.83391
-15.03221,-160.68581
-15.286283,-164.82841
-15.459826,-159.63597
-15.639853,-162.48875
-14.961028,-159.65648
-15.181203,-160.54018
-14.954185,-160.5518
-15.068285,-160.75592
-15.07672,-158.20801
-15.338861,-164.1505
-15.178187,-159.95244
-15.207108,-159.07051
-15.00478,-159.17979
-14.772911,-160.72182
-14.963129,-161.96208
-15.217658,-161.08783
-16.095821,-159.38722
-15.299424,-158.69443
-14.886802,-159.50598
-15.233101,-162.68933
-14.939772,-160.83823
-14.799273,-157.86179
-15.323626,-158.93311
-15.118045,-162.60954
-15.253085,-160.02353
-15.256988,-159.93758
-15.303267,-162.84752
-14.81474,-162.49644
-14.8313,-161.01883
-15.329423,-161.88922
-15.241597,-161.16628
-14.709879,-160.39824
-14.864138,-164.30492
-15.244515,-158.97327
-15.070856,-162.35205
-14.674103,-160.69917
-14.632927,-160.91293
-14.846286,-160.74765
-15.187338,-159.95096
-15.316414,-161.4774
-15.241789,-162.54453
-15.199573,-160.17409
-15.166202,-159.18336
-15.263535,-161.63992
-14.861302,-158.89783
-14.672913,-161.02824
-15.272695,-161.50201
-15.299612,-161.81163
-15.008814,-160.84793
-15.174278,-165.41299
-14.724535,-163.39059
-15.537703,-160.75735
-15.03634,-160.8336
-15.362066,-163.5341
-14.807896,-158.73212
-14.618567,-160.52449
-14.744546,-162.14929
-14.401304,-159.89362
-15.454826,-161.8031
-14.659565,-162.20558
-15.102378,-160.86436
-15.184722,-162.4081
-14.948269,-162.00116
-15.433467,-161.50133
-14.971809,-163.81763
-14.980012,-160.21652
-15.202439,-160.94214
-15.078939,-162.68794
-14.826275,-163.65195
-15.26352,-162.5752
-15.028859,-162.16264
-14.961285,-160.98816
-15.342424,-159.48228
-14.885244,-159.03101
-14.966097,-159.25912
-15.359796,-160.94246
-14.998641,-160.60335
-14.941054,-163.3699
-15.305379,-163.68192
-15.180076,-158.10573
-14.7952,-160.38873
-15.217692,-161.19182
-15.449567,-160.57941
-15.302345,-163.10847
-15.028432,-164.16573
-15.176297,-163.07428
-15.05948,-161.5278
-15.170129,-160.36295
-15.298466,-159.19583
-14.897668,-161.9809
-15.180421,-158.6891
-14.790648,-160.24846
-14.93614,-161.04646
-14.917022,-161.49738
-14.699805,-160.16251
-15.107879,-161.55447
-15.035133,-161.74011
-14.85236,-161.14055
-15.342312,-162.07387
-14.988067,-162.18466
-14.952592,-161.79558
-14.852788,-162.1701
-14.970649,-158.69678
-15.25241,-159.98151
-15.169547,-162.51752
-15.262459,-161.87662
-15.259033,-160.99841
-15.180127,-161.82719
-14.842733,-160.44449
-15.028528,-159.52275
-14.769788,-159.08159
-15.356433,-160.21072
-14.849676,-161.42538
-14.905062,-163.25433
-14.917616,-164.00465
-14.942119,-162.26521
-14.865262,-163.00476
-14.626744,-160.20528
-15.382428,-160.83382
-15.173086,-158.93657
-15.287728,-162.40306
-14.893677,-162.01495
-14.914622,-163.10674
-14.931715,-159.77704
-15.178316,-160.42677
-15.093753,-161.0022
-14.903327,-160.98067
-15.233995,-161.03169
-15.223211,-162.54128
-14.920177,-158.92
-15.215939,-159.14905
-14.953552,-158.71819
-14.511582,-163.14798
-15.145021,-160.41643
-15.553169,-160.6926
-15.021984,-160.11336
-15.327237,-162.46678
-14.871772,-160.22423
-15.251344,-162.12936
-15.138373,-162.56471
-15.1192,-162.19971
-15.431603,-159.98325
-15.235873,-161.73093
-14.904893,-161.62698
-14.986608,-159.98982
-14.852916,-161.80647
-15.054461,-160.96416
-14.828916,-161.24684
-15.083589,-162.06564
-14.911449,-161.74541
-14.978614,-159.67685
-15.224779,-160.7765
-14.667644,-158.91388
-14.936341,-163.71382
-15.033111,-160.87039
-15.044522,-159.67882
-14.960851,-158.71225
-15.248485,-160.44136
-14.993614,-160.76709
-15.118645,-160.76767
-15.213253,-161.84094
-15.445392,-161.06889
-15.047327,-159.38794
-15.493524,-159.96967
-15.090487,-161.58014
-14.98103,-161.7634
-15.038315,-164.53592
-15.174947,-162.00343
-15.110793,-162.0665
-14.670665,-161.13795
-15.208484,-159.87843
-15.432674,-160.27432
-15.126455,-161.81755
-14.916562,-160.48392
-15.152895,-161.51103
-14.850295,-161.12776
-15.02871,-162.7469
-15.142509,-159.1581
-15.061878,-162.32573
-14.967566,-160.21095
-15.110153,-160.20033
-14.990657,-161.6498
-14.990855,-160.50536
-14.905662,-160.08649
-15.068014,-159.42694
-15.27195,-160.29019
-15.199168,-160.19026
-14.908332,-163.04356
-14.933659,-162.34364
-15.28661,-162.35594
-14.959307,-160.96976
-15.16859,-161.27354
-15.02481,-158.67871
-15.184558,-162.38234
-14.976651,-160.42365
-14.702878,-161.9991
-15.335535,-161.7382
-15.138358,-161.64275
-15.027447,-163.1813
-15.039692,-161.88374
-14.914624,-160.72676
-14.976521,-161.49681
-14.860492,-160.76677
-15.483862,-160.47171
-15.307202,-161.90575
-15.193898,-159.778
-15.038334,-161.73033
-15.346784,-160.9366
-14.837842,-161.25555
-14.851967,-161.30728
-14.881401,-161.81102
-15.057465,-161.50166
-14.841348,-162.06131
-15.473833,-160.60251
-15.036126,-161.1264
-14.84077,-160.33617
-15.114617,-163.19145
-15.293743,-160.5968
-15.108565,-161.62131
-15.214432,-163.28494
-14.962323,-161.93721
-14.901772,-161.11627
-15.673619,-160.16173
-15.131747,-161.03641
-14.893119,-160.35391
-14.991248,-161.5782
-15.064541,-160.06795
-14.798749,-161.91095
-15.252566,-160.67989
-15.016997,-162.62709
-15.00726,-161.41507
-15.138561,-162.59695
-15.039553,-162.20261
-14.947932,-158.81949
-15.160368,-161.26932
-14.91573,-161.67168
-15.218042,-160.88147
-15.167392,-161.08334
-15.121118,-162.40292
-15.114955,-161.89536
-14.870209,-161.79248
-15.00242,-161.34877
-15.156628,-161.31401
-15.027682,-161.70515
-14.877269,-161.50084
-15.100931,-160.22766
-14.931802,-160.46526
-15.129854,-161.95378
-14.694619,-160.35335
-15.030869,-161.20029
-14.939081,-160.99101
-15.08753,-160.09152
-15.139077,-161.42596
-14.845152,-162.12619
-14.927128,-161.15022
-14.988422,-162.08395
-15.147064,-162.53329
-14.773245,-160.38977
-15.027663,-160.41154
-14.89729,-161.07823
-14.913126,-161.31134
-15.316521,-161.19937
-14.923507,-161.16307
-14.582159,-161.89127
-15.253475,-161.34517
-15.105431,-161.67419
-14.959954,-161.13704
-15.133867,-161.91849
-14.922997,-162.35805
-15.01868,-160.50975
-15.003655,-161.78613
-15.483958,-161.78337
-14.9985,-160.56046
-15.041093,-161.37874
-15.100099,-159.49579
-15.163713,-160.47885
-14.982038,-162.36159
-15.101073,-159.72804
-15.026641,-161.66309
-15.139061,-161.67444
-14.899939,-160.59233
-14.963196,-160.96033
-14.935339,-160.75586
-15.013499,-160.76172
-15.099361,-160.23506
-15.121395,-160.3737
-14.876325,-161.38062
-15.244028,-161.3223
-15.013115,-161.65553
-15.06939,-160.99454
-15.172654,-161.63583
-15.215006,-160.8423
-14.995108,-159.0282
-15.224274,-160.62286
-15.071535,-161.87004
-15.227544,-159.20685
-15.268809,-161.63924
-15.181823,-161.90585
-15.319096,-161.76198
-14.972878,-161.09457
-14.939044,-160.13322
-15.222776,-161.4819
-14.98872,-161.2991
-15.077362,-159.53178
-15.019087,-159.35371
-15.065972,-161.18852
-15.044909,-160.22334
-15.034506,-161.2395
-15.170438,-161.57159
-15.122063,-161.28107
-14.871264,-161.51189
-15.051029,-161.15904
-15.058812,-160.68558
-15.048149,-160.91759
-15.152099,-161.46991
-15.070775,-161.14066
-15.073839,-161.69794
-14.942405,-161.85873
-14.883788,-160.45314
-15.118254,-162.42207
-15.09451,-161.79277
-15.059316,-161.74889
-14.957357,-160.54375
-15.105779,-161.84891
-15.216405,-161.64041
-15.157856,-160.28741
-15.019851,-160.71948
-14.891088,-161.40054
-14.850837,-160.70508
-15.00323,-161.12907
-15.126518,-160.62393
-14.88385,-161.68289
-15.292691,-161.95996
-14.963903,-160.21733
-15.010376,-161.681
-15.073594,-161.55153
-14.956104,-160.61935
-15.185689,-160.15326
-14.871039,-161.38919
-14.831309,-159.99023
-15.038573,-160.39253
-14.896846,-160.47646
-15.060248,-161.34676
-15.135196,-161.19875
-15.168782,-161.13614
-15.083225,-161.02621
-15.042433,-160.05449
-15.133925,-161.17358
-15.187129,-159.90652
-15.137573,-160.66547
-15.119496,-160.83017
-14.965249,-160.54103
-15.140091,-160.4836
-15.151437,-161.71564
-15.040747,-160.81055
-15.101,-160.51877
-15.074051,-161.13658
-15.065718,-161.68398
-14.977902,-160.59811
-14.880232,-160.31601
-15.086913,-160.95154
-15.132842,-160.68796
-15.041498,-161.36685
-15.138986,-160.424
-15.088633,-160.94673
-15.140831,-161.83777
-15.234127,-160.01753
-15.055498,-160.96393
-15.07178,-161.12439
-15.036048,-161.40059
-15.005378,-161.85382
-15.112092,-159.9155
-15.03799,-161.10081
-15.086992,-159.74214
-15.112083,-160.33289
-15.068634,-161.26935
-15.056854,-160.86957
-15.03476,-161.04482
-15.106113,-160.0623
-15.045335,-160.91862
-15.162595,-162.21803
-15.047423,-160.1895
-15.038132,-160.01331
-15.071124,-161.34914
-14.950454,-161.50015
-15.034713,-161.30762
-15.159978,-161.34364
-15.1129,-162.05186
-14.969579,-161.50906
-15.062344,-161.57954
-15.077502,-162.29349
-15.09584,-161.65005
-15.050057,-161.47559
-14.96483,-160.87804
-15.160054,-160.38614
-15.18727,-161.50682
-15.066483,-161.94901
-14.916879,-162.00002
-15.15054,-161.95624
-15.184824,-160.76337
-15.184013,-161.12212
-15.026516,-160.38628
-15.106057,-161.78171
-15.198702,-160.30353
-14.945159,-161.12177
-15.054815,-161.7616
-15.07198,-160.89223
-14.982159,-161.46172
-15.095274,-161.09767
-15.025597,-160.75145
-15.048191,-160.90453
-14.971905,-160.87988
-15.240276,-160.78452
-15.117872,-161.61302
-14.971395,-160.99396
-15.004808,-161.38049
-15.073212,-161.50238
-15.072333,-159.99077
-15.082921,-161.35487
-15.064673,-161.89517
-14.869178,-160.69441
-14.96911,-160.79597
-15.158119,-161.29372
-15.068567,-161.99951
-15.085669,-160.19852
-14.907061,-161.88986
-15.021075,-161.14764
-15.148499,-161.32278
-15.036494,-159.99408
-15.09644,-161.41884
-15.11388,-161.18066
-14.895961,-161.10817
-14.969448,-160.62529
-15.133512,-160.19197
-15.155561,-160.81744
-15.020747,-160.8687
-15.240505,-160.5602
-15.013983,-161.1891
-15.190673,-161.69034
-15.116656,-160.61737
-14.937901,-160.89351
-15.064647,-161.25525
-15.119756,-161.0954
-15.174554,-160.42627
-15.09659,-161.96182
-14.999517,-160.55499
-15.105816,-162.14638
-15.021628,-161.39864
-15.001685,-161.21194
-14.853464,-161.74016
-15.043406,-161.33917
-15.153804,-160.95772
-15.011892,-160.56731
-15.024751,-161.11816
-15.038837,-161.59921
-14.910913,-161.61292
-15.004388,-161.35486
-15.114388,-160.8799
-14.977342,-161.9975
-15.053161,-160.94832
-15.126278,-161.3457
