CITIFILE A.01.01
!Agilent Technologies,N5230C,MY48100142,A.08.04.10
!Agilent N5230C: A.08.04.10
!Format: LogMag/Angle
!Date: Friday, February 14, 2020 10:50:05
NAME CH1_DATA
VAR Power MAG 801
DATA S11 DBANGLE
DATA S21 DBANGLE
DATA S12 DBANGLE
DATA S22 DBANGLE
VAR_LIST_BEGIN
-40
-39.975
-39.95
-39.925
-39.9
-39.875
-39.85
-39.825
-39.8
-39.775
-39.75
-39.725
-39.7
-39.675
-39.65
-39.625
-39.6
-39.575
-39.55
-39.525
-39.5
-39.475
-39.45
-39.425
-39.4
-39.375
-39.35
-39.325
-39.3
-39.275
-39.25
-39.225
-39.2
-39.175
-39.15
-39.125
-39.1
-39.075
-39.05
-39.025
-39
-38.975
-38.95
-38.925
-38.9
-38.875
-38.85
-38.825
-38.8
-38.775
-38.75
-38.725
-38.7
-38.675
-38.65
-38.625
-38.6
-38.575
-38.55
-38.525
-38.5
-38.475
-38.45
-38.425
-38.4
-38.375
-38.35
-38.325
-38.3
-38.275
-38.25
-38.225
-38.2
-38.175
-38.15
-38.125
-38.1
-38.075
-38.05
-38.025
-38
-37.975
-37.95
-37.925
-37.9
-37.875
-37.85
-37.825
-37.8
-37.775
-37.75
-37.725
-37.7
-37.675
-37.65
-37.625
-37.6
-37.575
-37.55
-37.525
-37.5
-37.475
-37.45
-37.425
-37.4
-37.375
-37.35
-37.325
-37.3
-37.275
-37.25
-37.225
-37.2
-37.175
-37.15
-37.125
-37.1
-37.075
-37.05
-37.025
-37
-36.975
-36.95
-36.925
-36.9
-36.875
-36.85
-36.825
-36.8
-36.775
-36.75
-36.725
-36.7
-36.675
-36.65
-36.625
-36.6
-36.575
-36.55
-36.525
-36.5
-36.475
-36.45
-36.425
-36.4
-36.375
-36.35
-36.325
-36.3
-36.275
-36.25
-36.225
-36.2
-36.175
-36.15
-36.125
-36.1
-36.075
-36.05
-36.025
-36
-35.975
-35.95
-35.925
-35.9
-35.875
-35.85
-35.825
-35.8
-35.775
-35.75
-35.725
-35.7
-35.675
-35.65
-35.625
-35.6
-35.575
-35.55
-35.525
-35.5
-35.475
-35.45
-35.425
-35.4
-35.375
-35.35
-35.325
-35.3
-35.275
-35.25
-35.225
-35.2
-35.175
-35.15
-35.125
-35.1
-35.075
-35.05
-35.025
-35
-34.975
-34.95
-34.925
-34.9
-34.875
-34.85
-34.825
-34.8
-34.775
-34.75
-34.725
-34.7
-34.675
-34.65
-34.625
-34.6
-34.575
-34.55
-34.525
-34.5
-34.475
-34.45
-34.425
-34.4
-34.375
-34.35
-34.325
-34.3
-34.275
-34.25
-34.225
-34.2
-34.175
-34.15
-34.125
-34.1
-34.075
-34.05
-34.025
-34
-33.975
-33.95
-33.925
-33.9
-33.875
-33.85
-33.825
-33.8
-33.775
-33.75
-33.725
-33.7
-33.675
-33.65
-33.625
-33.6
-33.575
-33.55
-33.525
-33.5
-33.475
-33.45
-33.425
-33.4
-33.375
-33.35
-33.325
-33.3
-33.275
-33.25
-33.225
-33.2
-33.175
-33.15
-33.125
-33.1
-33.075
-33.05
-33.025
-33
-32.975
-32.95
-32.925
-32.9
-32.875
-32.85
-32.825
-32.8
-32.775
-32.75
-32.725
-32.7
-32.675
-32.65
-32.625
-32.6
-32.575
-32.55
-32.525
-32.5
-32.475
-32.45
-32.425
-32.4
-32.375
-32.35
-32.325
-32.3
-32.275
-32.25
-32.225
-32.2
-32.175
-32.15
-32.125
-32.1
-32.075
-32.05
-32.025
-32
-31.975
-31.95
-31.925
-31.9
-31.875
-31.85
-31.825
-31.8
-31.775
-31.75
-31.725
-31.7
-31.675
-31.65
-31.625
-31.6
-31.575
-31.55
-31.525
-31.5
-31.475
-31.45
-31.425
-31.4
-31.375
-31.35
-31.325
-31.3
-31.275
-31.25
-31.225
-31.2
-31.175
-31.15
-31.125
-31.1
-31.075
-31.05
-31.025
-31
-30.975
-30.95
-30.925
-30.9
-30.875
-30.85
-30.825
-30.8
-30.775
-30.75
-30.725
-30.7
-30.675
-30.65
-30.625
-30.6
-30.575
-30.55
-30.525
-30.5
-30.475
-30.45
-30.425
-30.4
-30.375
-30.35
-30.325
-30.3
-30.275
-30.25
-30.225
-30.2
-30.175
-30.15
-30.125
-30.1
-30.075
-30.05
-30.025
-30
-29.975
-29.95
-29.925
-29.9
-29.875
-29.85
-29.825
-29.8
-29.775
-29.75
-29.725
-29.7
-29.675
-29.65
-29.625
-29.6
-29.575
-29.55
-29.525
-29.5
-29.475
-29.45
-29.425
-29.4
-29.375
-29.35
-29.325
-29.3
-29.275
-29.25
-29.225
-29.2
-29.175
-29.15
-29.125
-29.1
-29.075
-29.05
-29.025
-29
-28.975
-28.95
-28.925
-28.9
-28.875
-28.85
-28.825
-28.8
-28.775
-28.75
-28.725
-28.7
-28.675
-28.65
-28.625
-28.6
-28.575
-28.55
-28.525
-28.5
-28.475
-28.45
-28.425
-28.4
-28.375
-28.35
-28.325
-28.3
-28.275
-28.25
-28.225
-28.2
-28.175
-28.15
-28.125
-28.1
-28.075
-28.05
-28.025
-28
-27.975
-27.95
-27.925
-27.9
-27.875
-27.85
-27.825
-27.8
-27.775
-27.75
-27.725
-27.7
-27.675
-27.65
-27.625
-27.6
-27.575
-27.55
-27.525
-27.5
-27.475
-27.45
-27.425
-27.4
-27.375
-27.35
-27.325
-27.3
-27.275
-27.25
-27.225
-27.2
-27.175
-27.15
-27.125
-27.1
-27.075
-27.05
-27.025
-27
-26.975
-26.95
-26.925
-26.9
-26.875
-26.85
-26.825
-26.8
-26.775
-26.75
-26.725
-26.7
-26.675
-26.65
-26.625
-26.6
-26.575
-26.55
-26.525
-26.5
-26.475
-26.45
-26.425
-26.4
-26.375
-26.35
-26.325
-26.3
-26.275
-26.25
-26.225
-26.2
-26.175
-26.15
-26.125
-26.1
-26.075
-26.05
-26.025
-26
-25.975
-25.95
-25.925
-25.9
-25.875
-25.85
-25.825
-25.8
-25.775
-25.75
-25.725
-25.7
-25.675
-25.65
-25.625
-25.6
-25.575
-25.55
-25.525
-25.5
-25.475
-25.45
-25.425
-25.4
-25.375
-25.35
-25.325
-25.3
-25.275
-25.25
-25.225
-25.2
-25.175
-25.15
-25.125
-25.1
-25.075
-25.05
-25.025
-25
-24.975
-24.95
-24.925
-24.9
-24.875
-24.85
-24.825
-24.8
-24.775
-24.75
-24.725
-24.7
-24.675
-24.65
-24.625
-24.6
-24.575
-24.55
-24.525
-24.5
-24.475
-24.45
-24.425
-24.4
-24.375
-24.35
-24.325
-24.3
-24.275
-24.25
-24.225
-24.2
-24.175
-24.15
-24.125
-24.1
-24.075
-24.05
-24.025
-24
-23.975
-23.95
-23.925
-23.9
-23.875
-23.85
-23.825
-23.8
-23.775
-23.75
-23.725
-23.7
-23.675
-23.65
-23.625
-23.6
-23.575
-23.55
-23.525
-23.5
-23.475
-23.45
-23.425
-23.4
-23.375
-23.35
-23.325
-23.3
-23.275
-23.25
-23.225
-23.2
-23.175
-23.15
-23.125
-23.1
-23.075
-23.05
-23.025
-23
-22.975
-22.95
-22.925
-22.9
-22.875
-22.85
-22.825
-22.8
-22.775
-22.75
-22.725
-22.7
-22.675
-22.65
-22.625
-22.6
-22.575
-22.55
-22.525
-22.5
-22.475
-22.45
-22.425
-22.4
-22.375
-22.35
-22.325
-22.3
-22.275
-22.25
-22.225
-22.2
-22.175
-22.15
-22.125
-22.1
-22.075
-22.05
-22.025
-22
-21.975
-21.95
-21.925
-21.9
-21.875
-21.85
-21.825
-21.8
-21.775
-21.75
-21.725
-21.7
-21.675
-21.65
-21.625
-21.6
-21.575
-21.55
-21.525
-21.5
-21.475
-21.45
-21.425
-21.4
-21.375
-21.35
-21.325
-21.3
-21.275
-21.25
-21.225
-21.2
-21.175
-21.15
-21.125
-21.1
-21.075
-21.05
-21.025
-21
-20.975
-20.95
-20.925
-20.9
-20.875
-20.85
-20.825
-20.8
-20.775
-20.75
-20.725
-20.7
-20.675
-20.65
-20.625
-20.6
-20.575
-20.55
-20.525
-20.5
-20.475
-20.45
-20.425
-20.4
-20.375
-20.35
-20.325
-20.3
-20.275
-20.25
-20.225
-20.2
-20.175
-20.15
-20.125
-20.1
-20.075
-20.05
-20.025
-20
VAR_LIST_END
BEGIN
-14.060203,-159.92142
-14.405087,-170.15514
-15.208109,-162.09341
-14.820608,-155.52074
-14.586727,-163.55893
-15.686678,-162.84871
-14.580067,-163.3602
-14.647233,-157.66885
-15.000421,-161.55011
-13.982742,-157.73331
-15.2495,-155.37926
-15.277699,-156.09975
-13.966558,-164.36809
-14.431873,-161.05722
-16.159712,-157.03841
-15.535114,-165.07986
-17.598543,-145.45743
-16.132086,-168.2467
-15.345242,-165.20926
-15.221771,-154.53735
-14.608777,-166.68559
-14.382636,-163.43388
-14.477801,-163.1987
-14.925694,-171.07765
-16.527037,-159.36053
-14.990721,-156.07278
-15.840751,-166.159
-14.973196,-156.61787
-15.410154,-161.55573
-14.587421,-166.85115
-14.829384,-163.49344
-16.150003,-158.77687
-15.582178,-158.91338
-14.25095,-157.93729
-14.735632,-157.91904
-15.352943,-163.69058
-15.747038,-161.18033
-16.100945,-159.76257
-16.396542,-153.34621
-15.678443,-167.83672
-15.40209,-157.08076
-14.979504,-156.64328
-15.138051,-156.63803
-15.054399,-158.58429
-16.684175,-158.32147
-14.719627,-158.75691
-15.294086,-162.04953
-16.024773,-162.78041
-15.86227,-162.24365
-15.168152,-158.90094
-15.550081,-159.03745
-14.761345,-155.28435
-16.47802,-162.68509
-15.37832,-166.72273
-14.785196,-161.17606
-14.574059,-166.51302
-13.866028,-163.2025
-15.464563,-158.55853
-16.197887,-160.1167
-15.077666,-159.7187
-14.788835,-162.35938
-14.828943,-162.52058
-15.466836,-166.33867
-14.478048,-150.0451
-13.915025,-162.66779
-14.794692,-157.96683
-14.805141,-161.65579
-14.991568,-165.27533
-14.430714,-161.78276
-15.258561,-166.13751
-14.053186,-162.48875
-16.557537,-161.68968
-15.313458,-161.23427
-15.473397,-162.49658
-15.817252,-159.47957
-15.739287,-162.94719
-15.023571,-159.18562
-15.968699,-161.68784
-15.90739,-162.60388
-14.963984,-160.26175
-15.798945,-164.67448
-15.020824,-159.83716
-14.534849,-159.26564
-14.855858,-158.45973
-14.156865,-164.20432
-16.446981,-161.70158
-14.569255,-162.33621
-14.739234,-166.09293
-14.853024,-160.38225
-15.58474,-161.72221
-15.604059,-161.4109
-14.947471,-162.28325
-14.900329,-158.0152
-13.741817,-162.05913
-14.963511,-159.83005
-14.093894,-161.06131
-15.374447,-163.32806
-15.333516,-159.18906
-15.142839,-157.07121
-16.042665,-160.10931
-15.588006,-156.85635
-15.551234,-161.43475
-14.208602,-154.88347
-14.866189,-159.66937
-15.093822,-163.80536
-14.804069,-158.68799
-14.759748,-158.86346
-15.270031,-163.77188
-15.233274,-157.86581
-15.802929,-166.93272
-15.311325,-157.73956
-14.801753,-160.65462
-14.490947,-160.63298
-15.177512,-155.02449
-14.973906,-160.69653
-15.32683,-164.32703
-14.766122,-161.32671
-15.207361,-162.80188
-14.784554,-149.95715
-14.502437,-162.18954
-15.297338,-165.24799
-15.664119,-161.48468
-14.917061,-165.41675
-14.939264,-166.60269
-15.34921,-159.88191
-15.932425,-165.56519
-15.251285,-160.5394
-15.0162,-162.02908
-15.330485,-158.01198
-14.860281,-164.05792
-14.724793,-156.27977
-15.343467,-158.66286
-15.393975,-161.52538
-15.789028,-170.11813
-14.582672,-157.90182
-15.314767,-155.25369
-15.836376,-159.47
-14.825634,-159.39183
-15.32335,-161.6006
-14.734791,-158.40843
-14.487267,-164.23428
-14.705352,-162.68936
-15.494258,-167.58643
-15.25226,-159.93312
-15.693181,-160.33626
-15.268322,-158.44386
-15.313886,-165.22914
-15.143279,-158.28491
-14.818359,-158.57825
-15.534927,-160.43423
-15.493797,-165.66704
-14.370508,-156.28427
-14.801453,-161.23308
-15.699225,-163.90623
-15.289675,-158.81323
-14.239642,-164.19569
-15.410986,-159.09859
-15.572835,-156.87083
-15.762772,-158.8418
-14.293637,-160.00139
-15.777852,-163.26715
-14.418198,-166.47884
-15.565652,-162.97646
-14.703773,-163.9919
-14.834916,-161.26691
-14.742097,-161.51588
-14.821919,-162.91841
-15.568254,-160.91423
-15.602415,-161.76131
-15.291655,-162.89622
-14.230396,-161.49353
-14.926343,-163.81407
-15.367077,-164.70605
-15.076766,-162.57489
-15.350883,-161.56598
-15.16979,-161.4523
-14.750092,-163.20593
-15.184557,-160.4268
-14.900067,-154.28984
-15.097647,-161.05351
-15.211502,-163.0811
-15.22506,-163.05553
-15.392846,-165.59843
-15.243347,-158.35808
-16.10075,-164.76469
-15.516827,-156.79953
-14.802147,-163.46138
-15.624906,-162.94739
-14.957485,-164.19147
-15.914649,-158.75166
-15.172227,-164.83971
-15.066167,-163.62186
-14.578629,-162.0573
-15.305668,-158.78949
-14.777196,-164.65854
-16.046034,-163.935
-15.308426,-160.44353
-15.583971,-162.43048
-15.191176,-158.11472
-15.071379,-161.82664
-15.314653,-160.84251
-15.359794,-164.71637
-14.628001,-158.51033
-14.911957,-158.09496
-15.153116,-161.51263
-15.474964,-161.38712
-14.945505,-162.37408
-14.851852,-163.6736
-15.060255,-157.54472
-14.960729,-164.62782
-14.533011,-156.29718
-15.217729,-157.59277
-14.696612,-157.89073
-14.981216,-156.84126
-15.736268,-164.03688
-15.029942,-161.71535
-15.067821,-161.63779
-14.853327,-159.78464
-14.922815,-159.74393
-15.805242,-155.33652
-15.041484,-161.72751
-14.996523,-160.85788
-14.523324,-162.81876
-14.696242,-167.67413
-15.500173,-157.60304
-15.204481,-166.04982
-15.611297,-160.82033
-14.288953,-159.58916
-15.393152,-159.86481
-15.456065,-159.61095
-14.918878,-161.99161
-14.723869,-160.5542
-15.157691,-160.97418
-15.518622,-162.11391
-14.855252,-162.55048
-15.055295,-160.12167
-14.625786,-163.36153
-15.688229,-165.27095
-14.561277,-161.87608
-14.852142,-160.84793
-15.428226,-156.37444
-14.540506,-161.81741
-14.793726,-158.44839
-15.484767,-161.20087
-15.154545,-161.45026
-14.676152,-163.09357
-15.151221,-159.0092
-15.115099,-161.77983
-14.613255,-161.28722
-15.236218,-157.54137
-14.969125,-159.88506
-15.268343,-161.13379
-15.284059,-162.28154
-15.168939,-160.61333
-15.393056,-163.74828
-14.968622,-156.39574
-14.890286,-161.07468
-15.384733,-161.12415
-14.971441,-159.20992
-15.141182,-158.96254
-15.465653,-161.10309
-14.733237,-163.98946
-15.403758,-161.80365
-14.815696,-162.87772
-15.087811,-167.22227
-14.941625,-162.56619
-15.246637,-158.99205
-14.616333,-160.302
-14.759799,-157.86259
-15.260092,-163.10936
-15.487185,-159.60606
-14.633537,-162.20784
-15.214532,-159.49812
-14.234704,-159.09479
-14.61359,-156.75241
-14.727228,-161.53674
-14.884613,-163.47359
-14.57511,-161.14876
-15.308391,-157.85452
-14.778172,-158.88786
-15.237806,-160.94943
-15.230734,-161.87508
-15.409624,-159.1214
-15.733857,-161.79163
-15.030477,-158.2699
-15.593204,-165.55685
-15.236653,-160.72673
-15.135611,-162.8434
-15.722822,-163.32512
-14.75237,-164.03639
-15.061641,-158.37772
-15.09349,-158.53021
-14.641908,-158.9122
-14.682617,-163.97313
-14.511204,-160.66183
-15.465918,-163.49344
-15.035248,-161.43321
-15.291079,-164.3035
-15.369898,-162.89067
-15.215005,-163.3709
-15.452059,-159.15216
-14.7982,-160.76735
-14.482875,-161.95618
-14.746475,-161.5833
-14.960085,-158.30215
-14.657902,-162.48637
-14.769091,-160.29611
-15.089635,-162.98813
-15.194169,-164.88101
-15.492119,-160.05597
-15.365415,-166.18456
-14.664313,-161.38231
-14.653491,-163.89249
-15.192768,-159.41765
-15.162212,-155.54744
-15.027427,-160.54762
-15.110683,-158.34808
-14.962298,-159.79521
-14.687286,-159.43301
-14.728682,-160.282
-15.009169,-163.62674
-15.353114,-163.20862
-14.601061,-162.17612
-15.186724,-158.43753
-15.002391,-160.22531
-15.000253,-160.43182
-14.67674,-161.49135
-15.039563,-163.1572
-15.724363,-163.46646
-14.906731,-161.31252
-15.102867,-157.35934
-14.906661,-161.03149
-14.757864,-161.23026
-15.371861,-163.11906
-15.48411,-161.37244
-14.871309,-158.90585
-14.747255,-160.57695
-15.208858,-162.05554
-15.258277,-162.11774
-15.113692,-161.62975
-15.398143,-163.68867
-15.187864,-162.85481
-14.747315,-162.74146
-15.378037,-159.19957
-15.056011,-163.16896
-15.354858,-159.50418
-15.007119,-160.62024
-15.128001,-159.8152
-15.064098,-160.05846
-15.420289,-163.15453
-15.067228,-160.40819
-15.330949,-160.58813
-15.082692,-162.80167
-15.272603,-160.09009
-15.108912,-158.25569
-15.402678,-160.3284
-14.750159,-161.72049
-15.31826,-160.82315
-14.935369,-163.50139
-15.280864,-160.52542
-15.278442,-161.38823
-14.818976,-159.23262
-15.186558,-161.45546
-14.773882,-164.06566
-14.773613,-159.75311
-15.290812,-158.34293
-14.895505,-163.73624
-14.828124,-159.68845
-14.996642,-160.68442
-14.730304,-158.01796
-15.356601,-161.09935
-14.850004,-162.92116
-15.05904,-160.42236
-14.854074,-161.39919
-14.838786,-161.53191
-14.752515,-158.85081
-15.137889,-161.142
-14.700717,-157.65262
-15.217843,-158.38675
-15.396373,-160.33078
-15.028399,-159.16063
-15.362384,-163.60272
-14.651402,-159.84866
-15.067719,-158.25142
-14.810055,-160.65547
-14.894005,-160.14018
-15.136973,-163.01945
-14.763158,-159.32208
-14.912412,-160.53865
-14.84244,-165.0585
-15.188601,-162.74934
-15.011138,-162.61957
-15.405647,-160.05089
-15.319533,-161.66974
-14.718628,-158.53572
-14.867804,-160.55878
-15.153762,-158.96495
-15.20573,-162.43489
-15.210744,-162.84573
-15.387855,-159.44048
-14.805676,-159.65565
-15.012739,-161.12361
-15.008391,-160.67239
-15.363963,-157.93611
-14.914886,-159.56128
-14.868318,-162.90508
-14.665841,-160.91156
-15.146562,-159.04967
-15.366249,-160.52238
-15.127519,-158.58409
-15.327547,-159.04065
-14.80939,-160.34534
-14.786434,-161.89507
-15.057136,-163.11229
-14.913066,-159.59811
-15.086753,-162.42586
-14.878268,-162.22423
-15.186484,-162.91788
-15.28292,-160.55753
-15.562249,-161.70836
-15.21978,-161.97418
-14.880454,-160.72269
-15.181613,-158.95288
-14.985651,-160.62569
-15.579098,-161.72736
-14.901905,-160.4196
-15.303033,-161.5985
-14.587807,-163.6739
-14.932421,-160.88603
-15.283719,-159.00818
-14.7377,-160.72545
-15.129676,-160.79251
-14.605285,-162.82384
-15.437273,-160.74892
-15.505215,-161.45338
-15.06242,-160.64035
-15.009317,-162.70189
-15.438839,-163.13934
-15.34934,-162.36452
-15.292043,-160.35172
-14.594172,-160.50674
-14.97526,-160.11726
-15.076148,-162.16197
-14.586471,-162.01468
-15.276189,-160.48999
-15.270311,-161.40894
-15.035849,-160.77895
-15.165644,-159.57086
-15.097174,-162.77077
-14.793877,-158.78389
-15.488626,-160.86624
-15.125573,-159.82875
-14.541669,-162.42755
-15.117688,-162.20137
-14.81064,-159.66243
-14.990255,-159.72827
-14.886857,-162.91942
-14.959608,-162.2981
-14.946743,-161.69548
-15.188163,-160.18929
-14.903659,-162.69603
-15.119344,-158.26559
-15.085493,-161.93102
-15.12142,-161.91135
-15.230219,-161.32729
-15.154401,-161.80896
-15.207194,-161.10458
-15.354381,-161.5443
-15.138607,-161.46797
-15.204345,-164.70872
-15.519534,-161.41322
-14.860121,-160.15402
-15.043905,-160.92894
-15.030993,-160.99652
-14.893229,-160.96567
-15.158422,-161.16792
-15.263826,-164.76262
-15.02605,-159.71051
-14.869864,-161.36539
-15.172338,-160.60707
-15.067986,-161.07013
-15.127789,-162.44855
-15.157812,-161.39455
-15.263265,-160.71765
-14.948252,-159.51953
-15.179365,-161.93697
-15.014222,-160.16121
-15.181249,-163.28549
-14.972781,-159.4068
-14.997211,-161.35596
-15.077954,-159.64551
-15.282671,-160.94788
-15.117295,-160.99924
-15.256909,-162.08099
-15.135917,-159.94058
-15.22526,-159.6356
-15.054976,-157.91109
-14.865938,-160.06807
-15.462372,-162.38939
-14.763581,-163.09636
-15.020093,-160.08948
-15.021282,-159.6915
-15.371653,-161.55539
-14.82331,-160.40425
-14.815553,-160.99521
-14.847783,-160.48247
-14.666037,-159.47307
-14.981658,-160.91727
-15.27937,-160.96446
-15.055822,-161.02377
-14.754031,-162.73737
-15.150264,-161.48013
-15.013615,-159.93538
-15.030528,-163.33578
-15.118228,-160.76601
-14.907619,-163.24379
-15.024518,-160.92383
-14.929379,-163.8006
-14.580051,-160.93303
-14.849663,-160.91417
-14.700571,-160.42125
-14.958283,-161.11165
-15.314194,-161.42998
-15.055426,-162.06357
-14.546451,-159.30846
-15.384569,-163.15488
-14.893099,-158.71646
-15.39712,-160.32048
-14.990759,-161.18584
-15.067533,-161.23604
-14.750241,-160.25351
-14.873883,-161.90956
-14.951515,-162.72026
-14.846946,-161.33031
-14.852142,-161.5347
-15.016411,-159.3019
-14.977026,-161.132
-15.214295,-159.4348
-15.114418,-161.11497
-15.215553,-161.46802
-14.961355,-157.78711
-15.075366,-161.15398
-15.218837,-160.48418
-15.015098,-161.08102
-15.325193,-160.86133
-15.081735,-161.1745
-15.148625,-162.48814
-14.89919,-161.01198
-15.190398,-161.87581
-15.343267,-162.50906
-15.187669,-162.70903
-15.195339,-160.42754
-15.127423,-160.22629
-14.896807,-162.44038
-15.020306,-161.30882
-15.113604,-161.2142
-14.614005,-161.79219
-15.162382,-159.29192
-15.005313,-161.19603
-14.881848,-160.10033
-15.022696,-162.33656
-15.132091,-159.41447
-15.398326,-161.13567
-15.149441,-161.82922
-14.911779,-160.75751
-15.196779,-160.4133
-15.266989,-160.09494
-14.960683,-160.98848
-15.083441,-161.22963
-15.033951,-161.68771
-15.03215,-160.6032
-15.212992,-161.27515
-15.07842,-160.55876
-15.066198,-162.18849
-15.212697,-161.24275
