CITIFILE A.01.01
!Agilent Technologies,N5230C,MY48100142,A.08.04.10
!Agilent N5230C: A.08.04.10
!Date: Tuesday, August 30, 2022 14:18:16
NAME CH1_DATA
VAR Power MAG 801
DATA S11 RI
DATA S21 RI
DATA S12 RI
DATA S22 RI
VAR_LIST_BEGIN
-40
-39.975
-39.95
-39.925
-39.9
-39.875
-39.85
-39.825
-39.8
-39.775
-39.75
-39.725
-39.7
-39.675
-39.65
-39.625
-39.6
-39.575
-39.55
-39.525
-39.5
-39.475
-39.45
-39.425
-39.4
-39.375
-39.35
-39.325
-39.3
-39.275
-39.25
-39.225
-39.2
-39.175
-39.15
-39.125
-39.1
-39.075
-39.05
-39.025
-39
-38.975
-38.95
-38.925
-38.9
-38.875
-38.85
-38.825
-38.8
-38.775
-38.75
-38.725
-38.7
-38.675
-38.65
-38.625
-38.6
-38.575
-38.55
-38.525
-38.5
-38.475
-38.45
-38.425
-38.4
-38.375
-38.35
-38.325
-38.3
-38.275
-38.25
-38.225
-38.2
-38.175
-38.15
-38.125
-38.1
-38.075
-38.05
-38.025
-38
-37.975
-37.95
-37.925
-37.9
-37.875
-37.85
-37.825
-37.8
-37.775
-37.75
-37.725
-37.7
-37.675
-37.65
-37.625
-37.6
-37.575
-37.55
-37.525
-37.5
-37.475
-37.45
-37.425
-37.4
-37.375
-37.35
-37.325
-37.3
-37.275
-37.25
-37.225
-37.2
-37.175
-37.15
-37.125
-37.1
-37.075
-37.05
-37.025
-37
-36.975
-36.95
-36.925
-36.9
-36.875
-36.85
-36.825
-36.8
-36.775
-36.75
-36.725
-36.7
-36.675
-36.65
-36.625
-36.6
-36.575
-36.55
-36.525
-36.5
-36.475
-36.45
-36.425
-36.4
-36.375
-36.35
-36.325
-36.3
-36.275
-36.25
-36.225
-36.2
-36.175
-36.15
-36.125
-36.1
-36.075
-36.05
-36.025
-36
-35.975
-35.95
-35.925
-35.9
-35.875
-35.85
-35.825
-35.8
-35.775
-35.75
-35.725
-35.7
-35.675
-35.65
-35.625
-35.6
-35.575
-35.55
-35.525
-35.5
-35.475
-35.45
-35.425
-35.4
-35.375
-35.35
-35.325
-35.3
-35.275
-35.25
-35.225
-35.2
-35.175
-35.15
-35.125
-35.1
-35.075
-35.05
-35.025
-35
-34.975
-34.95
-34.925
-34.9
-34.875
-34.85
-34.825
-34.8
-34.775
-34.75
-34.725
-34.7
-34.675
-34.65
-34.625
-34.6
-34.575
-34.55
-34.525
-34.5
-34.475
-34.45
-34.425
-34.4
-34.375
-34.35
-34.325
-34.3
-34.275
-34.25
-34.225
-34.2
-34.175
-34.15
-34.125
-34.1
-34.075
-34.05
-34.025
-34
-33.975
-33.95
-33.925
-33.9
-33.875
-33.85
-33.825
-33.8
-33.775
-33.75
-33.725
-33.7
-33.675
-33.65
-33.625
-33.6
-33.575
-33.55
-33.525
-33.5
-33.475
-33.45
-33.425
-33.4
-33.375
-33.35
-33.325
-33.3
-33.275
-33.25
-33.225
-33.2
-33.175
-33.15
-33.125
-33.1
-33.075
-33.05
-33.025
-33
-32.975
-32.95
-32.925
-32.9
-32.875
-32.85
-32.825
-32.8
-32.775
-32.75
-32.725
-32.7
-32.675
-32.65
-32.625
-32.6
-32.575
-32.55
-32.525
-32.5
-32.475
-32.45
-32.425
-32.4
-32.375
-32.35
-32.325
-32.3
-32.275
-32.25
-32.225
-32.2
-32.175
-32.15
-32.125
-32.1
-32.075
-32.05
-32.025
-32
-31.975
-31.95
-31.925
-31.9
-31.875
-31.85
-31.825
-31.8
-31.775
-31.75
-31.725
-31.7
-31.675
-31.65
-31.625
-31.6
-31.575
-31.55
-31.525
-31.5
-31.475
-31.45
-31.425
-31.4
-31.375
-31.35
-31.325
-31.3
-31.275
-31.25
-31.225
-31.2
-31.175
-31.15
-31.125
-31.1
-31.075
-31.05
-31.025
-31
-30.975
-30.95
-30.925
-30.9
-30.875
-30.85
-30.825
-30.8
-30.775
-30.75
-30.725
-30.7
-30.675
-30.65
-30.625
-30.6
-30.575
-30.55
-30.525
-30.5
-30.475
-30.45
-30.425
-30.4
-30.375
-30.35
-30.325
-30.3
-30.275
-30.25
-30.225
-30.2
-30.175
-30.15
-30.125
-30.1
-30.075
-30.05
-30.025
-30
-29.975
-29.95
-29.925
-29.9
-29.875
-29.85
-29.825
-29.8
-29.775
-29.75
-29.725
-29.7
-29.675
-29.65
-29.625
-29.6
-29.575
-29.55
-29.525
-29.5
-29.475
-29.45
-29.425
-29.4
-29.375
-29.35
-29.325
-29.3
-29.275
-29.25
-29.225
-29.2
-29.175
-29.15
-29.125
-29.1
-29.075
-29.05
-29.025
-29
-28.975
-28.95
-28.925
-28.9
-28.875
-28.85
-28.825
-28.8
-28.775
-28.75
-28.725
-28.7
-28.675
-28.65
-28.625
-28.6
-28.575
-28.55
-28.525
-28.5
-28.475
-28.45
-28.425
-28.4
-28.375
-28.35
-28.325
-28.3
-28.275
-28.25
-28.225
-28.2
-28.175
-28.15
-28.125
-28.1
-28.075
-28.05
-28.025
-28
-27.975
-27.95
-27.925
-27.9
-27.875
-27.85
-27.825
-27.8
-27.775
-27.75
-27.725
-27.7
-27.675
-27.65
-27.625
-27.6
-27.575
-27.55
-27.525
-27.5
-27.475
-27.45
-27.425
-27.4
-27.375
-27.35
-27.325
-27.3
-27.275
-27.25
-27.225
-27.2
-27.175
-27.15
-27.125
-27.1
-27.075
-27.05
-27.025
-27
-26.975
-26.95
-26.925
-26.9
-26.875
-26.85
-26.825
-26.8
-26.775
-26.75
-26.725
-26.7
-26.675
-26.65
-26.625
-26.6
-26.575
-26.55
-26.525
-26.5
-26.475
-26.45
-26.425
-26.4
-26.375
-26.35
-26.325
-26.3
-26.275
-26.25
-26.225
-26.2
-26.175
-26.15
-26.125
-26.1
-26.075
-26.05
-26.025
-26
-25.975
-25.95
-25.925
-25.9
-25.875
-25.85
-25.825
-25.8
-25.775
-25.75
-25.725
-25.7
-25.675
-25.65
-25.625
-25.6
-25.575
-25.55
-25.525
-25.5
-25.475
-25.45
-25.425
-25.4
-25.375
-25.35
-25.325
-25.3
-25.275
-25.25
-25.225
-25.2
-25.175
-25.15
-25.125
-25.1
-25.075
-25.05
-25.025
-25
-24.975
-24.95
-24.925
-24.9
-24.875
-24.85
-24.825
-24.8
-24.775
-24.75
-24.725
-24.7
-24.675
-24.65
-24.625
-24.6
-24.575
-24.55
-24.525
-24.5
-24.475
-24.45
-24.425
-24.4
-24.375
-24.35
-24.325
-24.3
-24.275
-24.25
-24.225
-24.2
-24.175
-24.15
-24.125
-24.1
-24.075
-24.05
-24.025
-24
-23.975
-23.95
-23.925
-23.9
-23.875
-23.85
-23.825
-23.8
-23.775
-23.75
-23.725
-23.7
-23.675
-23.65
-23.625
-23.6
-23.575
-23.55
-23.525
-23.5
-23.475
-23.45
-23.425
-23.4
-23.375
-23.35
-23.325
-23.3
-23.275
-23.25
-23.225
-23.2
-23.175
-23.15
-23.125
-23.1
-23.075
-23.05
-23.025
-23
-22.975
-22.95
-22.925
-22.9
-22.875
-22.85
-22.825
-22.8
-22.775
-22.75
-22.725
-22.7
-22.675
-22.65
-22.625
-22.6
-22.575
-22.55
-22.525
-22.5
-22.475
-22.45
-22.425
-22.4
-22.375
-22.35
-22.325
-22.3
-22.275
-22.25
-22.225
-22.2
-22.175
-22.15
-22.125
-22.1
-22.075
-22.05
-22.025
-22
-21.975
-21.95
-21.925
-21.9
-21.875
-21.85
-21.825
-21.8
-21.775
-21.75
-21.725
-21.7
-21.675
-21.65
-21.625
-21.6
-21.575
-21.55
-21.525
-21.5
-21.475
-21.45
-21.425
-21.4
-21.375
-21.35
-21.325
-21.3
-21.275
-21.25
-21.225
-21.2
-21.175
-21.15
-21.125
-21.1
-21.075
-21.05
-21.025
-21
-20.975
-20.95
-20.925
-20.9
-20.875
-20.85
-20.825
-20.8
-20.775
-20.75
-20.725
-20.7
-20.675
-20.65
-20.625
-20.6
-20.575
-20.55
-20.525
-20.5
-20.475
-20.45
-20.425
-20.4
-20.375
-20.35
-20.325
-20.3
-20.275
-20.25
-20.225
-20.2
-20.175
-20.15
-20.125
-20.1
-20.075
-20.05
-20.025
-20
VAR_LIST_END
BEGIN
-0.17167071,-0.095738478
-0.18760066,-0.088612922
-0.1742582,-0.088583887
-0.16133632,-0.074895218
-0.17439832,-0.0603108
-0.18482079,-0.092821121
-0.16944426,-0.098953381
-0.17091577,-0.077567674
-0.16712774,-0.096420974
-0.15145566,-0.078313701
-0.16945052,-0.088628106
-0.16136257,-0.10054159
-0.17664422,-0.080206662
-0.17381279,-0.079386428
-0.15744311,-0.11014472
-0.15756656,-0.081173815
-0.16783136,-0.075698934
-0.16532518,-0.098955333
-0.21238898,-0.087900624
-0.18565236,-0.089950085
-0.14679332,-0.10148838
-0.16515487,-0.11755932
-0.18129137,-0.089383557
-0.16642156,-0.078742124
-0.17226286,-0.10032231
-0.18807721,-0.07773868
-0.14909717,-0.089856334
-0.16684982,-0.094512567
-0.1852535,-0.079888642
-0.20075589,-0.081603274
-0.16830666,-0.089473188
-0.17621383,-0.091807902
-0.17081819,-0.094027877
-0.17400633,-0.0792697
-0.16688862,-0.090132654
-0.16846316,-0.10110819
-0.18477629,-0.09411303
-0.18673186,-0.066910662
-0.16119416,-0.1206947
-0.19091043,-0.085921407
-0.18074457,-0.10392777
-0.16993019,-0.11058934
-0.17788759,-0.089646615
-0.17625453,-0.097550787
-0.1795688,-0.098855563
-0.1960656,-0.093762755
-0.14877629,-0.086100817
-0.18684253,-0.074535646
-0.15947208,-0.10621255
-0.16228428,-0.09522929
-0.17043696,-0.11432166
-0.17648317,-0.086783677
-0.18553953,-0.066491269
-0.17975482,-0.10085496
-0.16652319,-0.088100083
-0.1992667,-0.076655954
-0.16268784,-0.09110637
-0.17999364,-0.089527927
-0.17509845,-0.090265699
-0.18038599,-0.076860078
-0.18708676,-0.082629696
-0.16682579,-0.08781819
-0.15623927,-0.074900441
-0.18668924,-0.10237427
-0.17365976,-0.088373572
-0.16615343,-0.075483158
-0.19398007,-0.088309944
-0.18240778,-0.073143996
-0.18093221,-0.060623731
-0.16115518,-0.10108892
-0.16881624,-0.087794334
-0.16515528,-0.097869635
-0.16528596,-0.10024194
-0.1899174,-0.10015678
-0.18300189,-0.084750734
-0.16383187,-0.085398525
-0.19832142,-0.065322369
-0.1834271,-0.077878661
-0.19200402,-0.091239646
-0.17392977,-0.086433902
-0.17529134,-0.084010318
-0.16237359,-0.095635727
-0.1798801,-0.1044739
-0.17787342,-0.077722549
-0.15870018,-0.082439341
-0.17536539,-0.10532665
-0.17598754,-0.094413824
-0.16307177,-0.074529655
-0.1779636,-0.088452578
-0.17307916,-0.071440928
-0.1450415,-0.073441416
-0.18104753,-0.080986127
-0.17437677,-0.084097303
-0.17963359,-0.093543775
-0.17455094,-0.077638075
-0.17354539,-0.083240084
-0.16519751,-0.082349502
-0.16161703,-0.079046078
-0.15969989,-0.081749626
-0.17838211,-0.09180855
-0.17679755,-0.10281749
-0.17510459,-0.090295032
-0.18371484,-0.093003288
-0.16803895,-0.088021457
-0.18223654,-0.087159537
-0.18034714,-0.084785759
-0.15927385,-0.085364193
-0.1780325,-0.089422174
-0.16588424,-0.074904725
-0.18694749,-0.079349123
-0.15998071,-0.10218111
-0.15767801,-0.092828415
-0.1682459,-0.090512373
-0.16594708,-0.099295899
-0.17392291,-0.080272652
-0.17364147,-0.087469272
-0.16445214,-0.080572329
-0.16518658,-0.090910882
-0.17762269,-0.065827541
-0.17151311,-0.085953042
-0.17252587,-0.077669866
-0.17431332,-0.086664416
-0.16913599,-0.085178308
-0.16902298,-0.098841228
-0.18554494,-0.06527511
-0.171369,-0.08851032
-0.16418691,-0.083867751
-0.15725952,-0.10501038
-0.15916565,-0.088574208
-0.17484611,-0.090953648
-0.17202514,-0.084924169
-0.1904622,-0.085808091
-0.17417194,-0.081170902
-0.16998112,-0.10375692
-0.17074488,-0.069806077
-0.16955449,-0.089624979
-0.18338826,-0.08894489
-0.16559471,-0.092519417
-0.17685243,-0.099341027
-0.18987128,-0.079468518
-0.17149721,-0.083216481
-0.18042356,-0.091406442
-0.15686655,-0.095959358
-0.17755868,-0.10498926
-0.1764863,-0.082422204
-0.1578013,-0.077051699
-0.17026241,-0.077363521
-0.19002341,-0.084698051
-0.17742823,-0.092114575
-0.18655835,-0.086589329
-0.17531988,-0.076526821
-0.16152489,-0.090280451
-0.16601442,-0.092580356
-0.18041927,-0.097362913
-0.17499591,-0.092561565
-0.16160823,-0.089461908
-0.18130729,-0.077468194
-0.18070404,-0.08343675
-0.16768707,-0.081246749
-0.18427791,-0.08983694
-0.17386363,-0.099691771
-0.16644394,-0.074137129
-0.17379034,-0.099174544
-0.18036799,-0.085430376
-0.16505422,-0.10076456
-0.16386358,-0.081268437
-0.1776581,-0.08517202
-0.17597064,-0.088859543
-0.17543016,-0.098836161
-0.15779805,-0.097251184
-0.17888086,-0.076754525
-0.17903234,-0.094280459
-0.16556151,-0.098896131
-0.16511811,-0.095464498
-0.16652314,-0.091201402
-0.1777979,-0.061687898
-0.15475023,-0.097240351
-0.14823766,-0.093044512
-0.17519356,-0.092455976
-0.19579437,-0.068228044
-0.18465219,-0.095204681
-0.15870899,-0.084971584
-0.16818142,-0.083221674
-0.17337492,-0.092882045
-0.17329884,-0.088457897
-0.18006489,-0.090073831
-0.18460968,-0.093194634
-0.17813052,-0.093017153
-0.19170317,-0.09683986
-0.19122846,-0.098899752
-0.18306673,-0.09509109
-0.1770599,-0.082793802
-0.17534517,-0.11100994
-0.16153589,-0.071362488
-0.17002675,-0.088298298
-0.17819877,-0.088433869
-0.16578935,-0.081566811
-0.16584103,-0.082224868
-0.1770974,-0.084801294
-0.16239214,-0.09810745
-0.1723991,-0.085244961
-0.17761874,-0.084170118
-0.17577182,-0.094219856
-0.17557734,-0.0853948
-0.16264436,-0.096571803
-0.16597734,-0.081927426
-0.18667014,-0.10195941
-0.1691523,-0.082901672
-0.17016974,-0.089897275
-0.18393511,-0.095324427
-0.15622915,-0.09425775
-0.17214142,-0.074899226
-0.17994447,-0.086173579
-0.16670235,-0.094420582
-0.1700217,-0.079743102
-0.16999149,-0.074397728
-0.18429585,-0.076735958
-0.17532326,-0.089063913
-0.17512453,-0.079867788
-0.19402622,-0.09957777
-0.18618816,-0.066148557
-0.17772685,-0.08557979
-0.16325957,-0.080875799
-0.17806695,-0.090459071
-0.15740019,-0.077363864
-0.17861642,-0.084528342
-0.18574932,-0.10323634
-0.17447843,-0.084626377
-0.16990638,-0.08248689
-0.17616221,-0.085238785
-0.1817373,-0.086196303
-0.16265944,-0.10060842
-0.16015905,-0.095728248
-0.16965413,-0.083340891
-0.17567568,-0.074374177
-0.16294312,-0.084591016
-0.16854534,-0.083451271
-0.18394813,-0.068618767
-0.1698385,-0.083668076
-0.1783555,-0.10276973
-0.19526544,-0.073221579
-0.16500904,-0.089090049
-0.18185316,-0.099947862
-0.16455586,-0.088057429
-0.16748664,-0.086029649
-0.17872758,-0.082431994
-0.17698844,-0.082156643
-0.17314644,-0.086015016
-0.17190595,-0.087874785
-0.17235546,-0.099994145
-0.17754634,-0.077255927
-0.18199761,-0.095464364
-0.1741731,-0.0828752
-0.17673475,-0.10509876
-0.18626732,-0.080336235
-0.16124743,-0.082566015
-0.17503031,-0.097648673
-0.16070567,-0.079913929
-0.18354909,-0.081938781
-0.1817648,-0.069729961
-0.16037177,-0.087944873
-0.17204341,-0.080452785
-0.18046911,-0.083027124
-0.17654277,-0.088121958
-0.17997782,-0.080959305
-0.16939603,-0.0852063
-0.18131144,-0.085813634
-0.17381521,-0.075515829
-0.17484891,-0.087167792
-0.16985579,-0.082437702
-0.17556384,-0.079635501
-0.18279491,-0.093066014
-0.16152492,-0.091282681
-0.17216106,-0.089359529
-0.16846694,-0.091599964
-0.16924126,-0.080756217
-0.16775033,-0.079223923
-0.16755749,-0.089228101
-0.16825767,-0.094519183
-0.16453449,-0.083249152
-0.16833749,-0.095987663
-0.17058799,-0.069844507
-0.18005928,-0.088694803
-0.17382549,-0.094175525
-0.18742757,-0.075239919
-0.16874318,-0.085052811
-0.18037157,-0.093555592
-0.17121847,-0.08443848
-0.170799,-0.083091572
-0.1672383,-0.086687781
-0.16294888,-0.072403125
-0.1724128,-0.087579511
-0.16237916,-0.08747936
-0.15918548,-0.087765492
-0.16924272,-0.089778505
-0.16812386,-0.094930947
-0.17849296,-0.071675107
-0.16418953,-0.080311939
-0.16533926,-0.089509606
-0.18540092,-0.086814016
-0.17125653,-0.076419614
-0.17789499,-0.082282603
-0.17610762,-0.085636318
-0.15576282,-0.095812865
-0.18826391,-0.082550362
-0.16969194,-0.094851531
-0.16932441,-0.089542806
-0.17282137,-0.082481921
-0.17388195,-0.096194506
-0.17528594,-0.086085789
-0.16848589,-0.0888502
-0.1784256,-0.077066466
-0.166541,-0.088269986
-0.16984035,-0.087490082
-0.18248089,-0.087167859
-0.17999472,-0.079389505
-0.17989968,-0.07730411
-0.1742454,-0.084893882
-0.18217216,-0.076572925
-0.1776441,-0.091835558
-0.16891709,-0.085608348
-0.17700513,-0.086186849
-0.16405508,-0.076051749
-0.17074911,-0.088860638
-0.16987742,-0.07801494
-0.16869453,-0.090986855
-0.17058676,-0.085006818
-0.18193656,-0.091941506
-0.17500456,-0.087411158
-0.171592,-0.087496936
-0.18142731,-0.099405356
-0.185037,-0.086146496
-0.18059213,-0.088257812
-0.17487313,-0.087639011
-0.16237637,-0.092294626
-0.1691222,-0.079916127
-0.17372607,-0.091183484
-0.17794998,-0.095230222
-0.17032254,-0.089324899
-0.18054321,-0.09084145
-0.17813964,-0.072500452
-0.17891417,-0.088106148
-0.18139486,-0.07937403
-0.17958671,-0.10109478
-0.17284749,-0.080847241
-0.17340089,-0.090752803
-0.16433609,-0.086922824
-0.17828272,-0.084589362
-0.18592842,-0.094965205
-0.17627241,-0.082778618
-0.17589389,-0.093952246
-0.16511455,-0.092121273
-0.1757585,-0.085221298
-0.17257193,-0.0981571
-0.18321556,-0.091458574
-0.17337343,-0.081479646
-0.16636738,-0.092622988
-0.16963165,-0.077714391
-0.17210464,-0.091142416
-0.17450351,-0.090175606
-0.17034204,-0.10037863
-0.17268425,-0.083125681
-0.17029564,-0.089008085
-0.1768074,-0.087508693
-0.16908245,-0.102302
-0.17619559,-0.097092934
-0.17137663,-0.082397811
-0.17773369,-0.081335396
-0.17777121,-0.088755384
-0.17559873,-0.086527407
-0.17190257,-0.087079346
-0.17621551,-0.091508873
-0.16762795,-0.085212998
-0.181363,-0.093958192
-0.1746936,-0.087583765
-0.16893792,-0.086537719
-0.17856817,-0.090072535
-0.1692194,-0.087470151
-0.16952556,-0.089349471
-0.17641208,-0.084442228
-0.17774674,-0.084829308
-0.17275755,-0.092848912
-0.17469087,-0.08942461
-0.17031476,-0.081497692
-0.16985208,-0.087685779
-0.17911644,-0.086001344
-0.17341599,-0.092844203
-0.17210624,-0.081061147
-0.16506627,-0.085721731
-0.16687524,-0.088988818
-0.18052837,-0.079219244
-0.17540531,-0.081649676
-0.17424457,-0.079295404
-0.17033161,-0.089645162
-0.16675934,-0.09544649
-0.16855809,-0.087560043
-0.17145799,-0.087685883
-0.16950449,-0.090656117
-0.17705481,-0.081487104
-0.16353241,-0.080847628
-0.16876654,-0.083482467
-0.18028907,-0.084222369
-0.17004123,-0.08940202
-0.16994531,-0.090225555
-0.18113391,-0.093404986
-0.16994663,-0.090233237
-0.17478813,-0.072064094
-0.1841343,-0.084260866
-0.17288686,-0.087421998
-0.17086378,-0.081397474
-0.16766867,-0.087944031
-0.17256874,-0.086796597
-0.1690125,-0.085959673
-0.18079133,-0.094242744
-0.17320293,-0.079405345
-0.17110166,-0.089788727
-0.16961777,-0.091707051
-0.17214176,-0.094153054
-0.17663237,-0.084420033
-0.17403348,-0.094679885
-0.17212573,-0.085931957
-0.16990501,-0.098181866
-0.16859816,-0.085459009
-0.17226774,-0.093930349
-0.17326096,-0.075967133
-0.17956349,-0.087047808
-0.17991267,-0.092544861
-0.1713361,-0.086048469
-0.17955975,-0.086348251
-0.16671786,-0.095200203
-0.17464964,-0.090368144
-0.17744696,-0.093114167
-0.17184842,-0.095218368
-0.17320959,-0.09201809
-0.17757341,-0.085057117
-0.17418008,-0.093884878
-0.17407091,-0.089584544
-0.17291375,-0.090583213
-0.17031951,-0.089314476
-0.17561094,-0.082194835
-0.17135383,-0.086079255
-0.17553465,-0.090878993
-0.17545894,-0.090568036
-0.17833255,-0.082258873
-0.18004772,-0.086101227
-0.17384247,-0.088329837
-0.1726466,-0.087016113
-0.17155032,-0.088146381
-0.17774518,-0.088589251
-0.17530048,-0.086106591
-0.1666629,-0.08696425
-0.17182,-0.090560645
-0.1763441,-0.087618709
-0.1795173,-0.086240076
-0.17215885,-0.083462171
-0.17282368,-0.090197332
-0.16741286,-0.086415261
-0.1706448,-0.087154917
-0.17575821,-0.085968457
-0.17698878,-0.088578872
-0.16890004,-0.079940543
-0.17962754,-0.090747163
-0.18255208,-0.085022911
-0.17780043,-0.090813726
-0.17638907,-0.08872088
-0.16876538,-0.087207325
-0.1682913,-0.093579449
-0.17131814,-0.092664234
-0.16888884,-0.092093408
-0.16893627,-0.091174632
-0.17102216,-0.089134559
-0.16859089,-0.08617264
-0.16855575,-0.087634027
-0.16926882,-0.08687339
-0.17466024,-0.088775903
-0.17980623,-0.087767139
-0.17251539,-0.081769407
-0.17184298,-0.084114961
-0.17551854,-0.092475109
-0.17118035,-0.092403539
-0.17464632,-0.088947766
-0.16770998,-0.091519952
-0.17186843,-0.09217146
-0.17342623,-0.089253172
-0.17794269,-0.084540501
-0.17352274,-0.084131844
-0.17940077,-0.090948857
-0.17368034,-0.083628371
-0.18089089,-0.085195877
-0.16876222,-0.089306265
-0.17181569,-0.090161368
-0.17683242,-0.087580584
-0.17727159,-0.090194046
-0.17666616,-0.084528401
-0.1717744,-0.087060414
-0.17517287,-0.083325259
-0.17141938,-0.09097705
-0.17537478,-0.08618281
-0.17760384,-0.093840167
-0.17212377,-0.093426198
-0.18095154,-0.081574872
-0.16987856,-0.086905189
-0.18067332,-0.08968588
-0.17359428,-0.089265727
-0.17844333,-0.082704306
-0.17152424,-0.087944567
-0.17854683,-0.086691581
-0.17069434,-0.080722585
-0.17620017,-0.080497354
-0.17782088,-0.090120889
-0.1786672,-0.085218385
-0.17668697,-0.083201043
