CITIFILE A.01.01
!Agilent Technologies,N5230C,MY48100142,A.08.04.10
!Agilent N5230C: A.08.04.10
!Date: Tuesday, August 30, 2022 14:10:46
NAME CH1_DATA
VAR Power MAG 801
DATA S11 RI
DATA S21 RI
DATA S12 RI
DATA S22 RI
VAR_LIST_BEGIN
-40
-39.975
-39.95
-39.925
-39.9
-39.875
-39.85
-39.825
-39.8
-39.775
-39.75
-39.725
-39.7
-39.675
-39.65
-39.625
-39.6
-39.575
-39.55
-39.525
-39.5
-39.475
-39.45
-39.425
-39.4
-39.375
-39.35
-39.325
-39.3
-39.275
-39.25
-39.225
-39.2
-39.175
-39.15
-39.125
-39.1
-39.075
-39.05
-39.025
-39
-38.975
-38.95
-38.925
-38.9
-38.875
-38.85
-38.825
-38.8
-38.775
-38.75
-38.725
-38.7
-38.675
-38.65
-38.625
-38.6
-38.575
-38.55
-38.525
-38.5
-38.475
-38.45
-38.425
-38.4
-38.375
-38.35
-38.325
-38.3
-38.275
-38.25
-38.225
-38.2
-38.175
-38.15
-38.125
-38.1
-38.075
-38.05
-38.025
-38
-37.975
-37.95
-37.925
-37.9
-37.875
-37.85
-37.825
-37.8
-37.775
-37.75
-37.725
-37.7
-37.675
-37.65
-37.625
-37.6
-37.575
-37.55
-37.525
-37.5
-37.475
-37.45
-37.425
-37.4
-37.375
-37.35
-37.325
-37.3
-37.275
-37.25
-37.225
-37.2
-37.175
-37.15
-37.125
-37.1
-37.075
-37.05
-37.025
-37
-36.975
-36.95
-36.925
-36.9
-36.875
-36.85
-36.825
-36.8
-36.775
-36.75
-36.725
-36.7
-36.675
-36.65
-36.625
-36.6
-36.575
-36.55
-36.525
-36.5
-36.475
-36.45
-36.425
-36.4
-36.375
-36.35
-36.325
-36.3
-36.275
-36.25
-36.225
-36.2
-36.175
-36.15
-36.125
-36.1
-36.075
-36.05
-36.025
-36
-35.975
-35.95
-35.925
-35.9
-35.875
-35.85
-35.825
-35.8
-35.775
-35.75
-35.725
-35.7
-35.675
-35.65
-35.625
-35.6
-35.575
-35.55
-35.525
-35.5
-35.475
-35.45
-35.425
-35.4
-35.375
-35.35
-35.325
-35.3
-35.275
-35.25
-35.225
-35.2
-35.175
-35.15
-35.125
-35.1
-35.075
-35.05
-35.025
-35
-34.975
-34.95
-34.925
-34.9
-34.875
-34.85
-34.825
-34.8
-34.775
-34.75
-34.725
-34.7
-34.675
-34.65
-34.625
-34.6
-34.575
-34.55
-34.525
-34.5
-34.475
-34.45
-34.425
-34.4
-34.375
-34.35
-34.325
-34.3
-34.275
-34.25
-34.225
-34.2
-34.175
-34.15
-34.125
-34.1
-34.075
-34.05
-34.025
-34
-33.975
-33.95
-33.925
-33.9
-33.875
-33.85
-33.825
-33.8
-33.775
-33.75
-33.725
-33.7
-33.675
-33.65
-33.625
-33.6
-33.575
-33.55
-33.525
-33.5
-33.475
-33.45
-33.425
-33.4
-33.375
-33.35
-33.325
-33.3
-33.275
-33.25
-33.225
-33.2
-33.175
-33.15
-33.125
-33.1
-33.075
-33.05
-33.025
-33
-32.975
-32.95
-32.925
-32.9
-32.875
-32.85
-32.825
-32.8
-32.775
-32.75
-32.725
-32.7
-32.675
-32.65
-32.625
-32.6
-32.575
-32.55
-32.525
-32.5
-32.475
-32.45
-32.425
-32.4
-32.375
-32.35
-32.325
-32.3
-32.275
-32.25
-32.225
-32.2
-32.175
-32.15
-32.125
-32.1
-32.075
-32.05
-32.025
-32
-31.975
-31.95
-31.925
-31.9
-31.875
-31.85
-31.825
-31.8
-31.775
-31.75
-31.725
-31.7
-31.675
-31.65
-31.625
-31.6
-31.575
-31.55
-31.525
-31.5
-31.475
-31.45
-31.425
-31.4
-31.375
-31.35
-31.325
-31.3
-31.275
-31.25
-31.225
-31.2
-31.175
-31.15
-31.125
-31.1
-31.075
-31.05
-31.025
-31
-30.975
-30.95
-30.925
-30.9
-30.875
-30.85
-30.825
-30.8
-30.775
-30.75
-30.725
-30.7
-30.675
-30.65
-30.625
-30.6
-30.575
-30.55
-30.525
-30.5
-30.475
-30.45
-30.425
-30.4
-30.375
-30.35
-30.325
-30.3
-30.275
-30.25
-30.225
-30.2
-30.175
-30.15
-30.125
-30.1
-30.075
-30.05
-30.025
-30
-29.975
-29.95
-29.925
-29.9
-29.875
-29.85
-29.825
-29.8
-29.775
-29.75
-29.725
-29.7
-29.675
-29.65
-29.625
-29.6
-29.575
-29.55
-29.525
-29.5
-29.475
-29.45
-29.425
-29.4
-29.375
-29.35
-29.325
-29.3
-29.275
-29.25
-29.225
-29.2
-29.175
-29.15
-29.125
-29.1
-29.075
-29.05
-29.025
-29
-28.975
-28.95
-28.925
-28.9
-28.875
-28.85
-28.825
-28.8
-28.775
-28.75
-28.725
-28.7
-28.675
-28.65
-28.625
-28.6
-28.575
-28.55
-28.525
-28.5
-28.475
-28.45
-28.425
-28.4
-28.375
-28.35
-28.325
-28.3
-28.275
-28.25
-28.225
-28.2
-28.175
-28.15
-28.125
-28.1
-28.075
-28.05
-28.025
-28
-27.975
-27.95
-27.925
-27.9
-27.875
-27.85
-27.825
-27.8
-27.775
-27.75
-27.725
-27.7
-27.675
-27.65
-27.625
-27.6
-27.575
-27.55
-27.525
-27.5
-27.475
-27.45
-27.425
-27.4
-27.375
-27.35
-27.325
-27.3
-27.275
-27.25
-27.225
-27.2
-27.175
-27.15
-27.125
-27.1
-27.075
-27.05
-27.025
-27
-26.975
-26.95
-26.925
-26.9
-26.875
-26.85
-26.825
-26.8
-26.775
-26.75
-26.725
-26.7
-26.675
-26.65
-26.625
-26.6
-26.575
-26.55
-26.525
-26.5
-26.475
-26.45
-26.425
-26.4
-26.375
-26.35
-26.325
-26.3
-26.275
-26.25
-26.225
-26.2
-26.175
-26.15
-26.125
-26.1
-26.075
-26.05
-26.025
-26
-25.975
-25.95
-25.925
-25.9
-25.875
-25.85
-25.825
-25.8
-25.775
-25.75
-25.725
-25.7
-25.675
-25.65
-25.625
-25.6
-25.575
-25.55
-25.525
-25.5
-25.475
-25.45
-25.425
-25.4
-25.375
-25.35
-25.325
-25.3
-25.275
-25.25
-25.225
-25.2
-25.175
-25.15
-25.125
-25.1
-25.075
-25.05
-25.025
-25
-24.975
-24.95
-24.925
-24.9
-24.875
-24.85
-24.825
-24.8
-24.775
-24.75
-24.725
-24.7
-24.675
-24.65
-24.625
-24.6
-24.575
-24.55
-24.525
-24.5
-24.475
-24.45
-24.425
-24.4
-24.375
-24.35
-24.325
-24.3
-24.275
-24.25
-24.225
-24.2
-24.175
-24.15
-24.125
-24.1
-24.075
-24.05
-24.025
-24
-23.975
-23.95
-23.925
-23.9
-23.875
-23.85
-23.825
-23.8
-23.775
-23.75
-23.725
-23.7
-23.675
-23.65
-23.625
-23.6
-23.575
-23.55
-23.525
-23.5
-23.475
-23.45
-23.425
-23.4
-23.375
-23.35
-23.325
-23.3
-23.275
-23.25
-23.225
-23.2
-23.175
-23.15
-23.125
-23.1
-23.075
-23.05
-23.025
-23
-22.975
-22.95
-22.925
-22.9
-22.875
-22.85
-22.825
-22.8
-22.775
-22.75
-22.725
-22.7
-22.675
-22.65
-22.625
-22.6
-22.575
-22.55
-22.525
-22.5
-22.475
-22.45
-22.425
-22.4
-22.375
-22.35
-22.325
-22.3
-22.275
-22.25
-22.225
-22.2
-22.175
-22.15
-22.125
-22.1
-22.075
-22.05
-22.025
-22
-21.975
-21.95
-21.925
-21.9
-21.875
-21.85
-21.825
-21.8
-21.775
-21.75
-21.725
-21.7
-21.675
-21.65
-21.625
-21.6
-21.575
-21.55
-21.525
-21.5
-21.475
-21.45
-21.425
-21.4
-21.375
-21.35
-21.325
-21.3
-21.275
-21.25
-21.225
-21.2
-21.175
-21.15
-21.125
-21.1
-21.075
-21.05
-21.025
-21
-20.975
-20.95
-20.925
-20.9
-20.875
-20.85
-20.825
-20.8
-20.775
-20.75
-20.725
-20.7
-20.675
-20.65
-20.625
-20.6
-20.575
-20.55
-20.525
-20.5
-20.475
-20.45
-20.425
-20.4
-20.375
-20.35
-20.325
-20.3
-20.275
-20.25
-20.225
-20.2
-20.175
-20.15
-20.125
-20.1
-20.075
-20.05
-20.025
-20
VAR_LIST_END
BEGIN
-0.17490298,-0.077903658
-0.19460714,-0.084414549
-0.17026137,-0.067349315
-0.18139395,-0.092282198
-0.15820536,-0.084175818
-0.17470242,-0.083787493
-0.16866906,-0.074402489
-0.16441134,-0.090541713
-0.1748665,-0.075670809
-0.17908752,-0.079624169
-0.17787595,-0.090832017
-0.1567338,-0.076782107
-0.17924531,-0.089477144
-0.16930676,-0.099598467
-0.16842501,-0.067959681
-0.16586104,-0.09274403
-0.16321485,-0.09387245
-0.17271875,-0.074597463
-0.18354277,-0.083532989
-0.1750205,-0.079883747
-0.17767516,-0.082748853
-0.16871634,-0.091410384
-0.1774276,-0.076651558
-0.19132878,-0.085397154
-0.16479675,-0.091608226
-0.16646804,-0.06768956
-0.18056735,-0.086652771
-0.15149137,-0.088188127
-0.17277114,-0.099037588
-0.17140514,-0.089210346
-0.18768243,-0.0728058
-0.17365319,-0.08809796
-0.17961712,-0.087394796
-0.17923772,-0.093654335
-0.16322419,-0.080561548
-0.17039032,-0.077082455
-0.16204622,-0.084703758
-0.16320647,-0.078801103
-0.17500444,-0.091425374
-0.18348058,-0.080269501
-0.18325467,-0.085294902
-0.16696294,-0.080626518
-0.18555984,-0.080729
-0.17340469,-0.075784296
-0.17433481,-0.096249387
-0.17633365,-0.07481011
-0.15706301,-0.074105278
-0.17452443,-0.091352478
-0.18078461,-0.07792253
-0.17255166,-0.086651392
-0.17548704,-0.088952012
-0.17942539,-0.090756394
-0.17256016,-0.077242389
-0.16743259,-0.087001748
-0.17880958,-0.085072018
-0.18473126,-0.079628587
-0.17568654,-0.09929096
-0.16926254,-0.081725031
-0.17307508,-0.079647265
-0.19239293,-0.093144521
-0.17156233,-0.090470262
-0.16352397,-0.089858301
-0.1747499,-0.088515416
-0.18139656,-0.098411627
-0.17049111,-0.090395883
-0.16281125,-0.092167124
-0.17406186,-0.088700309
-0.18072341,-0.082837313
-0.18014002,-0.081117034
-0.17202723,-0.095255166
-0.16321744,-0.092676088
-0.16721299,-0.079566963
-0.17007412,-0.078840874
-0.16787647,-0.092898279
-0.17737597,-0.077615499
-0.17020753,-0.086874515
-0.17631368,-0.084082335
-0.17617743,-0.084244706
-0.15251392,-0.07138712
-0.15737458,-0.091644332
-0.18296331,-0.092360742
-0.16381854,-0.085150488
-0.17073359,-0.094983526
-0.17090808,-0.091697574
-0.16969077,-0.087350652
-0.18311757,-0.082036845
-0.17504837,-0.088064931
-0.16521242,-0.080077089
-0.17156631,-0.096873954
-0.16823345,-0.098214313
-0.17045327,-0.079914875
-0.17555489,-0.087531179
-0.17472854,-0.085824318
-0.16590655,-0.081393324
-0.15951227,-0.089381635
-0.16534188,-0.08234112
-0.1850341,-0.090999305
-0.16707975,-0.082418561
-0.1796301,-0.08748664
-0.16731867,-0.088523552
-0.16833606,-0.093080826
-0.18332025,-0.080242388
-0.18032812,-0.099967249
-0.16903569,-0.085499309
-0.17605266,-0.083145864
-0.16955298,-0.080313243
-0.1746728,-0.091839574
-0.17399469,-0.085633948
-0.17187282,-0.095615834
-0.16535933,-0.080228433
-0.18051139,-0.085664727
-0.16963036,-0.097545996
-0.17775266,-0.090769134
-0.17830457,-0.088034391
-0.17284334,-0.08381743
-0.16550937,-0.086735636
-0.18624993,-0.0838864
-0.17659809,-0.09308283
-0.18433383,-0.085166276
-0.16740133,-0.088353552
-0.17533047,-0.095754586
-0.17332421,-0.077853218
-0.17001161,-0.093460195
-0.17656049,-0.093345426
-0.17473382,-0.07849323
-0.1740769,-0.096787699
-0.18105341,-0.092952766
-0.1712653,-0.082521491
-0.16382281,-0.081732348
-0.18938944,-0.083877407
-0.16929427,-0.098168425
-0.16985138,-0.094029054
-0.17173074,-0.083922826
-0.16721247,-0.090233095
-0.17151941,-0.07256458
-0.17524526,-0.073010363
-0.17109944,-0.08176598
-0.17775311,-0.08989425
-0.18078358,-0.093414806
-0.16946051,-0.091528654
-0.16898328,-0.076071948
-0.18574327,-0.086606979
-0.17110169,-0.074462868
-0.17934556,-0.083153725
-0.16512628,-0.078775182
-0.17510015,-0.092066891
-0.16554478,-0.090471722
-0.16787915,-0.095931321
-0.16678573,-0.084009111
-0.1735907,-0.098494105
-0.18098766,-0.089942671
-0.1818116,-0.087261841
-0.18520318,-0.07935828
-0.18111613,-0.098737217
-0.16404814,-0.07950902
-0.16668347,-0.077303499
-0.16227721,-0.09467268
-0.18347773,-0.091314159
-0.16645399,-0.083289675
-0.17382942,-0.084097266
-0.17513329,-0.087867275
-0.17998673,-0.079219274
-0.16393283,-0.087876201
-0.16733181,-0.089255817
-0.17161672,-0.093126945
-0.1773439,-0.084159181
-0.1782507,-0.089972384
-0.17092624,-0.088680007
-0.17078899,-0.07670781
-0.16591935,-0.08676637
-0.16206676,-0.081479639
-0.17078789,-0.086468779
-0.15670402,-0.09376426
-0.17312261,-0.083302952
-0.17549643,-0.087362655
-0.17458765,-0.095947951
-0.17612928,-0.083922781
-0.18172713,-0.092480153
-0.17496215,-0.096546151
-0.17426069,-0.079478979
-0.1684684,-0.079680167
-0.17145322,-0.090996996
-0.17579944,-0.079932787
-0.17032555,-0.088430688
-0.17434177,-0.076741487
-0.17109796,-0.086685643
-0.16618381,-0.088759229
-0.17139041,-0.088730544
-0.17244525,-0.081194051
-0.17357358,-0.080729827
-0.17430823,-0.080313481
-0.16901979,-0.081951588
-0.18053436,-0.080629483
-0.17929313,-0.075429119
-0.1756265,-0.081941009
-0.17394641,-0.091568694
-0.17565897,-0.084967442
-0.17101674,-0.084263548
-0.17155327,-0.083016723
-0.17015894,-0.085683241
-0.1775659,-0.077664487
-0.17418133,-0.079705566
-0.17167625,-0.087958865
-0.17980722,-0.087716669
-0.16980378,-0.08290305
-0.17315564,-0.086460002
-0.17197193,-0.093766667
-0.16997358,-0.085684456
-0.17289522,-0.087360047
-0.16991238,-0.091898076
-0.17536101,-0.0798259
-0.16500227,-0.085252352
-0.17828257,-0.083023839
-0.16862303,-0.086130053
-0.1710711,-0.084803678
-0.17919579,-0.083284795
-0.17897449,-0.081638388
-0.17761162,-0.078649722
-0.17229582,-0.085195139
-0.17557098,-0.093188688
-0.17176409,-0.086251557
-0.17382178,-0.083552755
-0.17390028,-0.089197747
-0.16959114,-0.092735454
-0.17378642,-0.079934098
-0.18266894,-0.087716825
-0.16334629,-0.087912798
-0.16624312,-0.09276811
-0.17863321,-0.094839543
-0.1764081,-0.086882792
-0.17467123,-0.091471054
-0.16992298,-0.088993832
-0.17436939,-0.097460538
-0.18137501,-0.08422111
-0.18229903,-0.089481339
-0.17268197,-0.0867384
-0.16589972,-0.087020904
-0.17445299,-0.078136511
-0.16601691,-0.090388998
-0.1709246,-0.083478399
-0.17021886,-0.08646933
-0.17788526,-0.073987231
-0.17362812,-0.089491531
-0.16967344,-0.08437065
-0.16804883,-0.081319638
-0.16988154,-0.090323798
-0.16629721,-0.091899492
-0.16546808,-0.081170641
-0.17250992,-0.090259492
-0.17514163,-0.083698675
-0.1708384,-0.085466266
-0.17098032,-0.088631406
-0.1712625,-0.076363258
-0.17881173,-0.090328291
-0.17691682,-0.08527863
-0.16695069,-0.082740866
-0.17353638,-0.095875666
-0.17438409,-0.09034609
-0.17208865,-0.091329694
-0.16297033,-0.091750458
-0.16528165,-0.093405962
-0.16754293,-0.086040094
-0.17670266,-0.091450848
-0.17057663,-0.091258518
-0.16815002,-0.096029878
-0.16931599,-0.096688606
-0.16175404,-0.078788176
-0.17304906,-0.080045894
-0.17663819,-0.087252058
-0.17197126,-0.090629719
-0.1750419,-0.086195529
-0.17202754,-0.085326701
-0.16956599,-0.089806192
-0.17453057,-0.08474911
-0.17023076,-0.082783423
-0.17787687,-0.082480207
-0.17059515,-0.085348994
-0.17667452,-0.084925503
-0.17135765,-0.085787952
-0.17504291,-0.087429382
-0.16869687,-0.087275036
-0.17551383,-0.082849249
-0.177054,-0.086265169
-0.17202368,-0.087758593
-0.17220277,-0.085886694
-0.17094454,-0.083901547
-0.17178728,-0.08842779
-0.16546907,-0.087326348
-0.18151233,-0.082054533
-0.16799416,-0.086637184
-0.17443602,-0.096893065
-0.1787595,-0.095107123
-0.17174861,-0.092225909
-0.17531274,-0.08647874
-0.17556417,-0.091657355
-0.173968,-0.083750829
-0.17247066,-0.086432829
-0.17579228,-0.087657981
-0.17123821,-0.091805734
-0.17774178,-0.078143299
-0.18148378,-0.082047112
-0.17699237,-0.087099075
-0.18006523,-0.093903363
-0.16986896,-0.090050034
-0.18354435,-0.087690845
-0.17406023,-0.081028037
-0.17254061,-0.088929668
-0.17780542,-0.083130188
-0.17581977,-0.082653195
-0.17328247,-0.087446764
-0.17740393,-0.087335303
-0.17104918,-0.08870247
-0.17184217,-0.092482165
-0.16877928,-0.08733578
-0.17733493,-0.085924126
-0.17768832,-0.089031026
-0.18047458,-0.081288643
-0.17193347,-0.097408243
-0.1764857,-0.085211761
-0.17006953,-0.086460173
-0.17318474,-0.085658692
-0.17236963,-0.083273299
-0.17186782,-0.086156376
-0.16894911,-0.087703831
-0.16758808,-0.0853668
-0.17970815,-0.085808545
-0.17055897,-0.078220785
-0.16528492,-0.087322682
-0.17836048,-0.083014108
-0.17562704,-0.087677412
-0.17309576,-0.087087072
-0.17787758,-0.091984168
-0.17556417,-0.080317266
-0.17153308,-0.089254484
-0.172318,-0.085241117
-0.16828837,-0.081891753
-0.17086953,-0.0845927
-0.16706705,-0.083299987
-0.17285033,-0.088678166
-0.17851791,-0.091338769
-0.17100976,-0.089585766
-0.17042691,-0.08702711
-0.17372756,-0.092787251
-0.17349677,-0.084692582
-0.17390391,-0.087884575
-0.16968334,-0.090906411
-0.16923025,-0.085652314
-0.17245539,-0.085871622
-0.16962014,-0.082627602
-0.16999774,-0.091124728
-0.17279266,-0.088134073
-0.17755589,-0.088094711
-0.16860369,-0.085727885
-0.17147447,-0.083891466
-0.17021713,-0.080467053
-0.17061687,-0.08128649
-0.17064941,-0.088263921
-0.17518739,-0.086369805
-0.17687911,-0.086818531
-0.17305432,-0.086170614
-0.17287812,-0.084125772
-0.17481996,-0.087186128
-0.16936406,-0.086796016
-0.17371975,-0.079701133
-0.17483856,-0.088248424
-0.16515404,-0.087371722
-0.1751726,-0.088520199
-0.17167291,-0.089167029
-0.16957189,-0.088501386
-0.17186569,-0.081386141
-0.17003919,-0.086508647
-0.16820714,-0.087103523
-0.17525361,-0.084102832
-0.17561649,-0.083574593
-0.17001107,-0.08757548
-0.17290138,-0.089241244
-0.17852035,-0.082384415
-0.17203774,-0.090157442
-0.17705943,-0.084033832
-0.17124812,-0.087982781
-0.17209654,-0.088639632
-0.17122011,-0.089128047
-0.17059422,-0.09450873
-0.17761952,-0.081779361
-0.17401837,-0.091088071
-0.176156,-0.084888846
-0.17319825,-0.089649312
-0.17490539,-0.09321285
-0.16800989,-0.088909045
-0.17034814,-0.09120021
-0.17356426,-0.086104177
-0.17381835,-0.085428894
-0.17140815,-0.086870588
-0.17420039,-0.085165307
-0.17052428,-0.088805683
-0.17189752,-0.085640132
-0.17566311,-0.084609859
-0.17564474,-0.088378519
-0.16352387,-0.083006211
-0.17204717,-0.09274134
-0.17076816,-0.086113088
-0.1700843,-0.089125834
-0.17277679,-0.091295294
-0.17462608,-0.08789818
-0.17834006,-0.080328688
-0.17397167,-0.083436236
-0.17462815,-0.080787688
-0.17327751,-0.09023083
-0.17353623,-0.090096943
-0.17485021,-0.090514459
-0.16882394,-0.081222557
-0.17684454,-0.086680867
-0.17287454,-0.083062574
-0.17319016,-0.09063784
-0.17608044,-0.082450978
-0.1766655,-0.088120371
-0.17647316,-0.085329428
-0.1730517,-0.085514866
-0.17976278,-0.08604531
-0.17755218,-0.085931674
-0.17189889,-0.086993381
-0.17228347,-0.083530366
-0.16857885,-0.090252891
-0.17559828,-0.089893863
-0.17510074,-0.087169208
-0.17186998,-0.081574656
-0.16640897,-0.086085998
-0.1727583,-0.092907093
-0.16899674,-0.085991271
-0.17699075,-0.084679127
-0.16701131,-0.086467497
-0.17187595,-0.087725885
-0.17604195,-0.090537764
-0.17049259,-0.084226705
-0.17218344,-0.086975917
-0.1743066,-0.088112682
-0.17492832,-0.080972105
-0.17404759,-0.086903222
-0.17030562,-0.089559957
-0.16843927,-0.088608786
-0.1737428,-0.080780454
-0.18021077,-0.088488273
-0.17477348,-0.087068819
-0.17871268,-0.08615987
-0.1723493,-0.085580677
-0.17045932,-0.085314415
-0.16649872,-0.084661298
-0.17060402,-0.090522438
-0.1742819,-0.08670906
-0.17480719,-0.085047431
-0.17142446,-0.083988041
-0.16978525,-0.091619924
-0.16556548,-0.082601562
-0.17228067,-0.087371342
-0.17440444,-0.088825092
-0.1739151,-0.086270176
-0.17364277,-0.088170849
-0.17519145,-0.092252403
-0.1680261,-0.082383908
-0.1750204,-0.086142175
-0.17345653,-0.089182012
-0.17740095,-0.093394212
-0.17053397,-0.084847182
-0.17146106,-0.082414269
-0.17536803,-0.087962814
-0.17046949,-0.086518109
-0.17097712,-0.080477156
-0.17074853,-0.090044923
-0.17258075,-0.084045634
-0.16992027,-0.084594555
-0.17151001,-0.084961414
-0.17495508,-0.08934395
-0.17400916,-0.081935547
-0.17671691,-0.085470259
-0.17210504,-0.085789613
-0.17374898,-0.085995167
-0.17154379,-0.084252976
-0.17611672,-0.0869601
-0.17548324,-0.084644072
-0.17489807,-0.087207466
-0.17235124,-0.08030457
-0.17684127,-0.089306124
-0.17301191,-0.091021731
-0.1720251,-0.08384975
-0.17695777,-0.091418631
-0.17155947,-0.084114753
-0.17345613,-0.088298224
-0.17567116,-0.08498472
-0.17327541,-0.088932417
-0.17303877,-0.087250665
-0.17412044,-0.084085032
-0.17154449,-0.087189846
-0.16951807,-0.087770239
-0.17581129,-0.088408999
-0.1720272,-0.0845237
-0.17136392,-0.087487154
-0.18035094,-0.082811669
-0.17393044,-0.08552704
-0.17278002,-0.087677643
-0.17776912,-0.083156653
-0.17087615,-0.088399515
-0.17061791,-0.087482154
-0.17045328,-0.087205201
-0.17146397,-0.085709356
-0.17380114,-0.085851528
-0.17629485,-0.085085183
-0.17217444,-0.08776179
-0.17316318,-0.087169111
-0.17257527,-0.08576683
-0.17514133,-0.088190593
-0.17183255,-0.086116977
