CITIFILE A.01.01
!Agilent Technologies,N5230C,MY48100142,A.08.04.10
!Agilent N5230C: A.08.04.10
!Format: LogMag/Angle
!Date: Saturday, August 22, 2020 14:55:43
NAME CH1_DATA
VAR Power MAG 801
DATA S11 DBANGLE
DATA S21 DBANGLE
DATA S12 DBANGLE
DATA S22 DBANGLE
VAR_LIST_BEGIN
-40
-39.975
-39.95
-39.925
-39.9
-39.875
-39.85
-39.825
-39.8
-39.775
-39.75
-39.725
-39.7
-39.675
-39.65
-39.625
-39.6
-39.575
-39.55
-39.525
-39.5
-39.475
-39.45
-39.425
-39.4
-39.375
-39.35
-39.325
-39.3
-39.275
-39.25
-39.225
-39.2
-39.175
-39.15
-39.125
-39.1
-39.075
-39.05
-39.025
-39
-38.975
-38.95
-38.925
-38.9
-38.875
-38.85
-38.825
-38.8
-38.775
-38.75
-38.725
-38.7
-38.675
-38.65
-38.625
-38.6
-38.575
-38.55
-38.525
-38.5
-38.475
-38.45
-38.425
-38.4
-38.375
-38.35
-38.325
-38.3
-38.275
-38.25
-38.225
-38.2
-38.175
-38.15
-38.125
-38.1
-38.075
-38.05
-38.025
-38
-37.975
-37.95
-37.925
-37.9
-37.875
-37.85
-37.825
-37.8
-37.775
-37.75
-37.725
-37.7
-37.675
-37.65
-37.625
-37.6
-37.575
-37.55
-37.525
-37.5
-37.475
-37.45
-37.425
-37.4
-37.375
-37.35
-37.325
-37.3
-37.275
-37.25
-37.225
-37.2
-37.175
-37.15
-37.125
-37.1
-37.075
-37.05
-37.025
-37
-36.975
-36.95
-36.925
-36.9
-36.875
-36.85
-36.825
-36.8
-36.775
-36.75
-36.725
-36.7
-36.675
-36.65
-36.625
-36.6
-36.575
-36.55
-36.525
-36.5
-36.475
-36.45
-36.425
-36.4
-36.375
-36.35
-36.325
-36.3
-36.275
-36.25
-36.225
-36.2
-36.175
-36.15
-36.125
-36.1
-36.075
-36.05
-36.025
-36
-35.975
-35.95
-35.925
-35.9
-35.875
-35.85
-35.825
-35.8
-35.775
-35.75
-35.725
-35.7
-35.675
-35.65
-35.625
-35.6
-35.575
-35.55
-35.525
-35.5
-35.475
-35.45
-35.425
-35.4
-35.375
-35.35
-35.325
-35.3
-35.275
-35.25
-35.225
-35.2
-35.175
-35.15
-35.125
-35.1
-35.075
-35.05
-35.025
-35
-34.975
-34.95
-34.925
-34.9
-34.875
-34.85
-34.825
-34.8
-34.775
-34.75
-34.725
-34.7
-34.675
-34.65
-34.625
-34.6
-34.575
-34.55
-34.525
-34.5
-34.475
-34.45
-34.425
-34.4
-34.375
-34.35
-34.325
-34.3
-34.275
-34.25
-34.225
-34.2
-34.175
-34.15
-34.125
-34.1
-34.075
-34.05
-34.025
-34
-33.975
-33.95
-33.925
-33.9
-33.875
-33.85
-33.825
-33.8
-33.775
-33.75
-33.725
-33.7
-33.675
-33.65
-33.625
-33.6
-33.575
-33.55
-33.525
-33.5
-33.475
-33.45
-33.425
-33.4
-33.375
-33.35
-33.325
-33.3
-33.275
-33.25
-33.225
-33.2
-33.175
-33.15
-33.125
-33.1
-33.075
-33.05
-33.025
-33
-32.975
-32.95
-32.925
-32.9
-32.875
-32.85
-32.825
-32.8
-32.775
-32.75
-32.725
-32.7
-32.675
-32.65
-32.625
-32.6
-32.575
-32.55
-32.525
-32.5
-32.475
-32.45
-32.425
-32.4
-32.375
-32.35
-32.325
-32.3
-32.275
-32.25
-32.225
-32.2
-32.175
-32.15
-32.125
-32.1
-32.075
-32.05
-32.025
-32
-31.975
-31.95
-31.925
-31.9
-31.875
-31.85
-31.825
-31.8
-31.775
-31.75
-31.725
-31.7
-31.675
-31.65
-31.625
-31.6
-31.575
-31.55
-31.525
-31.5
-31.475
-31.45
-31.425
-31.4
-31.375
-31.35
-31.325
-31.3
-31.275
-31.25
-31.225
-31.2
-31.175
-31.15
-31.125
-31.1
-31.075
-31.05
-31.025
-31
-30.975
-30.95
-30.925
-30.9
-30.875
-30.85
-30.825
-30.8
-30.775
-30.75
-30.725
-30.7
-30.675
-30.65
-30.625
-30.6
-30.575
-30.55
-30.525
-30.5
-30.475
-30.45
-30.425
-30.4
-30.375
-30.35
-30.325
-30.3
-30.275
-30.25
-30.225
-30.2
-30.175
-30.15
-30.125
-30.1
-30.075
-30.05
-30.025
-30
-29.975
-29.95
-29.925
-29.9
-29.875
-29.85
-29.825
-29.8
-29.775
-29.75
-29.725
-29.7
-29.675
-29.65
-29.625
-29.6
-29.575
-29.55
-29.525
-29.5
-29.475
-29.45
-29.425
-29.4
-29.375
-29.35
-29.325
-29.3
-29.275
-29.25
-29.225
-29.2
-29.175
-29.15
-29.125
-29.1
-29.075
-29.05
-29.025
-29
-28.975
-28.95
-28.925
-28.9
-28.875
-28.85
-28.825
-28.8
-28.775
-28.75
-28.725
-28.7
-28.675
-28.65
-28.625
-28.6
-28.575
-28.55
-28.525
-28.5
-28.475
-28.45
-28.425
-28.4
-28.375
-28.35
-28.325
-28.3
-28.275
-28.25
-28.225
-28.2
-28.175
-28.15
-28.125
-28.1
-28.075
-28.05
-28.025
-28
-27.975
-27.95
-27.925
-27.9
-27.875
-27.85
-27.825
-27.8
-27.775
-27.75
-27.725
-27.7
-27.675
-27.65
-27.625
-27.6
-27.575
-27.55
-27.525
-27.5
-27.475
-27.45
-27.425
-27.4
-27.375
-27.35
-27.325
-27.3
-27.275
-27.25
-27.225
-27.2
-27.175
-27.15
-27.125
-27.1
-27.075
-27.05
-27.025
-27
-26.975
-26.95
-26.925
-26.9
-26.875
-26.85
-26.825
-26.8
-26.775
-26.75
-26.725
-26.7
-26.675
-26.65
-26.625
-26.6
-26.575
-26.55
-26.525
-26.5
-26.475
-26.45
-26.425
-26.4
-26.375
-26.35
-26.325
-26.3
-26.275
-26.25
-26.225
-26.2
-26.175
-26.15
-26.125
-26.1
-26.075
-26.05
-26.025
-26
-25.975
-25.95
-25.925
-25.9
-25.875
-25.85
-25.825
-25.8
-25.775
-25.75
-25.725
-25.7
-25.675
-25.65
-25.625
-25.6
-25.575
-25.55
-25.525
-25.5
-25.475
-25.45
-25.425
-25.4
-25.375
-25.35
-25.325
-25.3
-25.275
-25.25
-25.225
-25.2
-25.175
-25.15
-25.125
-25.1
-25.075
-25.05
-25.025
-25
-24.975
-24.95
-24.925
-24.9
-24.875
-24.85
-24.825
-24.8
-24.775
-24.75
-24.725
-24.7
-24.675
-24.65
-24.625
-24.6
-24.575
-24.55
-24.525
-24.5
-24.475
-24.45
-24.425
-24.4
-24.375
-24.35
-24.325
-24.3
-24.275
-24.25
-24.225
-24.2
-24.175
-24.15
-24.125
-24.1
-24.075
-24.05
-24.025
-24
-23.975
-23.95
-23.925
-23.9
-23.875
-23.85
-23.825
-23.8
-23.775
-23.75
-23.725
-23.7
-23.675
-23.65
-23.625
-23.6
-23.575
-23.55
-23.525
-23.5
-23.475
-23.45
-23.425
-23.4
-23.375
-23.35
-23.325
-23.3
-23.275
-23.25
-23.225
-23.2
-23.175
-23.15
-23.125
-23.1
-23.075
-23.05
-23.025
-23
-22.975
-22.95
-22.925
-22.9
-22.875
-22.85
-22.825
-22.8
-22.775
-22.75
-22.725
-22.7
-22.675
-22.65
-22.625
-22.6
-22.575
-22.55
-22.525
-22.5
-22.475
-22.45
-22.425
-22.4
-22.375
-22.35
-22.325
-22.3
-22.275
-22.25
-22.225
-22.2
-22.175
-22.15
-22.125
-22.1
-22.075
-22.05
-22.025
-22
-21.975
-21.95
-21.925
-21.9
-21.875
-21.85
-21.825
-21.8
-21.775
-21.75
-21.725
-21.7
-21.675
-21.65
-21.625
-21.6
-21.575
-21.55
-21.525
-21.5
-21.475
-21.45
-21.425
-21.4
-21.375
-21.35
-21.325
-21.3
-21.275
-21.25
-21.225
-21.2
-21.175
-21.15
-21.125
-21.1
-21.075
-21.05
-21.025
-21
-20.975
-20.95
-20.925
-20.9
-20.875
-20.85
-20.825
-20.8
-20.775
-20.75
-20.725
-20.7
-20.675
-20.65
-20.625
-20.6
-20.575
-20.55
-20.525
-20.5
-20.475
-20.45
-20.425
-20.4
-20.375
-20.35
-20.325
-20.3
-20.275
-20.25
-20.225
-20.2
-20.175
-20.15
-20.125
-20.1
-20.075
-20.05
-20.025
-20
VAR_LIST_END
BEGIN
-14.503278,-155.13339
-15.063095,-156.66956
-14.408886,-164.82117
-14.812431,-158.05409
-15.49773,-156.2142
-15.163282,-154.85704
-14.65656,-158.02321
-15.679788,-149.13968
-14.412345,-160.49918
-15.536624,-157.47873
-15.537359,-156.34341
-14.688374,-152.69879
-14.673496,-160.16623
-14.853068,-155.61104
-14.636875,-159.50667
-15.854837,-153.49228
-14.93242,-157.76973
-15.777305,-157.39554
-14.892986,-160.10425
-14.863571,-159.00652
-15.593984,-152.77702
-15.386824,-157.67999
-15.011549,-161.22908
-14.75653,-163.29002
-16.035006,-153.95049
-15.278152,-162.51962
-14.787396,-161.13905
-15.303705,-161.03224
-15.248203,-156.54141
-15.518807,-159.44646
-15.176923,-158.48589
-16.235071,-165.4362
-14.680156,-157.10812
-15.295355,-156.66031
-15.319843,-161.00516
-14.780673,-159.2702
-15.498739,-156.5266
-14.222169,-160.52077
-15.150238,-159.67041
-14.801105,-156.7034
-14.701368,-166.00685
-14.755234,-160.53117
-15.176359,-154.56763
-14.04804,-160.11978
-14.929202,-158.20456
-15.698703,-157.45888
-14.591659,-166.65842
-14.547113,-155.52173
-15.223029,-154.47768
-14.674921,-158.32202
-14.578573,-157.6653
-14.744925,-156.23616
-15.095879,-160.89105
-15.416811,-161.7603
-15.386954,-150.97466
-14.018306,-159.89142
-15.114649,-157.65392
-15.52866,-156.72922
-14.617916,-155.22672
-15.865593,-154.77983
-15.121436,-160.07823
-15.239128,-162.92307
-15.112477,-159.5105
-16.017128,-161.86705
-14.60858,-165.56123
-15.50966,-159.32628
-14.799227,-156.98285
-14.63345,-160.23228
-15.073715,-160.73618
-15.19926,-155.07289
-14.573895,-158.58861
-14.703557,-159.55531
-15.002921,-160.03958
-15.696803,-164.20634
-14.852593,-156.86568
-14.487703,-160.60397
-14.916862,-160.95338
-14.791977,-161.25383
-15.334074,-154.68878
-15.261219,-155.65671
-15.22883,-160.65224
-14.586997,-159.7661
-15.465136,-164.32681
-15.240507,-159.18127
-14.7568,-155.00713
-15.797204,-161.80627
-14.894116,-156.12239
-14.903158,-160.93405
-14.89056,-159.56386
-15.070136,-160.34763
-14.689098,-166.02028
-15.054986,-162.93326
-15.580027,-160.2086
-15.14503,-158.85164
-15.481623,-159.77452
-15.59814,-158.09221
-14.968981,-161.02734
-15.053576,-161.11937
-14.541583,-158.0206
-14.91175,-162.78543
-14.638724,-158.9942
-15.257566,-160.44643
-14.862082,-157.74728
-14.558667,-159.06775
-14.8969,-159.09555
-14.97436,-158.66325
-15.492854,-162.29642
-14.465639,-157.41197
-15.603794,-159.00151
-14.881788,-161.08598
-15.425988,-160.2802
-14.969896,-156.97908
-14.561503,-155.56691
-15.224809,-160.56506
-15.364779,-157.26459
-15.347176,-158.92064
-14.930062,-155.51834
-15.670227,-157.91617
-15.203182,-156.59502
-14.927513,-157.54422
-15.020501,-159.47264
-15.195642,-160.04921
-15.666098,-158.88042
-14.171373,-157.74594
-15.464231,-158.62126
-15.501194,-155.49982
-14.741497,-160.38106
-14.948141,-158.35326
-15.397824,-159.71008
-15.151645,-156.17587
-14.515368,-161.21953
-15.192447,-159.33429
-14.379575,-158.79599
-15.133267,-157.79753
-14.515119,-157.83315
-14.749495,-159.84889
-14.834237,-160.84457
-15.411515,-158.73869
-14.984303,-161.13861
-14.232587,-155.73398
-14.82599,-154.3485
-14.958463,-162.07317
-15.506932,-161.01907
-14.638325,-155.08643
-14.668208,-156.82208
-15.01774,-156.87981
-15.305667,-158.74184
-14.874605,-163.07733
-14.638472,-161.41824
-15.003988,-158.85359
-15.076817,-161.64261
-15.356569,-160.68401
-14.769288,-158.68222
-14.969206,-157.76411
-15.19686,-156.23608
-14.890139,-157.25267
-15.244905,-162.57277
-15.375459,-160.9971
-15.251763,-156.36452
-14.381585,-161.33806
-14.604237,-158.50365
-14.822633,-159.82993
-14.523329,-157.17192
-14.598377,-158.33076
-14.283739,-160.21904
-14.857978,-157.28381
-15.528329,-155.37685
-15.174558,-158.26865
-15.026612,-161.05424
-14.949007,-159.20908
-15.148537,-156.22086
-15.273583,-159.18837
-14.888383,-164.36687
-14.947296,-155.11206
-14.820836,-156.01837
-15.062028,-159.43242
-14.577556,-161.88307
-14.627064,-158.9269
-15.172905,-154.10788
-15.190027,-157.1161
-14.858471,-155.7041
-14.536437,-159.10912
-15.0004,-158.99171
-14.623173,-158.52518
-14.617064,-156.6545
-14.978549,-159.91132
-14.79071,-161.09674
-15.280195,-153.63612
-14.467828,-161.9576
-14.88569,-156.52325
-15.279321,-160.03326
-15.273207,-150.67007
-14.810296,-163.37076
-14.954952,-160.50648
-15.420267,-159.00603
-15.444196,-160.94482
-14.534185,-158.91603
-14.703573,-159.25969
-14.850883,-160.76607
-14.960403,-159.48639
-14.884784,-157.38533
-14.917439,-159.3329
-14.71666,-156.81294
-15.03979,-159.48703
-14.769498,-156.39198
-15.056319,-160.50494
-14.930419,-158.45441
-15.184587,-154.72739
-14.60358,-159.48442
-14.576848,-162.02626
-14.781558,-156.70782
-14.75563,-159.3452
-15.18847,-158.93379
-15.161859,-159.50354
-14.799557,-162.90692
-14.692224,-160.23938
-15.195545,-158.17645
-15.080142,-159.00388
-14.651269,-158.1908
-15.098516,-159.29883
-14.867719,-160.67528
-15.084774,-160.55963
-14.62154,-156.40514
-15.857443,-160.06023
-15.194345,-158.69864
-14.805136,-154.78569
-15.004467,-156.0563
-14.682167,-161.87552
-15.195259,-155.03333
-14.982616,-156.56668
-14.859621,-155.0809
-15.144074,-161.68294
-15.234588,-159.05968
-15.197005,-158.00197
-15.128709,-157.40967
-14.781223,-159.56888
-14.955487,-160.48523
-14.746318,-157.53354
-14.9888,-156.60286
-15.297647,-158.56468
-14.783205,-159.23685
-15.201881,-157.22697
-14.319987,-159.68896
-15.173466,-159.23637
-15.268779,-160.13303
-15.068485,-157.17465
-15.305928,-158.81168
-15.273366,-159.03664
-14.882485,-157.54149
-15.124219,-158.49345
-14.954901,-159.07594
-15.295717,-160.05363
-15.133024,-160.75635
-14.999266,-157.47366
-15.185355,-158.32307
-15.064631,-163.81367
-14.854465,-161.5417
-14.926811,-159.13161
-14.881138,-159.82738
-15.264491,-157.51828
-14.87427,-159.49063
-15.268044,-159.26192
-15.663748,-159.2809
-14.957938,-158.5228
-15.122554,-159.27647
-15.377955,-159.25511
-14.964604,-161.15594
-15.219856,-156.53708
-14.862314,-157.77361
-15.186703,-162.38361
-14.94652,-162.20427
-15.098373,-161.87985
-14.871799,-159.55334
-15.061247,-159.26508
-15.072763,-158.16762
-14.534894,-159.53308
-14.559307,-159.98228
-14.902982,-157.56375
-15.109889,-157.35558
-15.444477,-159.08678
-14.571742,-158.92668
-14.78588,-161.50952
-15.13745,-157.07915
-15.153048,-161.76164
-15.318677,-160.7886
-14.815108,-159.10121
-14.85462,-162.83081
-15.055769,-158.11871
-14.956659,-159.6608
-15.440337,-161.9153
-14.727144,-159.52888
-15.543396,-158.46449
-14.939877,-156.55318
-15.042116,-157.98386
-15.233307,-158.47356
-14.909604,-158.99297
-15.139756,-161.02089
-15.134498,-158.05635
-14.948571,-157.46313
-15.199986,-158.39969
-14.908171,-160.70358
-15.043152,-155.78712
-15.273962,-159.50189
-14.753252,-157.20132
-15.201857,-158.41563
-14.571763,-159.12766
-14.678549,-159.84869
-15.178038,-159.4091
-14.974781,-159.48203
-15.075177,-158.58081
-15.151402,-159.84489
-15.03653,-158.14767
-14.784559,-161.11896
-15.20584,-158.7702
-14.884445,-160.57693
-15.275255,-156.70193
-14.649769,-159.21344
-14.836336,-157.46422
-14.920486,-158.60141
-15.272501,-160.08643
-14.975711,-158.60901
-15.082893,-156.19211
-15.373488,-159.48546
-15.218295,-158.78441
-15.155352,-158.96446
-14.988889,-158.7903
-15.004436,-159.07574
-15.141319,-158.92024
-14.96473,-161.81413
-15.088443,-159.04416
-15.29895,-159.54369
-14.848178,-158.43419
-15.614223,-159.08517
-14.887978,-158.92661
-15.371692,-160.5428
-15.121419,-159.27342
-15.004109,-158.22815
-15.051003,-160.74422
-14.768756,-156.80635
-14.893896,-157.63652
-15.110666,-158.71529
-14.850252,-159.25047
-15.265771,-162.5233
-15.049924,-158.87326
-15.030923,-159.62236
-14.826034,-156.24512
-15.266353,-158.48325
-14.943834,-161.69093
-14.897597,-155.76509
-14.750775,-159.90523
-14.99246,-159.39107
-14.745845,-158.26083
-15.336304,-157.30283
-14.850882,-159.83943
-15.089876,-159.2964
-15.290561,-159.70421
-15.410739,-157.0209
-15.233317,-158.6479
-15.075186,-159.29385
-14.767695,-161.13748
-15.121396,-159.4615
-14.973424,-159.57913
-15.175062,-159.92671
-15.126858,-159.02682
-14.915991,-161.6833
-14.970554,-159.16664
-15.313024,-156.66754
-15.002501,-156.70551
-15.197566,-160.10435
-15.104617,-161.01788
-14.864997,-159.63289
-15.023141,-157.83398
-14.749221,-158.32585
-15.179215,-157.78102
-15.272923,-158.8307
-14.896416,-155.90961
-15.155149,-159.04099
-15.161716,-158.04829
-14.81988,-157.186
-15.228426,-158.4016
-14.726493,-160.53044
-14.940934,-158.64914
-15.323144,-159.6591
-15.134841,-155.82628
-15.05132,-159.81526
-15.125106,-157.78815
-15.015051,-159.25459
-14.933705,-159.67377
-14.856382,-159.38454
-14.888101,-158.35954
-15.052704,-159.10013
-14.758509,-158.06544
-15.057171,-160.13188
-14.924803,-158.84602
-14.716617,-158.88481
-15.228812,-156.68414
-14.970426,-158.35312
-14.949353,-158.87402
-15.266485,-158.07762
-15.115236,-159.34866
-15.038678,-159.8587
-15.103338,-159.90208
-14.902271,-160.90817
-15.134895,-160.39139
-15.196006,-159.53862
-15.03727,-158.20024
-14.925073,-160.53934
-15.289997,-159.14682
-15.43086,-159.45314
-14.920519,-158.39589
-14.936714,-160.3694
-15.077093,-159.6754
-15.116012,-159.97017
-15.089501,-156.8252
-15.150264,-159.91945
-14.873283,-159.18625
-14.672779,-159.71382
-14.647516,-157.91969
-15.071642,-156.74405
-15.30404,-158.7673
-14.934602,-159.0071
-15.124329,-159.70154
-15.020269,-157.76938
-14.913095,-158.77721
-14.827863,-158.92905
-14.649954,-159.26567
-15.117487,-159.46002
-14.773835,-158.76303
-14.833089,-157.39555
-15.114421,-159.73894
-15.006839,-158.21991
-15.032309,-157.25104
-15.140744,-157.95938
-15.110318,-159.18504
-14.962401,-156.8217
-14.883663,-158.51852
-15.175328,-158.40552
-14.886437,-159.43315
-15.101598,-158.5816
-14.994336,-160.12601
-15.302035,-158.66743
-14.970389,-157.55559
-14.98457,-156.99011
-15.067748,-160.00487
-15.110617,-158.99292
-15.215088,-159.39867
-15.009509,-158.53883
-14.918481,-156.92097
-15.037714,-159.99422
-14.794176,-159.33806
-15.015596,-158.14604
-15.042103,-159.41089
-15.232755,-159.89488
-14.75682,-158.02109
-14.856754,-159.04185
-15.070748,-158.30945
-14.968946,-158.97607
-15.197971,-158.06184
-14.634134,-157.81013
-15.119453,-159.28937
-14.913232,-158.18105
-15.028206,-156.78677
-14.824498,-159.46016
-15.026339,-157.99936
-14.937154,-158.33969
-14.91154,-159.64722
-15.121023,-158.84584
-14.919665,-157.69527
-15.235538,-159.40221
-14.986287,-156.05341
-14.852471,-158.87738
-14.826296,-159.95863
-14.896624,-159.26865
-15.093772,-158.50398
-15.059146,-160.32568
-15.05302,-159.32175
-15.075237,-157.64256
-15.041656,-158.35876
-15.117202,-157.87854
-14.977144,-159.63649
-15.089266,-158.82721
-14.809312,-157.49394
-15.084042,-157.61652
-14.907447,-159.35757
-15.321999,-159.52681
-15.249807,-158.98239
-14.915372,-159.77254
-15.036695,-157.34683
-14.923436,-160.50398
-14.758104,-158.46579
-14.831772,-160.09302
-15.236498,-160.32983
-14.904993,-159.6302
-15.036633,-159.16498
-15.017595,-157.55009
-14.979078,-160.11642
-14.884742,-158.71844
-15.269092,-158.66196
-14.895919,-157.58138
-15.099734,-158.39139
-15.004458,-159.18375
-15.010851,-158.66283
-14.803329,-158.91362
-15.027005,-158.96744
-14.818911,-159.88242
-15.179655,-159.89561
-15.233705,-159.50679
-15.080869,-159.81377
-14.858928,-158.00484
-15.07759,-158.90782
-15.01356,-158.34688
-14.854961,-158.76614
-14.684833,-160.55843
-15.07973,-158.90288
-14.885946,-157.69168
-15.215617,-158.30716
-14.971147,-159.72736
-14.953148,-158.58702
-14.920213,-158.66281
-14.886827,-157.71211
-14.93045,-159.09877
-14.906497,-157.91917
-15.005565,-157.17076
-15.320579,-159.31163
-14.911004,-158.59529
-14.835137,-158.62411
-15.013906,-156.59253
-15.078233,-158.63115
-15.066065,-158.62891
-14.878943,-158.54614
-14.849812,-158.52092
-14.913436,-157.71857
-14.943742,-157.90874
-15.070903,-158.98405
-15.090913,-159.36311
-14.882361,-157.25514
-14.747463,-159.95085
-14.987157,-158.59708
-15.181521,-158.84419
-14.974894,-159.67725
-15.249805,-158.80263
-15.193658,-157.76251
-15.081272,-161.05176
-14.810754,-159.17163
-14.761622,-159.01328
-15.135227,-158.80823
-14.797089,-159.13387
-15.087481,-160.75551
-15.102004,-159.85869
-15.190006,-159.37425
-15.009647,-158.2923
-15.077939,-158.02856
-14.909961,-159.54552
-14.907842,-158.34344
-15.059248,-157.81784
-15.102509,-159.63356
-14.988895,-159.51245
-14.80391,-158.55638
-14.928548,-159.86983
-14.83167,-159.24567
-15.04276,-158.76418
-15.146593,-158.9942
-14.845216,-157.73051
-15.136669,-158.60783
-14.928892,-158.93053
-14.898681,-158.63693
-14.842253,-159.45651
-15.010848,-157.56544
-14.85702,-158.62296
-14.931833,-158.20978
-14.790782,-157.99583
-14.949565,-158.01871
-15.027188,-159.39426
-14.947289,-157.90413
-14.851558,-158.1577
