CITIFILE A.01.01
!Agilent Technologies,N5230C,MY48100142,A.08.04.10
!Agilent N5230C: A.08.04.10
!Format: LogMag/Angle
!Date: Wednesday, September 16, 2020 12:18:03
NAME CH1_DATA
VAR Power MAG 801
DATA S11 DBANGLE
DATA S21 DBANGLE
DATA S12 DBANGLE
DATA S22 DBANGLE
VAR_LIST_BEGIN
-40
-39.975
-39.95
-39.925
-39.9
-39.875
-39.85
-39.825
-39.8
-39.775
-39.75
-39.725
-39.7
-39.675
-39.65
-39.625
-39.6
-39.575
-39.55
-39.525
-39.5
-39.475
-39.45
-39.425
-39.4
-39.375
-39.35
-39.325
-39.3
-39.275
-39.25
-39.225
-39.2
-39.175
-39.15
-39.125
-39.1
-39.075
-39.05
-39.025
-39
-38.975
-38.95
-38.925
-38.9
-38.875
-38.85
-38.825
-38.8
-38.775
-38.75
-38.725
-38.7
-38.675
-38.65
-38.625
-38.6
-38.575
-38.55
-38.525
-38.5
-38.475
-38.45
-38.425
-38.4
-38.375
-38.35
-38.325
-38.3
-38.275
-38.25
-38.225
-38.2
-38.175
-38.15
-38.125
-38.1
-38.075
-38.05
-38.025
-38
-37.975
-37.95
-37.925
-37.9
-37.875
-37.85
-37.825
-37.8
-37.775
-37.75
-37.725
-37.7
-37.675
-37.65
-37.625
-37.6
-37.575
-37.55
-37.525
-37.5
-37.475
-37.45
-37.425
-37.4
-37.375
-37.35
-37.325
-37.3
-37.275
-37.25
-37.225
-37.2
-37.175
-37.15
-37.125
-37.1
-37.075
-37.05
-37.025
-37
-36.975
-36.95
-36.925
-36.9
-36.875
-36.85
-36.825
-36.8
-36.775
-36.75
-36.725
-36.7
-36.675
-36.65
-36.625
-36.6
-36.575
-36.55
-36.525
-36.5
-36.475
-36.45
-36.425
-36.4
-36.375
-36.35
-36.325
-36.3
-36.275
-36.25
-36.225
-36.2
-36.175
-36.15
-36.125
-36.1
-36.075
-36.05
-36.025
-36
-35.975
-35.95
-35.925
-35.9
-35.875
-35.85
-35.825
-35.8
-35.775
-35.75
-35.725
-35.7
-35.675
-35.65
-35.625
-35.6
-35.575
-35.55
-35.525
-35.5
-35.475
-35.45
-35.425
-35.4
-35.375
-35.35
-35.325
-35.3
-35.275
-35.25
-35.225
-35.2
-35.175
-35.15
-35.125
-35.1
-35.075
-35.05
-35.025
-35
-34.975
-34.95
-34.925
-34.9
-34.875
-34.85
-34.825
-34.8
-34.775
-34.75
-34.725
-34.7
-34.675
-34.65
-34.625
-34.6
-34.575
-34.55
-34.525
-34.5
-34.475
-34.45
-34.425
-34.4
-34.375
-34.35
-34.325
-34.3
-34.275
-34.25
-34.225
-34.2
-34.175
-34.15
-34.125
-34.1
-34.075
-34.05
-34.025
-34
-33.975
-33.95
-33.925
-33.9
-33.875
-33.85
-33.825
-33.8
-33.775
-33.75
-33.725
-33.7
-33.675
-33.65
-33.625
-33.6
-33.575
-33.55
-33.525
-33.5
-33.475
-33.45
-33.425
-33.4
-33.375
-33.35
-33.325
-33.3
-33.275
-33.25
-33.225
-33.2
-33.175
-33.15
-33.125
-33.1
-33.075
-33.05
-33.025
-33
-32.975
-32.95
-32.925
-32.9
-32.875
-32.85
-32.825
-32.8
-32.775
-32.75
-32.725
-32.7
-32.675
-32.65
-32.625
-32.6
-32.575
-32.55
-32.525
-32.5
-32.475
-32.45
-32.425
-32.4
-32.375
-32.35
-32.325
-32.3
-32.275
-32.25
-32.225
-32.2
-32.175
-32.15
-32.125
-32.1
-32.075
-32.05
-32.025
-32
-31.975
-31.95
-31.925
-31.9
-31.875
-31.85
-31.825
-31.8
-31.775
-31.75
-31.725
-31.7
-31.675
-31.65
-31.625
-31.6
-31.575
-31.55
-31.525
-31.5
-31.475
-31.45
-31.425
-31.4
-31.375
-31.35
-31.325
-31.3
-31.275
-31.25
-31.225
-31.2
-31.175
-31.15
-31.125
-31.1
-31.075
-31.05
-31.025
-31
-30.975
-30.95
-30.925
-30.9
-30.875
-30.85
-30.825
-30.8
-30.775
-30.75
-30.725
-30.7
-30.675
-30.65
-30.625
-30.6
-30.575
-30.55
-30.525
-30.5
-30.475
-30.45
-30.425
-30.4
-30.375
-30.35
-30.325
-30.3
-30.275
-30.25
-30.225
-30.2
-30.175
-30.15
-30.125
-30.1
-30.075
-30.05
-30.025
-30
-29.975
-29.95
-29.925
-29.9
-29.875
-29.85
-29.825
-29.8
-29.775
-29.75
-29.725
-29.7
-29.675
-29.65
-29.625
-29.6
-29.575
-29.55
-29.525
-29.5
-29.475
-29.45
-29.425
-29.4
-29.375
-29.35
-29.325
-29.3
-29.275
-29.25
-29.225
-29.2
-29.175
-29.15
-29.125
-29.1
-29.075
-29.05
-29.025
-29
-28.975
-28.95
-28.925
-28.9
-28.875
-28.85
-28.825
-28.8
-28.775
-28.75
-28.725
-28.7
-28.675
-28.65
-28.625
-28.6
-28.575
-28.55
-28.525
-28.5
-28.475
-28.45
-28.425
-28.4
-28.375
-28.35
-28.325
-28.3
-28.275
-28.25
-28.225
-28.2
-28.175
-28.15
-28.125
-28.1
-28.075
-28.05
-28.025
-28
-27.975
-27.95
-27.925
-27.9
-27.875
-27.85
-27.825
-27.8
-27.775
-27.75
-27.725
-27.7
-27.675
-27.65
-27.625
-27.6
-27.575
-27.55
-27.525
-27.5
-27.475
-27.45
-27.425
-27.4
-27.375
-27.35
-27.325
-27.3
-27.275
-27.25
-27.225
-27.2
-27.175
-27.15
-27.125
-27.1
-27.075
-27.05
-27.025
-27
-26.975
-26.95
-26.925
-26.9
-26.875
-26.85
-26.825
-26.8
-26.775
-26.75
-26.725
-26.7
-26.675
-26.65
-26.625
-26.6
-26.575
-26.55
-26.525
-26.5
-26.475
-26.45
-26.425
-26.4
-26.375
-26.35
-26.325
-26.3
-26.275
-26.25
-26.225
-26.2
-26.175
-26.15
-26.125
-26.1
-26.075
-26.05
-26.025
-26
-25.975
-25.95
-25.925
-25.9
-25.875
-25.85
-25.825
-25.8
-25.775
-25.75
-25.725
-25.7
-25.675
-25.65
-25.625
-25.6
-25.575
-25.55
-25.525
-25.5
-25.475
-25.45
-25.425
-25.4
-25.375
-25.35
-25.325
-25.3
-25.275
-25.25
-25.225
-25.2
-25.175
-25.15
-25.125
-25.1
-25.075
-25.05
-25.025
-25
-24.975
-24.95
-24.925
-24.9
-24.875
-24.85
-24.825
-24.8
-24.775
-24.75
-24.725
-24.7
-24.675
-24.65
-24.625
-24.6
-24.575
-24.55
-24.525
-24.5
-24.475
-24.45
-24.425
-24.4
-24.375
-24.35
-24.325
-24.3
-24.275
-24.25
-24.225
-24.2
-24.175
-24.15
-24.125
-24.1
-24.075
-24.05
-24.025
-24
-23.975
-23.95
-23.925
-23.9
-23.875
-23.85
-23.825
-23.8
-23.775
-23.75
-23.725
-23.7
-23.675
-23.65
-23.625
-23.6
-23.575
-23.55
-23.525
-23.5
-23.475
-23.45
-23.425
-23.4
-23.375
-23.35
-23.325
-23.3
-23.275
-23.25
-23.225
-23.2
-23.175
-23.15
-23.125
-23.1
-23.075
-23.05
-23.025
-23
-22.975
-22.95
-22.925
-22.9
-22.875
-22.85
-22.825
-22.8
-22.775
-22.75
-22.725
-22.7
-22.675
-22.65
-22.625
-22.6
-22.575
-22.55
-22.525
-22.5
-22.475
-22.45
-22.425
-22.4
-22.375
-22.35
-22.325
-22.3
-22.275
-22.25
-22.225
-22.2
-22.175
-22.15
-22.125
-22.1
-22.075
-22.05
-22.025
-22
-21.975
-21.95
-21.925
-21.9
-21.875
-21.85
-21.825
-21.8
-21.775
-21.75
-21.725
-21.7
-21.675
-21.65
-21.625
-21.6
-21.575
-21.55
-21.525
-21.5
-21.475
-21.45
-21.425
-21.4
-21.375
-21.35
-21.325
-21.3
-21.275
-21.25
-21.225
-21.2
-21.175
-21.15
-21.125
-21.1
-21.075
-21.05
-21.025
-21
-20.975
-20.95
-20.925
-20.9
-20.875
-20.85
-20.825
-20.8
-20.775
-20.75
-20.725
-20.7
-20.675
-20.65
-20.625
-20.6
-20.575
-20.55
-20.525
-20.5
-20.475
-20.45
-20.425
-20.4
-20.375
-20.35
-20.325
-20.3
-20.275
-20.25
-20.225
-20.2
-20.175
-20.15
-20.125
-20.1
-20.075
-20.05
-20.025
-20
VAR_LIST_END
BEGIN
-14.759686,-160.31943
-15.095531,-160.39957
-14.312411,-158.61031
-14.973485,-162.86853
-15.863008,-148.47728
-15.718595,-154.99384
-14.991475,-163.36378
-14.792382,-163.05777
-14.802833,-159.31529
-15.33119,-159.91144
-15.302518,-161.71431
-15.00717,-164.20169
-15.265796,-163.39812
-14.530486,-160.21292
-15.726182,-166.57149
-14.856536,-159.28171
-14.805114,-155.90668
-15.379335,-155.06512
-14.623283,-162.81248
-13.937827,-160.60773
-15.764333,-158.81775
-14.814639,-155.13203
-15.261087,-165.57367
-15.985508,-165.89716
-15.488524,-162.31564
-15.569124,-158.25587
-15.764029,-161.63167
-14.798107,-157.75589
-14.37838,-161.26222
-14.725676,-164.05287
-14.30481,-160.60211
-14.742917,-156.34354
-15.678697,-160.01117
-14.982381,-160.68765
-16.043673,-154.27837
-15.638533,-163.96379
-15.623095,-157.48407
-15.306731,-157.93901
-15.365495,-159.27238
-15.049259,-163.29446
-15.319844,-153.43361
-14.606973,-161.68246
-14.389124,-159.52509
-15.563926,-161.35701
-15.200827,-164.55678
-14.625656,-162.90338
-15.338161,-160.95013
-14.583676,-163.68419
-15.268629,-168.68845
-14.490218,-159.90456
-14.949481,-156.91219
-15.191379,-160.28886
-14.721033,-160.86699
-14.875205,-159.34273
-15.683619,-161.46259
-15.660614,-156.4977
-14.924541,-162.39438
-15.496655,-161.31482
-15.038,-159.9144
-14.923428,-161.62309
-15.703233,-153.25246
-15.320674,-159.3163
-14.978597,-162.08577
-15.403344,-163.95175
-15.924113,-166.99039
-15.307227,-159.22803
-15.448069,-163.69391
-15.318703,-157.42207
-14.83783,-160.92508
-15.092572,-157.95549
-15.266855,-162.15594
-15.234927,-159.02792
-15.140121,-163.99527
-14.717887,-156.56854
-14.873246,-166.2131
-15.400753,-160.49835
-15.513238,-162.12215
-15.219192,-157.1973
-14.411964,-158.14781
-15.39131,-165.65544
-15.660033,-162.06053
-14.49595,-161.99016
-15.403783,-162.56805
-15.006806,-158.2617
-14.372642,-166.25835
-15.129369,-158.15213
-14.643214,-157.32536
-15.187922,-158.37492
-14.465367,-162.57565
-15.488862,-162.47711
-14.388514,-162.21109
-15.488607,-158.4543
-15.227697,-161.28108
-15.179636,-162.28088
-15.314958,-157.49248
-14.607005,-159.00502
-15.461315,-163.40642
-15.321036,-160.83455
-14.625515,-165.26067
-15.541304,-162.22981
-14.722096,-161.75967
-15.20725,-159.52248
-14.979308,-157.36041
-14.803309,-160.35968
-14.956666,-163.83043
-15.275461,-161.74385
-14.849289,-162.58145
-14.96292,-161.7484
-14.897502,-162.88353
-14.767087,-163.75989
-15.188494,-160.95143
-15.329466,-162.53311
-15.940069,-158.09978
-15.155916,-163.08527
-14.942246,-164.81152
-15.436839,-161.51164
-15.58479,-160.66798
-15.429692,-157.80087
-15.134716,-160.31561
-14.983177,-163.92117
-15.03867,-158.63274
-15.675743,-159.80452
-15.141539,-162.51996
-14.838566,-159.27812
-15.286475,-161.72235
-15.152587,-161.50931
-15.364323,-159.36719
-14.445664,-163.59258
-15.36152,-160.8591
-15.447901,-160.5798
-15.049854,-161.21004
-15.104207,-161.49625
-15.175108,-161.53043
-15.047854,-160.3979
-15.336915,-157.97446
-14.645325,-159.65028
-15.239818,-163.9989
-15.375022,-156.71519
-15.132671,-162.21703
-14.793341,-159.15764
-15.11808,-162.62752
-14.645137,-159.22247
-14.679572,-161.0126
-15.674584,-161.60443
-15.532033,-162.95416
-15.511685,-156.62059
-14.771106,-162.91795
-15.348785,-160.46608
-15.141881,-158.24254
-15.143642,-160.58569
-15.130558,-159.75778
-15.229419,-161.13116
-14.768875,-164.24413
-15.252629,-156.14903
-15.006502,-160.52173
-15.77599,-158.22408
-15.200886,-159.42444
-15.561817,-157.8279
-14.976843,-158.79021
-15.207588,-156.2917
-14.760808,-157.65312
-15.36705,-161.51993
-15.241568,-160.37575
-15.220967,-162.20776
-15.127195,-160.27454
-15.382053,-160.38448
-14.456242,-160.82507
-14.993922,-160.70064
-14.966965,-158.99704
-15.5563,-158.36916
-15.523484,-163.48634
-15.1029,-160.97806
-14.910867,-158.48759
-14.80295,-160.91246
-15.406966,-159.63887
-15.119675,-162.59637
-15.60643,-164.25633
-15.115109,-160.9986
-14.949744,-162.98766
-14.930835,-158.13773
-15.116361,-164.22545
-14.922364,-159.05046
-14.574116,-159.49602
-15.238807,-161.50681
-15.720563,-159.23618
-15.229423,-163.50702
-15.29856,-161.03622
-15.136246,-158.97472
-15.007421,-160.44173
-15.038907,-157.39462
-15.092107,-161.20561
-15.414926,-159.4707
-14.966099,-159.3911
-14.621731,-158.7952
-14.85781,-162.16823
-14.750031,-163.54283
-15.574374,-158.20367
-15.102264,-158.6106
-15.185332,-159.77499
-15.166372,-163.77747
-14.637275,-158.4474
-14.690286,-163.77693
-15.119997,-160.54094
-15.162543,-163.89214
-15.063711,-158.927
-15.391377,-159.76331
-15.396074,-161.4899
-15.474248,-162.04665
-14.727324,-156.22357
-15.010726,-158.35428
-15.013771,-159.70636
-15.749837,-163.41643
-14.944896,-159.35773
-14.726423,-160.42026
-15.247079,-157.99318
-15.177391,-160.29933
-15.389954,-163.26042
-15.491649,-162.17114
-15.51667,-158.35141
-15.084574,-158.68022
-15.414027,-160.25385
-15.125785,-164.52689
-15.439627,-163.18442
-14.903522,-159.16534
-15.408797,-159.12123
-15.260736,-157.38593
-15.388311,-158.10951
-14.936301,-161.59111
-14.904026,-161.76595
-15.109139,-159.55602
-15.27897,-160.30638
-15.247527,-158.7444
-15.25713,-159.33844
-15.170417,-161.63498
-15.396752,-160.96805
-15.018386,-161.71336
-14.925432,-161.68132
-14.921115,-160.06839
-15.041801,-162.7115
-15.005877,-160.63669
-14.66637,-161.12779
-15.3903,-160.79701
-14.822411,-160.4472
-15.698848,-158.57385
-14.725027,-160.6006
-15.089407,-162.93373
-14.957676,-159.75632
-15.061773,-159.35088
-15.657147,-161.87358
-14.609337,-162.88094
-15.494357,-161.56204
-15.178032,-158.48827
-15.386221,-161.48405
-15.426751,-158.13757
-15.430347,-163.92886
-14.602189,-156.15662
-14.987761,-158.56056
-15.054747,-159.49315
-15.161367,-161.03622
-14.959635,-159.39584
-15.10043,-163.2718
-15.521897,-159.22052
-15.904774,-157.33247
-14.82228,-157.27992
-15.139527,-158.25601
-15.279302,-158.49788
-14.878676,-162.45935
-14.999694,-161.17183
-14.840021,-160.99135
-14.829467,-160.2009
-15.50121,-161.03606
-15.198848,-159.32573
-14.940491,-160.86559
-15.443163,-160.98758
-14.781695,-161.20889
-14.895965,-159.05762
-15.009976,-160.07326
-15.243646,-161.15752
-14.853312,-160.59271
-14.726977,-161.58838
-15.051723,-160.87276
-15.095273,-159.15666
-15.264111,-159.13548
-15.069979,-161.40807
-15.014191,-162.04164
-15.228961,-162.74554
-15.103158,-161.66982
-14.938238,-159.28432
-14.857185,-161.42787
-15.189799,-158.93048
-14.956781,-160.37772
-14.394154,-160.55621
-15.213233,-161.51337
-15.119853,-160.86348
-14.558794,-159.92984
-15.478871,-160.07433
-15.014484,-160.12556
-15.17214,-162.54646
-15.202726,-160.00294
-15.015628,-159.54115
-15.044823,-160.26436
-15.066551,-159.37508
-15.130896,-159.31602
-14.999052,-162.24907
-14.632546,-161.1109
-14.985655,-159.88907
-14.687012,-160.97429
-14.767262,-159.24826
-15.21401,-160.39145
-15.092157,-159.27563
-14.691196,-161.59871
-15.439768,-162.07361
-14.917879,-161.57562
-15.171044,-160.67854
-14.904158,-160.7252
-15.112673,-160.55844
-14.756165,-160.68488
-14.815235,-158.75284
-15.303469,-158.92471
-14.92343,-160.03482
-14.812437,-161.61348
-14.788291,-161.95064
-15.402916,-159.88049
-14.949471,-158.10817
-15.143144,-163.3521
-14.900123,-158.77486
-15.110241,-158.53522
-14.987698,-159.93723
-14.945723,-160.24243
-15.051739,-160.30513
-14.715927,-161.88438
-15.177279,-161.36374
-14.561491,-160.11342
-14.83162,-159.53992
-14.843226,-161.30542
-15.148046,-161.93532
-15.30805,-160.64194
-15.182213,-161.46048
-14.99263,-162.42288
-15.152233,-159.36565
-15.158184,-159.41141
-14.981921,-162.95567
-14.81822,-156.481
-14.982578,-161.25858
-15.461133,-161.00601
-15.232838,-160.03072
-14.911899,-159.89452
-15.272798,-160.86176
-15.197458,-157.53189
-15.004832,-158.30795
-15.193312,-161.08943
-14.608865,-161.03664
-15.218876,-159.99562
-15.228505,-161.03258
-14.82796,-159.75636
-14.723906,-161.32362
-15.236272,-161.00142
-15.228052,-158.81566
-14.765971,-162.09479
-15.385531,-163.34483
-15.374454,-162.10307
-14.805596,-159.21417
-14.606429,-160.02768
-15.153592,-160.25911
-15.257608,-158.2993
-15.101356,-159.42979
-14.79213,-160.50504
-14.827641,-160.51146
-14.890463,-159.97945
-14.556986,-161.97672
-14.836305,-161.48584
-15.078877,-160.56175
-15.006172,-160.07051
-14.873795,-160.42807
-15.29215,-161.64786
-15.061123,-159.47047
-14.871414,-161.99402
-15.087463,-160.97466
-15.187088,-160.88849
-15.249136,-160.61333
-14.873513,-161.70694
-15.299064,-159.86427
-15.27492,-161.51825
-14.948435,-159.28622
-14.954061,-160.26524
-15.241665,-159.96591
-15.175408,-160.55545
-14.854373,-162.13992
-15.090679,-159.45161
-14.914768,-160.22978
-15.247055,-158.73888
-14.842794,-157.39064
-15.089136,-160.50708
-14.69953,-161.42081
-15.448619,-162.66014
-15.38409,-160.38368
-15.179042,-161.10883
-14.98844,-161.00903
-14.947312,-161.1058
-15.324039,-158.64693
-15.150658,-162.06642
-15.011118,-158.56111
-15.142556,-160.56975
-14.925537,-160.7482
-15.020146,-159.89063
-15.039806,-161.61401
-14.930766,-159.16502
-15.15773,-160.11594
-15.101683,-159.71031
-15.141491,-159.98999
-14.960092,-159.57086
-15.070698,-162.22577
-14.780361,-160.04568
-15.163452,-160.12503
-14.749308,-162.48096
-15.240882,-162.23024
-15.07095,-162.20985
-15.120542,-161.21782
-14.989942,-160.22943
-14.910508,-158.98788
-14.964006,-159.50652
-15.011993,-160.07347
-15.020459,-158.57208
-15.240304,-162.54024
-14.95128,-160.04836
-15.282864,-159.59927
-15.131241,-163.50026
-15.0421,-161.70018
-15.329664,-161.44151
-14.898742,-161.5293
-14.894866,-159.6561
-14.7162,-159.24742
-15.178113,-160.16252
-15.37887,-160.45792
-14.934088,-162.83961
-15.132271,-160.01591
-15.157636,-161.66594
-14.953415,-159.45656
-14.973958,-158.91754
-15.27798,-160.90739
-14.917666,-161.09857
-15.175811,-160.89748
-15.065474,-160.94679
-14.994881,-160.29462
-14.970771,-161.50629
-14.997041,-160.47928
-14.947628,-159.58322
-15.100943,-159.60844
-14.992995,-160.61386
-15.206774,-158.86038
-15.096583,-160.17671
-15.179555,-159.70862
-14.951302,-159.96986
-15.258932,-159.74467
-15.121734,-161.38034
-15.046317,-160.20662
-15.140265,-161.52785
-15.25518,-160.62634
-15.405066,-161.44266
-15.08783,-158.70042
-15.034702,-161.2336
-15.089542,-162.69115
-15.025813,-158.80969
-15.337475,-160.45808
-15.220953,-158.63786
-14.999599,-159.88065
-15.253895,-160.70387
-15.090423,-160.8765
-15.130654,-159.72267
-15.24094,-162.01332
-14.931404,-162.19278
-15.185134,-160.77533
-14.953158,-159.66678
-14.925872,-159.71652
-15.134973,-160.0565
-15.109359,-161.56743
-15.256507,-160.53824
-15.233504,-161.98051
-15.057727,-160.992
-15.168725,-160.08113
-14.998014,-159.92989
-15.197199,-159.95502
-15.182328,-160.5506
-15.275554,-160.23103
-15.012475,-160.644
-14.93599,-162.34654
-15.046385,-162.75482
-15.112819,-160.16696
-14.994453,-160.98016
-15.214961,-159.92967
-14.751934,-161.35612
-15.150142,-161.32047
-15.027604,-160.22595
-15.241181,-159.82744
-15.181952,-162.58488
-15.08586,-160.75099
-15.068017,-160.23122
-15.092116,-161.60919
-15.012589,-161.55255
-15.033814,-161.31207
-15.131368,-159.75586
-15.108169,-160.85388
-14.830405,-160.52383
-15.035875,-160.01683
-15.064608,-161.5298
-15.038695,-161.42432
-15.066586,-159.6996
-15.148538,-162.12456
-15.257359,-162.00676
-15.007758,-159.68321
-15.151142,-161.13805
-15.043077,-161.25693
-15.291734,-159.43535
-14.800305,-160.68225
-15.167997,-159.80876
-15.190608,-162.05009
-15.161273,-161.53516
-15.113297,-159.59924
-15.351703,-161.81325
-14.999127,-161.59589
-15.115058,-160.06146
-15.039556,-161.3663
-15.086135,-161.38945
-15.072807,-158.35707
-14.719969,-160.33923
-14.927199,-161.81705
-15.01336,-159.93533
-15.113184,-160.21205
-15.136579,-162.27942
-14.864171,-160.20316
-15.229838,-159.9447
-14.834409,-160.88452
-15.139869,-161.01987
-14.952994,-159.7059
-14.92641,-160.82445
-15.272939,-159.76741
-15.115819,-160.75732
-15.137515,-160.145
-14.935698,-161.08131
-14.944756,-160.94232
-15.11947,-160.41968
-15.272454,-159.00443
-15.116114,-160.61505
-14.783806,-161.06841
-14.955611,-159.97118
-15.093648,-159.8063
-15.046339,-160.11082
-15.130934,-160.95715
-15.152878,-159.9978
-15.260574,-160.69579
-15.161117,-160.25163
-15.063813,-159.09055
-14.884375,-159.11942
-15.124464,-160.00865
-15.031747,-159.91737
-15.138602,-160.98062
-14.7815,-161.50296
-15.30717,-159.8597
-14.910755,-161.34387
-15.171942,-161.42812
-15.023187,-159.90013
-14.952318,-160.67287
-15.002147,-159.73029
-15.006159,-158.74898
-14.931631,-161.58969
-15.219995,-160.44742
-14.903351,-160.09885
-15.039241,-160.39415
-15.061038,-160.44258
-15.011924,-159.80354
-14.861076,-160.59261
-14.94973,-161.57645
-15.206021,-161.16866
-14.858992,-161.94899
-15.244652,-160.01987
-15.155873,-160.39262
