CITIFILE A.01.01
!Agilent Technologies,N5230C,MY48100142,A.08.04.10
!Agilent N5230C: A.08.04.10
!Format: LogMag/Angle
!Date: Monday, August 31, 2020 13:11:22
NAME CH1_DATA
VAR Power MAG 801
DATA S11 DBANGLE
DATA S21 DBANGLE
DATA S12 DBANGLE
DATA S22 DBANGLE
VAR_LIST_BEGIN
-40
-39.975
-39.95
-39.925
-39.9
-39.875
-39.85
-39.825
-39.8
-39.775
-39.75
-39.725
-39.7
-39.675
-39.65
-39.625
-39.6
-39.575
-39.55
-39.525
-39.5
-39.475
-39.45
-39.425
-39.4
-39.375
-39.35
-39.325
-39.3
-39.275
-39.25
-39.225
-39.2
-39.175
-39.15
-39.125
-39.1
-39.075
-39.05
-39.025
-39
-38.975
-38.95
-38.925
-38.9
-38.875
-38.85
-38.825
-38.8
-38.775
-38.75
-38.725
-38.7
-38.675
-38.65
-38.625
-38.6
-38.575
-38.55
-38.525
-38.5
-38.475
-38.45
-38.425
-38.4
-38.375
-38.35
-38.325
-38.3
-38.275
-38.25
-38.225
-38.2
-38.175
-38.15
-38.125
-38.1
-38.075
-38.05
-38.025
-38
-37.975
-37.95
-37.925
-37.9
-37.875
-37.85
-37.825
-37.8
-37.775
-37.75
-37.725
-37.7
-37.675
-37.65
-37.625
-37.6
-37.575
-37.55
-37.525
-37.5
-37.475
-37.45
-37.425
-37.4
-37.375
-37.35
-37.325
-37.3
-37.275
-37.25
-37.225
-37.2
-37.175
-37.15
-37.125
-37.1
-37.075
-37.05
-37.025
-37
-36.975
-36.95
-36.925
-36.9
-36.875
-36.85
-36.825
-36.8
-36.775
-36.75
-36.725
-36.7
-36.675
-36.65
-36.625
-36.6
-36.575
-36.55
-36.525
-36.5
-36.475
-36.45
-36.425
-36.4
-36.375
-36.35
-36.325
-36.3
-36.275
-36.25
-36.225
-36.2
-36.175
-36.15
-36.125
-36.1
-36.075
-36.05
-36.025
-36
-35.975
-35.95
-35.925
-35.9
-35.875
-35.85
-35.825
-35.8
-35.775
-35.75
-35.725
-35.7
-35.675
-35.65
-35.625
-35.6
-35.575
-35.55
-35.525
-35.5
-35.475
-35.45
-35.425
-35.4
-35.375
-35.35
-35.325
-35.3
-35.275
-35.25
-35.225
-35.2
-35.175
-35.15
-35.125
-35.1
-35.075
-35.05
-35.025
-35
-34.975
-34.95
-34.925
-34.9
-34.875
-34.85
-34.825
-34.8
-34.775
-34.75
-34.725
-34.7
-34.675
-34.65
-34.625
-34.6
-34.575
-34.55
-34.525
-34.5
-34.475
-34.45
-34.425
-34.4
-34.375
-34.35
-34.325
-34.3
-34.275
-34.25
-34.225
-34.2
-34.175
-34.15
-34.125
-34.1
-34.075
-34.05
-34.025
-34
-33.975
-33.95
-33.925
-33.9
-33.875
-33.85
-33.825
-33.8
-33.775
-33.75
-33.725
-33.7
-33.675
-33.65
-33.625
-33.6
-33.575
-33.55
-33.525
-33.5
-33.475
-33.45
-33.425
-33.4
-33.375
-33.35
-33.325
-33.3
-33.275
-33.25
-33.225
-33.2
-33.175
-33.15
-33.125
-33.1
-33.075
-33.05
-33.025
-33
-32.975
-32.95
-32.925
-32.9
-32.875
-32.85
-32.825
-32.8
-32.775
-32.75
-32.725
-32.7
-32.675
-32.65
-32.625
-32.6
-32.575
-32.55
-32.525
-32.5
-32.475
-32.45
-32.425
-32.4
-32.375
-32.35
-32.325
-32.3
-32.275
-32.25
-32.225
-32.2
-32.175
-32.15
-32.125
-32.1
-32.075
-32.05
-32.025
-32
-31.975
-31.95
-31.925
-31.9
-31.875
-31.85
-31.825
-31.8
-31.775
-31.75
-31.725
-31.7
-31.675
-31.65
-31.625
-31.6
-31.575
-31.55
-31.525
-31.5
-31.475
-31.45
-31.425
-31.4
-31.375
-31.35
-31.325
-31.3
-31.275
-31.25
-31.225
-31.2
-31.175
-31.15
-31.125
-31.1
-31.075
-31.05
-31.025
-31
-30.975
-30.95
-30.925
-30.9
-30.875
-30.85
-30.825
-30.8
-30.775
-30.75
-30.725
-30.7
-30.675
-30.65
-30.625
-30.6
-30.575
-30.55
-30.525
-30.5
-30.475
-30.45
-30.425
-30.4
-30.375
-30.35
-30.325
-30.3
-30.275
-30.25
-30.225
-30.2
-30.175
-30.15
-30.125
-30.1
-30.075
-30.05
-30.025
-30
-29.975
-29.95
-29.925
-29.9
-29.875
-29.85
-29.825
-29.8
-29.775
-29.75
-29.725
-29.7
-29.675
-29.65
-29.625
-29.6
-29.575
-29.55
-29.525
-29.5
-29.475
-29.45
-29.425
-29.4
-29.375
-29.35
-29.325
-29.3
-29.275
-29.25
-29.225
-29.2
-29.175
-29.15
-29.125
-29.1
-29.075
-29.05
-29.025
-29
-28.975
-28.95
-28.925
-28.9
-28.875
-28.85
-28.825
-28.8
-28.775
-28.75
-28.725
-28.7
-28.675
-28.65
-28.625
-28.6
-28.575
-28.55
-28.525
-28.5
-28.475
-28.45
-28.425
-28.4
-28.375
-28.35
-28.325
-28.3
-28.275
-28.25
-28.225
-28.2
-28.175
-28.15
-28.125
-28.1
-28.075
-28.05
-28.025
-28
-27.975
-27.95
-27.925
-27.9
-27.875
-27.85
-27.825
-27.8
-27.775
-27.75
-27.725
-27.7
-27.675
-27.65
-27.625
-27.6
-27.575
-27.55
-27.525
-27.5
-27.475
-27.45
-27.425
-27.4
-27.375
-27.35
-27.325
-27.3
-27.275
-27.25
-27.225
-27.2
-27.175
-27.15
-27.125
-27.1
-27.075
-27.05
-27.025
-27
-26.975
-26.95
-26.925
-26.9
-26.875
-26.85
-26.825
-26.8
-26.775
-26.75
-26.725
-26.7
-26.675
-26.65
-26.625
-26.6
-26.575
-26.55
-26.525
-26.5
-26.475
-26.45
-26.425
-26.4
-26.375
-26.35
-26.325
-26.3
-26.275
-26.25
-26.225
-26.2
-26.175
-26.15
-26.125
-26.1
-26.075
-26.05
-26.025
-26
-25.975
-25.95
-25.925
-25.9
-25.875
-25.85
-25.825
-25.8
-25.775
-25.75
-25.725
-25.7
-25.675
-25.65
-25.625
-25.6
-25.575
-25.55
-25.525
-25.5
-25.475
-25.45
-25.425
-25.4
-25.375
-25.35
-25.325
-25.3
-25.275
-25.25
-25.225
-25.2
-25.175
-25.15
-25.125
-25.1
-25.075
-25.05
-25.025
-25
-24.975
-24.95
-24.925
-24.9
-24.875
-24.85
-24.825
-24.8
-24.775
-24.75
-24.725
-24.7
-24.675
-24.65
-24.625
-24.6
-24.575
-24.55
-24.525
-24.5
-24.475
-24.45
-24.425
-24.4
-24.375
-24.35
-24.325
-24.3
-24.275
-24.25
-24.225
-24.2
-24.175
-24.15
-24.125
-24.1
-24.075
-24.05
-24.025
-24
-23.975
-23.95
-23.925
-23.9
-23.875
-23.85
-23.825
-23.8
-23.775
-23.75
-23.725
-23.7
-23.675
-23.65
-23.625
-23.6
-23.575
-23.55
-23.525
-23.5
-23.475
-23.45
-23.425
-23.4
-23.375
-23.35
-23.325
-23.3
-23.275
-23.25
-23.225
-23.2
-23.175
-23.15
-23.125
-23.1
-23.075
-23.05
-23.025
-23
-22.975
-22.95
-22.925
-22.9
-22.875
-22.85
-22.825
-22.8
-22.775
-22.75
-22.725
-22.7
-22.675
-22.65
-22.625
-22.6
-22.575
-22.55
-22.525
-22.5
-22.475
-22.45
-22.425
-22.4
-22.375
-22.35
-22.325
-22.3
-22.275
-22.25
-22.225
-22.2
-22.175
-22.15
-22.125
-22.1
-22.075
-22.05
-22.025
-22
-21.975
-21.95
-21.925
-21.9
-21.875
-21.85
-21.825
-21.8
-21.775
-21.75
-21.725
-21.7
-21.675
-21.65
-21.625
-21.6
-21.575
-21.55
-21.525
-21.5
-21.475
-21.45
-21.425
-21.4
-21.375
-21.35
-21.325
-21.3
-21.275
-21.25
-21.225
-21.2
-21.175
-21.15
-21.125
-21.1
-21.075
-21.05
-21.025
-21
-20.975
-20.95
-20.925
-20.9
-20.875
-20.85
-20.825
-20.8
-20.775
-20.75
-20.725
-20.7
-20.675
-20.65
-20.625
-20.6
-20.575
-20.55
-20.525
-20.5
-20.475
-20.45
-20.425
-20.4
-20.375
-20.35
-20.325
-20.3
-20.275
-20.25
-20.225
-20.2
-20.175
-20.15
-20.125
-20.1
-20.075
-20.05
-20.025
-20
VAR_LIST_END
BEGIN
-14.940397,-163.86971
-13.987984,-162.72536
-15.655922,-155.10422
-14.900039,-158.56427
-14.341213,-160.41071
-15.766093,-160.52249
-15.439579,-150.49384
-15.653192,-157.46176
-14.528174,-158.10941
-14.901693,-162.54755
-15.966851,-156.61552
-15.507627,-158.08362
-16.22941,-152.10979
-14.484776,-156.13718
-14.235823,-160.52882
-14.615758,-165.58594
-15.884647,-161.85623
-15.28722,-157.98117
-15.706532,-162.81119
-14.549505,-165.10403
-14.571087,-158.81654
-15.888541,-160.02094
-14.555716,-160.77283
-15.788527,-161.7207
-14.653329,-163.02094
-15.69531,-156.05807
-13.819794,-159.19533
-14.531735,-163.53908
-16.062223,-167.78404
-15.454205,-160.38448
-14.072281,-161.10612
-15.970833,-161.65826
-14.238885,-156.6837
-14.592731,-162.27647
-15.142444,-157.87186
-12.846445,-159.60767
-16.57118,-161.43382
-14.724315,-154.14082
-14.482508,-160.37709
-16.045391,-156.25671
-14.762824,-158.36763
-15.195151,-152.55324
-14.917422,-159.26091
-15.096936,-162.3573
-16.027815,-158.41583
-14.742181,-156.60828
-15.525129,-166.73502
-13.88667,-168.2104
-14.001065,-161.73402
-14.825979,-150.9939
-15.979061,-159.83067
-15.371408,-157.90704
-16.355968,-165.48923
-15.850435,-150.37187
-14.144711,-160.24319
-15.466419,-163.33681
-14.890457,-163.86108
-15.550467,-157.7448
-15.060592,-158.75446
-14.919847,-162.00302
-15.686772,-159.50722
-15.596352,-160.90398
-15.339488,-153.65121
-14.969925,-147.77791
-15.089916,-150.95546
-14.900752,-158.03352
-15.137774,-154.70401
-15.784985,-160.89737
-14.181347,-152.34148
-16.382784,-157.10013
-15.709081,-153.61267
-15.148261,-163.64966
-14.224707,-161.28537
-15.241564,-156.46626
-15.633322,-159.7211
-14.829223,-163.04446
-15.290127,-166.54713
-14.23357,-155.44934
-13.752393,-158.23274
-13.822245,-159.30385
-15.508338,-154.89395
-15.002022,-162.72397
-15.003422,-158.47505
-13.64936,-152.74738
-14.754547,-153.39659
-14.494267,-154.12953
-15.34796,-149.472
-15.687287,-167.37784
-15.223629,-158.97414
-15.218212,-160.08942
-14.636837,-159.77307
-14.543767,-164.30083
-14.249856,-157.11859
-16.085255,-159.85693
-14.463061,-160.97789
-14.888872,-161.44897
-14.953832,-158.60419
-16.114134,-155.90884
-14.447546,-164.16129
-15.040895,-161.26392
-15.397459,-160.00533
-14.812775,-170.01997
-14.9494,-156.59258
-14.148389,-161.19421
-15.77759,-165.89044
-14.363052,-160.32042
-15.018955,-160.96498
-14.963056,-157.11374
-15.285611,-157.93394
-14.14672,-165.15742
-16.005074,-159.80977
-14.7096,-163.4308
-15.069843,-161.57475
-15.539392,-158.17949
-15.525716,-156.51604
-15.267897,-162.83353
-15.504988,-151.22208
-14.668125,-158.11539
-15.173787,-162.01601
-14.358109,-157.00423
-14.18165,-162.12906
-14.992998,-159.75444
-15.144402,-164.10518
-15.320722,-158.84909
-14.777823,-149.53841
-14.386909,-163.31369
-15.470724,-161.38763
-15.042228,-164.23787
-14.658361,-153.1638
-16.320683,-160.31799
-15.224239,-164.38348
-14.91543,-154.59814
-16.37439,-160.15396
-16.293602,-160.02509
-15.093324,-160.14551
-15.230951,-159.91273
-14.438293,-157.54228
-15.049065,-160.00842
-14.055247,-160.55391
-16.052855,-158.06717
-14.771137,-160.10471
-14.975192,-159.64166
-15.598706,-156.16325
-14.565753,-166.01163
-14.497445,-158.88475
-14.963214,-156.78201
-14.647189,-158.01616
-14.876084,-152.23196
-14.481514,-160.35646
-14.953852,-151.18037
-14.766194,-165.77632
-15.017289,-156.82445
-14.561993,-159.85417
-14.169703,-161.23277
-15.216866,-159.76854
-15.474658,-157.31174
-14.926851,-161.39412
-15.158973,-156.91765
-14.279833,-160.8963
-15.606807,-158.59532
-14.64158,-156.59451
-14.567065,-158.61273
-15.053708,-166.05174
-14.845859,-157.18394
-15.58009,-161.8485
-15.832778,-159.4436
-15.062958,-162.84877
-15.204012,-158.74554
-14.676299,-157.10197
-15.449824,-155.73686
-14.856277,-159.21358
-15.811179,-162.19714
-16.326202,-153.86536
-15.302307,-160.00929
-14.34867,-161.87679
-15.008564,-159.12239
-15.490768,-171.13736
-14.283529,-159.43616
-15.932859,-160.15718
-15.826084,-160.29778
-14.634954,-159.91362
-16.021166,-159.99553
-15.714491,-157.01689
-14.667014,-161.24637
-16.344934,-162.09216
-14.666735,-157.51753
-14.92789,-160.68655
-14.87604,-163.94594
-15.262965,-165.27689
-15.152495,-155.78886
-14.722361,-157.53326
-15.476977,-158.92467
-14.724389,-161.72865
-15.068688,-159.62077
-13.941016,-161.71643
-15.231953,-156.43594
-14.798343,-155.98764
-14.943799,-160.6075
-14.369979,-161.25688
-14.359815,-163.8519
-14.946635,-154.56108
-14.70803,-163.94826
-14.367137,-165.36784
-15.265556,-158.57733
-14.402204,-164.76585
-15.507833,-159.78926
-15.151677,-161.65646
-15.013723,-160.32683
-15.35544,-157.21445
-14.757482,-161.89697
-14.886852,-157.44901
-15.795448,-160.01218
-15.111918,-161.31726
-15.563758,-157.02603
-15.289226,-156.30708
-14.711923,-159.93089
-15.328435,-162.56792
-13.92802,-157.31467
-15.18679,-157.64384
-15.435155,-154.22267
-15.873078,-155.7524
-14.553208,-160.52159
-14.164761,-166.30693
-15.367817,-159.25269
-14.226529,-156.13052
-15.149819,-156.39268
-14.275666,-163.49005
-15.689795,-162.38275
-15.532529,-162.66235
-14.527555,-162.48161
-14.56968,-156.0755
-15.400586,-162.58571
-15.577941,-158.51221
-14.583609,-159.15698
-14.769989,-152.3045
-14.544371,-160.86566
-15.971857,-158.02608
-14.389966,-158.04727
-15.540957,-155.03322
-14.81216,-163.89905
-14.363448,-162.94235
-14.627269,-157.65549
-14.916464,-160.8284
-14.36596,-163.20428
-14.718016,-156.8676
-14.826019,-163.74556
-14.752823,-155.62526
-14.399785,-159.27428
-14.7255,-160.44412
-15.012178,-158.43098
-15.74789,-159.45161
-15.382778,-157.09795
-14.781468,-161.64374
-15.326767,-156.79619
-15.372294,-165.92345
-15.094919,-159.71693
-16.288797,-159.65851
-14.602988,-159.90611
-14.592092,-164.26456
-15.705758,-155.65132
-14.879071,-162.30595
-15.196596,-161.50027
-15.204293,-158.30949
-14.958397,-154.7166
-14.60715,-160.76187
-14.960278,-160.77553
-15.416438,-159.96338
-14.461228,-158.38626
-14.744955,-164.18709
-15.062951,-158.74994
-14.553317,-157.67195
-14.961658,-159.18953
-14.328812,-157.63824
-14.228285,-159.70815
-14.663676,-156.08646
-15.551386,-155.40916
-14.823562,-159.51875
-14.731935,-160.9442
-14.648475,-158.14909
-14.274051,-161.70778
-15.113781,-156.88728
-14.78511,-162.99353
-15.368888,-159.20808
-14.724586,-161.59068
-15.13403,-155.98497
-14.966969,-158.53497
-16.00983,-167.98396
-14.934369,-158.96213
-15.430045,-161.07236
-14.698119,-158.26723
-15.439487,-157.49196
-14.249447,-155.18417
-15.409497,-159.64969
-14.750385,-163.41565
-14.253141,-160.25845
-15.843518,-156.36539
-14.900441,-162.8887
-16.122124,-160.19937
-15.024991,-157.70311
-14.920212,-160.88843
-15.026452,-156.91315
-15.064893,-156.49507
-15.434353,-158.10419
-15.425672,-163.9214
-15.274428,-166.18564
-15.245379,-162.28098
-15.174418,-158.85712
-14.779282,-159.48956
-14.733551,-160.62886
-15.337136,-159.62166
-14.838847,-161.37663
-14.938014,-158.51427
-14.54012,-156.77602
-15.162477,-161.38263
-14.764277,-159.85626
-15.234036,-158.5117
-14.982254,-158.21127
-15.372375,-161.9632
-15.094366,-161.15831
-15.334145,-161.76907
-14.791243,-160.82251
-14.813808,-159.16753
-15.014449,-158.4173
-15.140989,-158.45943
-14.775594,-158.78729
-15.260716,-158.22131
-15.04581,-159.86176
-15.238997,-156.45091
-15.065896,-159.63438
-14.446262,-157.35915
-15.35473,-163.05421
-15.251246,-158.93466
-15.248426,-160.64389
-14.722854,-156.47537
-15.808475,-154.32208
-14.845801,-159.14549
-15.093674,-158.70415
-14.969813,-159.09863
-14.75421,-156.8736
-14.980188,-163.09157
-14.463017,-159.75592
-14.808061,-159.78719
-15.038186,-157.75357
-15.46238,-160.38754
-14.69871,-158.47066
-14.883773,-156.26314
-14.894966,-159.31328
-15.020447,-157.23674
-15.445315,-158.58995
-14.955376,-160.54822
-15.105518,-155.81015
-15.248462,-160.35608
-14.660378,-162.20232
-15.24647,-161.26068
-15.647577,-160.81671
-14.611819,-154.37773
-15.042984,-159.58838
-14.941653,-160.36183
-15.073069,-160.5051
-15.073025,-158.16495
-14.77571,-159.73506
-15.094445,-158.13373
-15.229013,-160.45079
-15.452309,-160.63083
-15.191746,-160.24777
-15.371739,-161.19089
-15.15991,-159.4277
-14.952938,-158.37836
-15.039883,-156.72775
-15.139013,-160.44516
-14.578119,-158.67242
-15.375747,-158.63239
-15.308231,-159.46448
-14.645253,-155.69667
-15.020053,-161.01181
-15.503006,-161.03296
-13.998491,-160.19582
-14.879048,-160.50841
-14.694338,-159.52704
-14.69406,-161.01241
-15.482308,-159.40517
-15.184691,-158.74323
-14.999699,-160.78055
-14.756306,-159.84682
-15.517257,-159.30669
-15.373243,-162.6344
-15.259192,-161.62248
-15.388682,-156.78731
-14.700524,-160.85274
-15.003644,-159.94194
-14.833392,-161.38864
-14.603189,-161.20694
-15.050237,-158.73767
-15.216379,-159.91003
-15.45264,-157.23962
-14.474148,-160.80241
-15.585472,-162.2162
-14.308033,-160.73232
-14.689106,-160.46733
-14.472486,-160.54355
-14.513552,-162.45024
-15.266198,-158.18718
-14.952562,-158.97533
-15.193265,-160.40883
-14.802489,-160.46797
-15.008624,-159.05342
-14.537287,-158.76646
-14.989396,-158.28546
-15.221004,-158.78386
-14.392373,-162.13954
-15.117964,-159.65582
-15.367276,-159.3051
-14.765332,-158.62166
-14.835392,-158.50484
-14.955518,-158.3636
-15.095082,-160.89975
-15.051532,-159.95378
-15.116677,-159.90244
-14.877828,-161.2514
-14.936542,-158.76276
-15.131628,-164.48775
-14.892756,-160.5174
-14.985499,-159.89995
-15.628732,-160.56705
-15.106322,-160.60732
-14.909122,-158.1239
-15.317144,-161.66237
-14.722685,-157.85306
-15.294785,-158.1562
-15.010672,-160.87242
-15.41008,-158.75787
-14.904666,-159.01715
-15.164121,-158.79803
-14.846526,-158.93912
-14.509628,-160.71971
-15.343726,-157.88692
-15.328279,-161.8288
-14.973845,-158.43904
-15.039076,-160.63951
-15.218952,-155.1781
-14.965471,-161.32338
-14.866485,-159.48775
-15.185444,-159.19501
-14.784633,-158.02911
-14.714479,-159.62508
-14.836967,-160.08997
-14.751056,-159.19901
-15.317902,-158.44469
-15.12962,-157.93504
-14.91668,-159.76527
-14.685071,-158.99602
-14.957764,-160.74406
-15.051538,-158.74339
-15.042334,-161.09274
-15.05549,-160.57628
-15.098339,-160.01237
-15.133897,-157.06242
-15.012569,-158.1609
-14.996332,-159.73608
-14.930284,-157.61574
-14.499937,-160.36139
-15.387189,-156.17723
-14.672278,-159.99301
-15.077629,-156.25992
-15.19238,-159.05791
-14.755579,-162.47656
-14.992061,-160.00677
-14.960629,-159.89612
-14.993665,-159.20808
-15.133917,-158.09016
-15.172119,-161.02893
-15.230739,-161.81857
-14.629539,-158.35915
-15.092226,-158.67415
-15.275379,-157.69487
-14.870493,-159.7747
-15.303401,-158.81166
-15.012727,-160.28607
-15.052641,-158.32919
-15.009479,-157.642
-14.695986,-159.22165
-14.854081,-158.81892
-15.68045,-158.75374
-14.835121,-159.4239
-15.043117,-156.95824
-15.051098,-159.95589
-14.702836,-156.95193
-15.090727,-159.59592
-14.91448,-158.4442
-15.192932,-160.33202
-15.132846,-161.17577
-15.117043,-158.51965
-14.758924,-159.21082
-15.104449,-159.32333
-15.079776,-160.91821
-15.26211,-157.82603
-14.98973,-159.61333
-15.032457,-158.34186
-14.46979,-158.46104
-15.506143,-160.49486
-14.792609,-159.56755
-15.085133,-157.28412
-15.230392,-160.12727
-15.200965,-161.30128
-15.356782,-160.7403
-15.205103,-158.95506
-14.75842,-156.44872
-14.854638,-158.73544
-15.298692,-162.11292
-14.752224,-158.50522
-14.945873,-161.57925
-15.06245,-162.62492
-14.898139,-160.63832
-14.849406,-157.31667
-15.029627,-162.10823
-15.327719,-159.52545
-14.653001,-160.26103
-14.955845,-157.1877
-15.01988,-159.88078
-14.813064,-156.69679
-14.750587,-161.92746
-15.084642,-159.85846
-15.349769,-162.51164
-15.220739,-158.42439
-14.931307,-160.58536
-14.964149,-157.05717
-15.298595,-160.59912
-15.159626,-159.73238
-15.038862,-157.57219
-15.131047,-160.89348
-14.682822,-159.30591
-14.856094,-160.49457
-14.998206,-159.63242
-15.101324,-160.09079
-14.970844,-161.77954
-14.651402,-158.31699
-14.882565,-158.81549
-14.813426,-159.84575
-15.315798,-158.90648
-15.262687,-158.77596
-14.779543,-160.10167
-14.934298,-160.83224
-14.662731,-158.64526
-15.137065,-161.03809
-14.741611,-158.90494
-15.334893,-157.20192
-15.153129,-156.81056
-14.908507,-160.25153
-15.178826,-160.64403
-14.951255,-157.87306
-15.267819,-160.66644
-15.033992,-160.03539
-15.085369,-159.11278
-14.546119,-159.19031
-15.106846,-158.81303
-14.894936,-159.12015
-15.194929,-160.87555
-14.994208,-159.90746
-15.041885,-159.52365
-15.031009,-156.20529
-15.273633,-161.27795
-15.247171,-160.49667
-14.928041,-159.94069
-15.156295,-158.14322
-15.130936,-157.34309
-15.339849,-160.07626
-14.962522,-158.15799
-15.106137,-158.35356
-15.010529,-159.06412
-14.88771,-160.22131
-15.002233,-158.99031
-15.14532,-159.61548
-15.063722,-159.67389
-14.706334,-157.56371
-14.94003,-158.60016
