CITIFILE A.01.01
!Agilent Technologies,N5230C,MY48100142,A.08.04.10
!Agilent N5230C: A.08.04.10
!Format: LogMag/Angle
!Date: Wednesday, February 19, 2020 16:42:28
NAME CH1_DATA
VAR Power MAG 801
DATA S11 DBANGLE
DATA S21 DBANGLE
DATA S12 DBANGLE
DATA S22 DBANGLE
VAR_LIST_BEGIN
-40
-39.975
-39.95
-39.925
-39.9
-39.875
-39.85
-39.825
-39.8
-39.775
-39.75
-39.725
-39.7
-39.675
-39.65
-39.625
-39.6
-39.575
-39.55
-39.525
-39.5
-39.475
-39.45
-39.425
-39.4
-39.375
-39.35
-39.325
-39.3
-39.275
-39.25
-39.225
-39.2
-39.175
-39.15
-39.125
-39.1
-39.075
-39.05
-39.025
-39
-38.975
-38.95
-38.925
-38.9
-38.875
-38.85
-38.825
-38.8
-38.775
-38.75
-38.725
-38.7
-38.675
-38.65
-38.625
-38.6
-38.575
-38.55
-38.525
-38.5
-38.475
-38.45
-38.425
-38.4
-38.375
-38.35
-38.325
-38.3
-38.275
-38.25
-38.225
-38.2
-38.175
-38.15
-38.125
-38.1
-38.075
-38.05
-38.025
-38
-37.975
-37.95
-37.925
-37.9
-37.875
-37.85
-37.825
-37.8
-37.775
-37.75
-37.725
-37.7
-37.675
-37.65
-37.625
-37.6
-37.575
-37.55
-37.525
-37.5
-37.475
-37.45
-37.425
-37.4
-37.375
-37.35
-37.325
-37.3
-37.275
-37.25
-37.225
-37.2
-37.175
-37.15
-37.125
-37.1
-37.075
-37.05
-37.025
-37
-36.975
-36.95
-36.925
-36.9
-36.875
-36.85
-36.825
-36.8
-36.775
-36.75
-36.725
-36.7
-36.675
-36.65
-36.625
-36.6
-36.575
-36.55
-36.525
-36.5
-36.475
-36.45
-36.425
-36.4
-36.375
-36.35
-36.325
-36.3
-36.275
-36.25
-36.225
-36.2
-36.175
-36.15
-36.125
-36.1
-36.075
-36.05
-36.025
-36
-35.975
-35.95
-35.925
-35.9
-35.875
-35.85
-35.825
-35.8
-35.775
-35.75
-35.725
-35.7
-35.675
-35.65
-35.625
-35.6
-35.575
-35.55
-35.525
-35.5
-35.475
-35.45
-35.425
-35.4
-35.375
-35.35
-35.325
-35.3
-35.275
-35.25
-35.225
-35.2
-35.175
-35.15
-35.125
-35.1
-35.075
-35.05
-35.025
-35
-34.975
-34.95
-34.925
-34.9
-34.875
-34.85
-34.825
-34.8
-34.775
-34.75
-34.725
-34.7
-34.675
-34.65
-34.625
-34.6
-34.575
-34.55
-34.525
-34.5
-34.475
-34.45
-34.425
-34.4
-34.375
-34.35
-34.325
-34.3
-34.275
-34.25
-34.225
-34.2
-34.175
-34.15
-34.125
-34.1
-34.075
-34.05
-34.025
-34
-33.975
-33.95
-33.925
-33.9
-33.875
-33.85
-33.825
-33.8
-33.775
-33.75
-33.725
-33.7
-33.675
-33.65
-33.625
-33.6
-33.575
-33.55
-33.525
-33.5
-33.475
-33.45
-33.425
-33.4
-33.375
-33.35
-33.325
-33.3
-33.275
-33.25
-33.225
-33.2
-33.175
-33.15
-33.125
-33.1
-33.075
-33.05
-33.025
-33
-32.975
-32.95
-32.925
-32.9
-32.875
-32.85
-32.825
-32.8
-32.775
-32.75
-32.725
-32.7
-32.675
-32.65
-32.625
-32.6
-32.575
-32.55
-32.525
-32.5
-32.475
-32.45
-32.425
-32.4
-32.375
-32.35
-32.325
-32.3
-32.275
-32.25
-32.225
-32.2
-32.175
-32.15
-32.125
-32.1
-32.075
-32.05
-32.025
-32
-31.975
-31.95
-31.925
-31.9
-31.875
-31.85
-31.825
-31.8
-31.775
-31.75
-31.725
-31.7
-31.675
-31.65
-31.625
-31.6
-31.575
-31.55
-31.525
-31.5
-31.475
-31.45
-31.425
-31.4
-31.375
-31.35
-31.325
-31.3
-31.275
-31.25
-31.225
-31.2
-31.175
-31.15
-31.125
-31.1
-31.075
-31.05
-31.025
-31
-30.975
-30.95
-30.925
-30.9
-30.875
-30.85
-30.825
-30.8
-30.775
-30.75
-30.725
-30.7
-30.675
-30.65
-30.625
-30.6
-30.575
-30.55
-30.525
-30.5
-30.475
-30.45
-30.425
-30.4
-30.375
-30.35
-30.325
-30.3
-30.275
-30.25
-30.225
-30.2
-30.175
-30.15
-30.125
-30.1
-30.075
-30.05
-30.025
-30
-29.975
-29.95
-29.925
-29.9
-29.875
-29.85
-29.825
-29.8
-29.775
-29.75
-29.725
-29.7
-29.675
-29.65
-29.625
-29.6
-29.575
-29.55
-29.525
-29.5
-29.475
-29.45
-29.425
-29.4
-29.375
-29.35
-29.325
-29.3
-29.275
-29.25
-29.225
-29.2
-29.175
-29.15
-29.125
-29.1
-29.075
-29.05
-29.025
-29
-28.975
-28.95
-28.925
-28.9
-28.875
-28.85
-28.825
-28.8
-28.775
-28.75
-28.725
-28.7
-28.675
-28.65
-28.625
-28.6
-28.575
-28.55
-28.525
-28.5
-28.475
-28.45
-28.425
-28.4
-28.375
-28.35
-28.325
-28.3
-28.275
-28.25
-28.225
-28.2
-28.175
-28.15
-28.125
-28.1
-28.075
-28.05
-28.025
-28
-27.975
-27.95
-27.925
-27.9
-27.875
-27.85
-27.825
-27.8
-27.775
-27.75
-27.725
-27.7
-27.675
-27.65
-27.625
-27.6
-27.575
-27.55
-27.525
-27.5
-27.475
-27.45
-27.425
-27.4
-27.375
-27.35
-27.325
-27.3
-27.275
-27.25
-27.225
-27.2
-27.175
-27.15
-27.125
-27.1
-27.075
-27.05
-27.025
-27
-26.975
-26.95
-26.925
-26.9
-26.875
-26.85
-26.825
-26.8
-26.775
-26.75
-26.725
-26.7
-26.675
-26.65
-26.625
-26.6
-26.575
-26.55
-26.525
-26.5
-26.475
-26.45
-26.425
-26.4
-26.375
-26.35
-26.325
-26.3
-26.275
-26.25
-26.225
-26.2
-26.175
-26.15
-26.125
-26.1
-26.075
-26.05
-26.025
-26
-25.975
-25.95
-25.925
-25.9
-25.875
-25.85
-25.825
-25.8
-25.775
-25.75
-25.725
-25.7
-25.675
-25.65
-25.625
-25.6
-25.575
-25.55
-25.525
-25.5
-25.475
-25.45
-25.425
-25.4
-25.375
-25.35
-25.325
-25.3
-25.275
-25.25
-25.225
-25.2
-25.175
-25.15
-25.125
-25.1
-25.075
-25.05
-25.025
-25
-24.975
-24.95
-24.925
-24.9
-24.875
-24.85
-24.825
-24.8
-24.775
-24.75
-24.725
-24.7
-24.675
-24.65
-24.625
-24.6
-24.575
-24.55
-24.525
-24.5
-24.475
-24.45
-24.425
-24.4
-24.375
-24.35
-24.325
-24.3
-24.275
-24.25
-24.225
-24.2
-24.175
-24.15
-24.125
-24.1
-24.075
-24.05
-24.025
-24
-23.975
-23.95
-23.925
-23.9
-23.875
-23.85
-23.825
-23.8
-23.775
-23.75
-23.725
-23.7
-23.675
-23.65
-23.625
-23.6
-23.575
-23.55
-23.525
-23.5
-23.475
-23.45
-23.425
-23.4
-23.375
-23.35
-23.325
-23.3
-23.275
-23.25
-23.225
-23.2
-23.175
-23.15
-23.125
-23.1
-23.075
-23.05
-23.025
-23
-22.975
-22.95
-22.925
-22.9
-22.875
-22.85
-22.825
-22.8
-22.775
-22.75
-22.725
-22.7
-22.675
-22.65
-22.625
-22.6
-22.575
-22.55
-22.525
-22.5
-22.475
-22.45
-22.425
-22.4
-22.375
-22.35
-22.325
-22.3
-22.275
-22.25
-22.225
-22.2
-22.175
-22.15
-22.125
-22.1
-22.075
-22.05
-22.025
-22
-21.975
-21.95
-21.925
-21.9
-21.875
-21.85
-21.825
-21.8
-21.775
-21.75
-21.725
-21.7
-21.675
-21.65
-21.625
-21.6
-21.575
-21.55
-21.525
-21.5
-21.475
-21.45
-21.425
-21.4
-21.375
-21.35
-21.325
-21.3
-21.275
-21.25
-21.225
-21.2
-21.175
-21.15
-21.125
-21.1
-21.075
-21.05
-21.025
-21
-20.975
-20.95
-20.925
-20.9
-20.875
-20.85
-20.825
-20.8
-20.775
-20.75
-20.725
-20.7
-20.675
-20.65
-20.625
-20.6
-20.575
-20.55
-20.525
-20.5
-20.475
-20.45
-20.425
-20.4
-20.375
-20.35
-20.325
-20.3
-20.275
-20.25
-20.225
-20.2
-20.175
-20.15
-20.125
-20.1
-20.075
-20.05
-20.025
-20
VAR_LIST_END
BEGIN
-15.700403,-162.56091
-14.451306,-164.78291
-15.223768,-158.8873
-15.03103,-160.78026
-15.492624,-169.29527
-14.506083,-170.28142
-15.410043,-166.65504
-14.460171,-164.118
-15.736088,-158.90724
-15.519311,-158.09993
-14.419204,-166.66377
-15.21389,-159.24353
-15.337344,-155.7198
-14.896319,-160.90175
-14.815308,-154.93776
-14.650613,-157.65054
-15.58899,-161.17648
-16.347923,-161.9274
-15.117717,-153.78693
-14.996613,-164.01874
-15.414427,-160.82071
-14.735908,-162.11345
-15.460075,-154.56958
-15.136136,-158.62642
-14.308595,-166.26805
-16.331444,-161.36198
-15.892509,-158.61632
-14.796853,-153.92587
-14.508682,-162.36182
-15.223643,-161.61081
-14.66021,-160.25301
-15.639395,-156.4812
-15.11332,-159.20207
-14.344387,-161.39622
-14.935789,-165.87364
-14.590154,-163.32764
-14.353831,-157.50179
-15.530177,-158.15599
-14.873903,-164.53076
-14.581046,-157.86441
-15.385476,-161.37721
-14.677777,-162.78484
-15.353722,-164.19308
-14.723632,-165.23735
-14.949671,-161.19724
-15.198638,-159.64587
-15.416306,-161.31616
-14.418319,-159.3544
-14.70622,-172.59967
-14.919207,-166.19023
-14.85011,-159.31882
-15.364043,-158.82132
-15.188224,-166.53354
-15.152711,-165.39001
-14.525651,-160.21651
-14.752376,-160.81779
-14.094886,-159.43961
-14.364758,-160.87752
-15.639923,-160.00565
-14.95716,-157.95319
-14.479818,-158.16679
-14.510746,-156.96733
-14.408828,-162.7021
-15.556603,-154.75279
-14.293277,-158.71622
-14.806258,-167.01045
-14.845879,-159.48259
-15.055191,-163.24103
-15.345336,-159.42268
-15.163169,-158.53043
-15.211622,-156.44067
-14.61221,-166.64038
-15.516496,-163.84752
-14.589409,-156.74684
-15.089438,-156.32314
-15.452038,-158.30106
-15.223346,-161.38731
-14.420933,-164.58511
-15.773042,-164.01013
-15.005775,-163.66568
-15.320947,-155.75522
-14.363019,-165.93192
-14.169081,-155.24521
-14.750013,-164.74876
-15.535891,-156.95833
-15.376773,-166.30721
-14.928898,-159.53018
-14.848302,-158.91933
-14.993372,-167.01442
-15.199411,-161.03467
-15.59692,-155.91914
-15.684143,-164.37668
-15.23429,-157.01793
-14.620697,-158.05515
-14.454463,-162.24586
-15.110631,-159.6949
-15.500427,-163.812
-14.814609,-162.17676
-14.433664,-159.80582
-16.049578,-157.06308
-15.239471,-158.15593
-15.382676,-161.12679
-14.710049,-157.29071
-14.627355,-159.37506
-14.428841,-163.88086
-15.240574,-160.64372
-14.319533,-167.49484
-16.030369,-170.959
-14.475096,-159.54938
-15.127931,-162.45074
-15.415821,-161.07722
-14.672652,-162.49207
-15.110553,-154.38585
-14.782825,-159.81351
-15.917169,-165.73958
-15.61843,-162.97173
-14.567719,-158.33502
-14.815773,-157.76784
-15.587175,-166.48418
-14.96582,-157.99707
-14.69801,-156.83101
-14.523882,-158.86
-14.940167,-155.66153
-15.034356,-160.44341
-15.428458,-159.22778
-14.446158,-163.07523
-14.83903,-162.84985
-15.461413,-159.07875
-15.860277,-158.7715
-14.818709,-154.97879
-14.904095,-163.00209
-14.722529,-152.51074
-15.129761,-159.72763
-13.819633,-161.51691
-15.132698,-162.43248
-15.178988,-164.49678
-15.194682,-161.18451
-15.495198,-163.96623
-14.558917,-164.31175
-15.34376,-155.62625
-15.408474,-161.36003
-15.343124,-154.29614
-14.731285,-160.16437
-14.495712,-159.05237
-14.799515,-159.48918
-14.692657,-164.09985
-14.313877,-160.75226
-15.186941,-162.89215
-14.526314,-160.59789
-14.779856,-158.20027
-14.901957,-162.21461
-15.283068,-160.85069
-14.963624,-160.2359
-15.137044,-167.46547
-15.254776,-163.41191
-14.721266,-163.33693
-15.644105,-157.40359
-15.272614,-163.99635
-15.053133,-160.38603
-15.21912,-163.48204
-14.654863,-161.01825
-14.608975,-160.33385
-15.020262,-163.21312
-15.455819,-166.42578
-15.085849,-161.19421
-14.854431,-161.34068
-14.431864,-164.54283
-15.524683,-160.22858
-15.055939,-164.39944
-14.134933,-156.91611
-14.95292,-163.32097
-14.582565,-162.57384
-14.850222,-163.95509
-15.459851,-161.30965
-14.981062,-167.37242
-15.210292,-158.0687
-15.371834,-159.84666
-14.595468,-161.38461
-15.191313,-165.30354
-15.544924,-159.03752
-14.892836,-163.65785
-14.314236,-156.11142
-14.289416,-161.38902
-14.876651,-158.96103
-15.233878,-160.79561
-15.782284,-159.18365
-15.21566,-159.5818
-15.096004,-159.18501
-14.96809,-163.29205
-15.369163,-156.20549
-15.369203,-161.61908
-14.818047,-162.51329
-14.552099,-161.78552
-14.61776,-161.52682
-14.890429,-161.92807
-14.927365,-156.66949
-15.11286,-159.85658
-16.017075,-157.53198
-15.318467,-160.15215
-14.903575,-163.8069
-14.603065,-158.28178
-15.339808,-158.5712
-15.003171,-159.46031
-15.183728,-163.19466
-14.895704,-162.32214
-14.704394,-160.07306
-14.121119,-162.08421
-14.883211,-158.93381
-14.786307,-157.87851
-15.369867,-157.61911
-15.117524,-164.75198
-14.51642,-162.78911
-15.291749,-161.77927
-14.605109,-158.12607
-14.662723,-161.0168
-14.757937,-164.03784
-15.337694,-158.38702
-15.937569,-160.77243
-15.21551,-159.81355
-15.943707,-157.54712
-15.021073,-157.51897
-14.738279,-159.83702
-15.374436,-161.34731
-15.07841,-160.89066
-14.196297,-162.36957
-15.529343,-160.54382
-15.244488,-158.21939
-15.227818,-160.53839
-15.051014,-163.16019
-15.424441,-165.90158
-14.761459,-160.8304
-15.481642,-170.57516
-15.488351,-158.68614
-14.669544,-155.61472
-14.976601,-161.35912
-15.100744,-160.01917
-16.002857,-161.00688
-15.307308,-163.04601
-15.820576,-161.42888
-15.783621,-157.33899
-15.074677,-161.34622
-15.244034,-161.87939
-14.623414,-157.79034
-15.064324,-156.72894
-15.443886,-162.24893
-15.303647,-163.58281
-14.571991,-162.0453
-15.266184,-159.79156
-15.386513,-159.69852
-15.419074,-162.15797
-14.886835,-162.92351
-15.288498,-158.78897
-15.005234,-163.38908
-14.997891,-156.25179
-15.464195,-159.57179
-15.685809,-161.60886
-14.989239,-157.07474
-14.986663,-162.06448
-15.238131,-158.6915
-15.137047,-159.90552
-14.535995,-162.67264
-15.293066,-157.53957
-14.873881,-162.44081
-15.077899,-162.9167
-14.952594,-161.46603
-14.74285,-161.52003
-15.36061,-162.70296
-14.26199,-159.69348
-15.234464,-160.7155
-14.957855,-158.2307
-15.437312,-166.13358
-15.432336,-161.87611
-15.264602,-155.40289
-15.432762,-163.42152
-15.392724,-161.38298
-14.950074,-160.00017
-14.587892,-162.00801
-16.059189,-162.5117
-15.059439,-165.10789
-14.696652,-158.19116
-14.80022,-163.59935
-14.954044,-161.99515
-15.140142,-155.12753
-14.589082,-160.25233
-14.61293,-165.28679
-14.770354,-160.68193
-15.11519,-165.53723
-15.170049,-159.22861
-15.71864,-158.43944
-15.005127,-163.19766
-15.323128,-164.02768
-15.333738,-159.45407
-14.57893,-158.79184
-15.588024,-158.23103
-14.604239,-163.81839
-14.892478,-157.60713
-14.83069,-162.28049
-15.361498,-161.0116
-15.22258,-160.62291
-15.379625,-160.52542
-14.863187,-159.63971
-14.811607,-162.23764
-15.073971,-162.15323
-14.66547,-160.52228
-15.20225,-163.86078
-15.228778,-160.24028
-15.779342,-160.68642
-15.117281,-160.89801
-15.144412,-158.53882
-15.064159,-159.35223
-15.065274,-159.90349
-15.104132,-162.43098
-15.187722,-162.36986
-15.359728,-163.86221
-14.975504,-162.12943
-14.841671,-160.51448
-15.026728,-162.16351
-15.141389,-154.49872
-15.078808,-160.51222
-14.648397,-161.07533
-15.408607,-159.73059
-14.941508,-163.05725
-14.881407,-162.75534
-14.856833,-161.23578
-14.797275,-159.03372
-15.447519,-160.24826
-15.091904,-162.01358
-15.040737,-159.83873
-15.064772,-161.16124
-15.40764,-162.40407
-15.232697,-162.32156
-14.964337,-162.27542
-15.263593,-161.66557
-15.052317,-158.02139
-15.236795,-162.34003
-15.138887,-158.61383
-15.309315,-160.8775
-15.025993,-162.567
-15.1875,-160.95152
-15.242599,-162.04794
-14.678094,-161.29733
-15.124605,-162.36002
-15.162007,-160.22626
-15.151912,-161.51717
-15.122754,-161.66463
-15.370256,-160.86359
-15.099998,-159.93469
-14.91599,-161.42229
-15.356917,-161.20079
-15.060061,-161.17307
-15.419274,-158.62752
-14.717769,-161.06311
-14.776049,-160.08125
-14.653738,-160.31491
-15.736034,-163.32646
-15.288305,-159.68666
-14.632277,-161.48402
-14.831922,-162.29568
-14.930512,-159.13336
-15.093281,-162.41547
-15.294125,-163.36841
-14.766107,-160.69157
-15.050401,-160.83313
-15.2336,-164.64871
-15.171642,-162.82904
-14.972131,-159.7756
-15.174612,-160.44409
-14.809275,-163.60114
-14.973382,-159.04547
-15.106429,-162.00827
-15.228658,-162.44708
-15.13735,-160.74733
-14.904794,-160.59839
-14.861768,-162.29317
-15.408725,-158.24368
-15.547254,-159.96704
-15.027739,-159.94165
-15.51588,-162.69099
-14.645243,-160.53418
-15.020689,-163.76584
-15.025578,-160.34174
-15.197711,-159.20621
-14.822068,-161.92085
-14.978401,-159.88568
-14.898336,-159.25929
-14.618202,-162.27356
-15.101222,-162.40558
-14.913594,-159.94868
-14.877174,-160.11143
-14.825044,-159.27402
-14.785102,-161.54829
-15.230856,-162.39128
-14.98313,-166.23683
-14.883071,-161.84651
-14.799604,-160.26152
-14.967957,-160.81024
-14.775719,-159.41455
-14.987495,-160.68207
-15.197195,-160.19969
-14.934603,-165.64592
-15.103716,-163.48338
-15.18052,-159.76956
-14.977305,-161.81236
-15.177843,-162.55795
-15.229155,-162.40907
-14.714601,-160.42062
-14.855909,-161.43991
-15.344069,-160.6855
-15.193501,-160.84544
-15.039152,-160.97568
-15.234832,-160.01364
-14.806494,-160.76334
-14.990943,-160.62309
-15.211139,-160.21083
-15.215146,-161.21336
-14.899515,-163.31192
-15.141086,-162.11612
-14.779194,-159.97885
-14.667815,-163.00789
-14.95546,-161.95613
-15.220897,-160.74272
-15.140017,-160.92984
-14.913267,-162.66371
-14.700352,-160.16992
-15.187947,-159.70897
-14.894711,-161.64494
-15.11569,-161.12549
-15.149617,-162.68781
-14.45584,-159.27576
-14.785602,-161.06981
-15.206954,-159.04712
-15.172887,-160.4232
-14.788693,-159.24857
-14.836558,-163.63756
-14.821935,-160.24318
-14.912961,-161.36206
-14.942744,-161.94814
-14.985674,-161.56708
-15.310667,-160.69046
-15.085725,-160.79961
-15.404882,-160.80748
-15.096278,-160.75388
-15.193111,-160.01746
-14.896404,-160.36896
-14.939054,-160.21619
-15.11619,-161.18555
-15.055608,-161.25908
-15.255952,-161.98689
-15.131883,-161.00049
-15.144644,-160.30453
-14.958646,-160.05884
-15.010636,-158.95181
-15.063334,-161.33879
-14.894001,-161.86926
-15.115344,-161.02036
-15.116284,-162.06389
-14.817175,-160.47398
-14.92358,-159.96196
-15.015842,-162.35175
-15.57296,-159.67761
-15.102417,-160.80008
-15.228663,-161.46561
-15.086197,-158.46622
-15.246329,-162.65637
-14.92727,-163.51752
-15.148108,-162.41034
-15.105515,-161.93359
-14.964375,-159.89911
-15.289387,-159.31604
-14.928321,-163.39124
-14.869907,-161.27356
-14.738448,-162.45102
-14.914403,-160.76721
-15.232671,-162.19252
-15.188509,-161.03952
-15.132291,-159.90019
-14.98128,-162.12263
-14.907766,-159.20654
-15.087663,-161.50961
-14.9189,-160.6524
-14.993554,-161.23981
-15.151737,-159.5143
-15.328959,-160.53009
-15.471542,-160.67003
-14.806357,-163.68463
-15.2968,-158.95261
-14.93461,-159.08916
-15.309978,-161.58739
-15.363227,-161.27396
-14.950183,-163.27936
-15.100445,-162.30286
-15.180246,-162.84566
-15.542403,-161.19427
-14.992145,-160.07059
-15.101912,-160.94627
-15.086492,-161.50349
-15.090063,-161.41167
-15.08521,-162.70009
-14.973196,-159.67859
-14.95183,-161.83109
-15.021482,-160.9044
-15.089725,-161.09253
-14.871729,-161.65544
-15.468954,-160.5563
-15.131811,-159.94798
-15.078695,-161.43445
-15.070931,-161.68164
-15.128107,-161.96335
-14.982908,-162.50969
-15.278128,-159.2473
-15.131546,-161.65459
-14.835301,-160.45398
-14.668262,-161.24881
-14.766745,-161.07895
-14.940013,-161.07045
-15.118141,-160.13181
-15.110538,-161.33824
-14.991835,-161.89082
-14.750631,-162.32747
-15.191365,-161.03764
-15.006111,-162.92126
-15.238056,-162.09837
-15.124399,-159.12898
-14.776155,-162.36928
-15.237869,-162.26228
-15.174222,-160.62616
-15.053434,-161.00989
-15.002102,-161.45865
-15.049387,-159.79114
-15.222493,-162.17935
-15.23067,-159.09988
-15.088011,-161.83208
-15.098946,-160.83267
-14.877131,-161.53972
-14.848142,-160.35953
-15.182535,-162.52457
-15.062517,-161.70221
-14.881402,-161.09303
-14.898844,-160.30769
-14.929391,-162.9328
-15.165166,-162.0385
-15.166989,-162.38905
-15.197274,-160.63037
-14.892397,-160.55055
-15.217049,-162.87575
-15.040977,-160.36768
-14.813005,-161.92729
-15.075912,-160.1422
-15.176549,-161.90648
-15.035505,-159.3759
-15.13859,-160.90092
-14.778635,-161.15805
-15.018428,-160.58267
-14.991948,-161.2157
-15.288159,-161.7372
-15.09436,-161.45314
-15.029823,-161.90945
-14.934255,-162.1881
-14.892396,-161.46324
-15.122746,-162.33467
-15.105183,-161.60924
-15.0973,-162.26416
-14.777773,-159.85033
-15.208858,-160.27733
-15.260715,-160.11003
-15.024347,-161.883
-15.238308,-160.25128
-15.184012,-159.90338
-15.092498,-161.64555
-15.022812,-161.46138
-15.130969,-158.94975
-15.183005,-161.5376
-14.861656,-160.6803
-15.075747,-161.23224
-15.28545,-162.21356
