CITIFILE A.01.01
!Agilent Technologies,N5230C,MY48100142,A.08.04.10
!Agilent N5230C: A.08.04.10
!Format: LogMag/Angle
!Date: Wednesday, February 19, 2020 16:40:37
NAME CH1_DATA
VAR Power MAG 801
DATA S11 DBANGLE
DATA S21 DBANGLE
DATA S12 DBANGLE
DATA S22 DBANGLE
VAR_LIST_BEGIN
-40
-39.975
-39.95
-39.925
-39.9
-39.875
-39.85
-39.825
-39.8
-39.775
-39.75
-39.725
-39.7
-39.675
-39.65
-39.625
-39.6
-39.575
-39.55
-39.525
-39.5
-39.475
-39.45
-39.425
-39.4
-39.375
-39.35
-39.325
-39.3
-39.275
-39.25
-39.225
-39.2
-39.175
-39.15
-39.125
-39.1
-39.075
-39.05
-39.025
-39
-38.975
-38.95
-38.925
-38.9
-38.875
-38.85
-38.825
-38.8
-38.775
-38.75
-38.725
-38.7
-38.675
-38.65
-38.625
-38.6
-38.575
-38.55
-38.525
-38.5
-38.475
-38.45
-38.425
-38.4
-38.375
-38.35
-38.325
-38.3
-38.275
-38.25
-38.225
-38.2
-38.175
-38.15
-38.125
-38.1
-38.075
-38.05
-38.025
-38
-37.975
-37.95
-37.925
-37.9
-37.875
-37.85
-37.825
-37.8
-37.775
-37.75
-37.725
-37.7
-37.675
-37.65
-37.625
-37.6
-37.575
-37.55
-37.525
-37.5
-37.475
-37.45
-37.425
-37.4
-37.375
-37.35
-37.325
-37.3
-37.275
-37.25
-37.225
-37.2
-37.175
-37.15
-37.125
-37.1
-37.075
-37.05
-37.025
-37
-36.975
-36.95
-36.925
-36.9
-36.875
-36.85
-36.825
-36.8
-36.775
-36.75
-36.725
-36.7
-36.675
-36.65
-36.625
-36.6
-36.575
-36.55
-36.525
-36.5
-36.475
-36.45
-36.425
-36.4
-36.375
-36.35
-36.325
-36.3
-36.275
-36.25
-36.225
-36.2
-36.175
-36.15
-36.125
-36.1
-36.075
-36.05
-36.025
-36
-35.975
-35.95
-35.925
-35.9
-35.875
-35.85
-35.825
-35.8
-35.775
-35.75
-35.725
-35.7
-35.675
-35.65
-35.625
-35.6
-35.575
-35.55
-35.525
-35.5
-35.475
-35.45
-35.425
-35.4
-35.375
-35.35
-35.325
-35.3
-35.275
-35.25
-35.225
-35.2
-35.175
-35.15
-35.125
-35.1
-35.075
-35.05
-35.025
-35
-34.975
-34.95
-34.925
-34.9
-34.875
-34.85
-34.825
-34.8
-34.775
-34.75
-34.725
-34.7
-34.675
-34.65
-34.625
-34.6
-34.575
-34.55
-34.525
-34.5
-34.475
-34.45
-34.425
-34.4
-34.375
-34.35
-34.325
-34.3
-34.275
-34.25
-34.225
-34.2
-34.175
-34.15
-34.125
-34.1
-34.075
-34.05
-34.025
-34
-33.975
-33.95
-33.925
-33.9
-33.875
-33.85
-33.825
-33.8
-33.775
-33.75
-33.725
-33.7
-33.675
-33.65
-33.625
-33.6
-33.575
-33.55
-33.525
-33.5
-33.475
-33.45
-33.425
-33.4
-33.375
-33.35
-33.325
-33.3
-33.275
-33.25
-33.225
-33.2
-33.175
-33.15
-33.125
-33.1
-33.075
-33.05
-33.025
-33
-32.975
-32.95
-32.925
-32.9
-32.875
-32.85
-32.825
-32.8
-32.775
-32.75
-32.725
-32.7
-32.675
-32.65
-32.625
-32.6
-32.575
-32.55
-32.525
-32.5
-32.475
-32.45
-32.425
-32.4
-32.375
-32.35
-32.325
-32.3
-32.275
-32.25
-32.225
-32.2
-32.175
-32.15
-32.125
-32.1
-32.075
-32.05
-32.025
-32
-31.975
-31.95
-31.925
-31.9
-31.875
-31.85
-31.825
-31.8
-31.775
-31.75
-31.725
-31.7
-31.675
-31.65
-31.625
-31.6
-31.575
-31.55
-31.525
-31.5
-31.475
-31.45
-31.425
-31.4
-31.375
-31.35
-31.325
-31.3
-31.275
-31.25
-31.225
-31.2
-31.175
-31.15
-31.125
-31.1
-31.075
-31.05
-31.025
-31
-30.975
-30.95
-30.925
-30.9
-30.875
-30.85
-30.825
-30.8
-30.775
-30.75
-30.725
-30.7
-30.675
-30.65
-30.625
-30.6
-30.575
-30.55
-30.525
-30.5
-30.475
-30.45
-30.425
-30.4
-30.375
-30.35
-30.325
-30.3
-30.275
-30.25
-30.225
-30.2
-30.175
-30.15
-30.125
-30.1
-30.075
-30.05
-30.025
-30
-29.975
-29.95
-29.925
-29.9
-29.875
-29.85
-29.825
-29.8
-29.775
-29.75
-29.725
-29.7
-29.675
-29.65
-29.625
-29.6
-29.575
-29.55
-29.525
-29.5
-29.475
-29.45
-29.425
-29.4
-29.375
-29.35
-29.325
-29.3
-29.275
-29.25
-29.225
-29.2
-29.175
-29.15
-29.125
-29.1
-29.075
-29.05
-29.025
-29
-28.975
-28.95
-28.925
-28.9
-28.875
-28.85
-28.825
-28.8
-28.775
-28.75
-28.725
-28.7
-28.675
-28.65
-28.625
-28.6
-28.575
-28.55
-28.525
-28.5
-28.475
-28.45
-28.425
-28.4
-28.375
-28.35
-28.325
-28.3
-28.275
-28.25
-28.225
-28.2
-28.175
-28.15
-28.125
-28.1
-28.075
-28.05
-28.025
-28
-27.975
-27.95
-27.925
-27.9
-27.875
-27.85
-27.825
-27.8
-27.775
-27.75
-27.725
-27.7
-27.675
-27.65
-27.625
-27.6
-27.575
-27.55
-27.525
-27.5
-27.475
-27.45
-27.425
-27.4
-27.375
-27.35
-27.325
-27.3
-27.275
-27.25
-27.225
-27.2
-27.175
-27.15
-27.125
-27.1
-27.075
-27.05
-27.025
-27
-26.975
-26.95
-26.925
-26.9
-26.875
-26.85
-26.825
-26.8
-26.775
-26.75
-26.725
-26.7
-26.675
-26.65
-26.625
-26.6
-26.575
-26.55
-26.525
-26.5
-26.475
-26.45
-26.425
-26.4
-26.375
-26.35
-26.325
-26.3
-26.275
-26.25
-26.225
-26.2
-26.175
-26.15
-26.125
-26.1
-26.075
-26.05
-26.025
-26
-25.975
-25.95
-25.925
-25.9
-25.875
-25.85
-25.825
-25.8
-25.775
-25.75
-25.725
-25.7
-25.675
-25.65
-25.625
-25.6
-25.575
-25.55
-25.525
-25.5
-25.475
-25.45
-25.425
-25.4
-25.375
-25.35
-25.325
-25.3
-25.275
-25.25
-25.225
-25.2
-25.175
-25.15
-25.125
-25.1
-25.075
-25.05
-25.025
-25
-24.975
-24.95
-24.925
-24.9
-24.875
-24.85
-24.825
-24.8
-24.775
-24.75
-24.725
-24.7
-24.675
-24.65
-24.625
-24.6
-24.575
-24.55
-24.525
-24.5
-24.475
-24.45
-24.425
-24.4
-24.375
-24.35
-24.325
-24.3
-24.275
-24.25
-24.225
-24.2
-24.175
-24.15
-24.125
-24.1
-24.075
-24.05
-24.025
-24
-23.975
-23.95
-23.925
-23.9
-23.875
-23.85
-23.825
-23.8
-23.775
-23.75
-23.725
-23.7
-23.675
-23.65
-23.625
-23.6
-23.575
-23.55
-23.525
-23.5
-23.475
-23.45
-23.425
-23.4
-23.375
-23.35
-23.325
-23.3
-23.275
-23.25
-23.225
-23.2
-23.175
-23.15
-23.125
-23.1
-23.075
-23.05
-23.025
-23
-22.975
-22.95
-22.925
-22.9
-22.875
-22.85
-22.825
-22.8
-22.775
-22.75
-22.725
-22.7
-22.675
-22.65
-22.625
-22.6
-22.575
-22.55
-22.525
-22.5
-22.475
-22.45
-22.425
-22.4
-22.375
-22.35
-22.325
-22.3
-22.275
-22.25
-22.225
-22.2
-22.175
-22.15
-22.125
-22.1
-22.075
-22.05
-22.025
-22
-21.975
-21.95
-21.925
-21.9
-21.875
-21.85
-21.825
-21.8
-21.775
-21.75
-21.725
-21.7
-21.675
-21.65
-21.625
-21.6
-21.575
-21.55
-21.525
-21.5
-21.475
-21.45
-21.425
-21.4
-21.375
-21.35
-21.325
-21.3
-21.275
-21.25
-21.225
-21.2
-21.175
-21.15
-21.125
-21.1
-21.075
-21.05
-21.025
-21
-20.975
-20.95
-20.925
-20.9
-20.875
-20.85
-20.825
-20.8
-20.775
-20.75
-20.725
-20.7
-20.675
-20.65
-20.625
-20.6
-20.575
-20.55
-20.525
-20.5
-20.475
-20.45
-20.425
-20.4
-20.375
-20.35
-20.325
-20.3
-20.275
-20.25
-20.225
-20.2
-20.175
-20.15
-20.125
-20.1
-20.075
-20.05
-20.025
-20
VAR_LIST_END
BEGIN
-15.311227,-161.08806
-15.11709,-158.44626
-15.423314,-163.71786
-15.447956,-155.77965
-15.207702,-160.35989
-14.881015,-165.82993
-15.148787,-158.48772
-14.096133,-164.69229
-15.506898,-158.55594
-14.932779,-160.1067
-16.066133,-158.22462
-14.953597,-157.34636
-15.711444,-165.27635
-14.672221,-163.24428
-14.013822,-164.2726
-15.0318,-164.98758
-15.489383,-170.35146
-15.260704,-154.39445
-14.466999,-160.33484
-15.940038,-159.04153
-14.726276,-164.43942
-15.575438,-163.30779
-15.199586,-159.8759
-15.214749,-157.75861
-15.230758,-153.45564
-16.200848,-165.33609
-15.292985,-162.2686
-15.098312,-163.10789
-15.143497,-158.10005
-14.97684,-159.43507
-15.473311,-162.77678
-15.960405,-164.6991
-15.007979,-161.30548
-14.109472,-159.52567
-14.558651,-163.01143
-15.277924,-169.06946
-14.425664,-166.99574
-15.070738,-162.44824
-15.768558,-159.54321
-15.147037,-156.31744
-14.320037,-162.51877
-14.7815,-163.89368
-15.273806,-155.52635
-14.553038,-165.5125
-15.410611,-159.68703
-14.906218,-157.86739
-15.207793,-160.15829
-15.178668,-161.37402
-15.177194,-156.73482
-15.389762,-160.07286
-14.922918,-160.84512
-15.28089,-159.56955
-14.046408,-162.32178
-14.851876,-165.0838
-14.699936,-162.40286
-15.284479,-164.55133
-14.680352,-162.34712
-15.38831,-155.6944
-14.794687,-157.86729
-14.692352,-163.80269
-15.219338,-158.92525
-15.236459,-156.19798
-15.007541,-162.04927
-15.025148,-160.39113
-14.137835,-161.97604
-14.892015,-162.16475
-14.79183,-158.62029
-14.188456,-161.29843
-14.304756,-161.98615
-15.166657,-156.76715
-15.573967,-164.47449
-14.990791,-162.3022
-14.89235,-166.23189
-15.538642,-160.45815
-15.235819,-164.48586
-15.045063,-161.0154
-15.157933,-159.29251
-15.261385,-160.00726
-15.217135,-159.73499
-15.347646,-164.28769
-14.643682,-164.65268
-14.932626,-159.00992
-15.378771,-161.92712
-15.55882,-159.86731
-16.377045,-162.21124
-15.31461,-160.74965
-15.447294,-159.97075
-15.069022,-161.76889
-14.400418,-164.39462
-15.283592,-164.08073
-14.362935,-164.58057
-14.739564,-162.47983
-14.620965,-156.23244
-14.714603,-159.56775
-15.372129,-166.62268
-15.721844,-155.24805
-15.525306,-162.62389
-14.980102,-162.52794
-15.732588,-164.49965
-15.584023,-160.66377
-15.076909,-160.16669
-15.412724,-160.50095
-15.19997,-161.981
-15.287205,-160.51753
-14.66949,-157.87926
-14.742461,-161.03418
-15.282492,-163.2807
-15.702324,-155.99091
-14.576781,-160.12794
-15.073675,-160.35194
-14.402234,-162.38371
-15.190166,-160.19829
-15.322828,-158.20422
-15.472506,-159.29703
-14.832026,-161.12991
-15.056984,-160.66472
-15.360396,-165.71968
-14.504914,-158.0714
-14.472072,-156.46806
-14.878369,-162.51256
-15.057302,-157.77333
-15.269031,-164.51863
-14.893512,-163.79626
-15.751621,-159.9165
-15.096313,-163.41864
-15.640106,-160.25525
-15.466138,-163.0643
-15.509181,-159.69754
-15.356249,-161.2177
-15.407356,-162.23132
-14.799456,-160.68571
-14.877278,-161.49004
-15.47012,-162.45343
-15.614083,-164.13609
-15.449372,-160.68271
-15.192122,-159.14754
-14.810541,-158.68147
-15.440046,-162.09207
-14.738219,-164.40443
-15.115238,-163.37526
-14.608143,-162.45126
-14.925723,-159.74931
-15.889916,-157.68613
-14.83076,-159.13034
-15.008573,-162.88892
-15.353514,-161.03363
-14.846744,-162.19533
-15.394838,-159.17461
-14.30722,-159.55586
-15.057363,-160.70975
-14.93329,-163.88208
-15.257523,-157.03064
-14.812139,-159.64484
-14.429373,-163.52713
-15.236299,-161.39676
-15.339692,-160.16986
-14.858294,-161.638
-15.276342,-156.72305
-14.537617,-159.65918
-15.171512,-163.89868
-15.332809,-156.17953
-14.953063,-159.24542
-14.777358,-161.23106
-15.759654,-157.14117
-14.757642,-161.08763
-14.948941,-159.00494
-15.25061,-163.16261
-14.975439,-164.12794
-15.280534,-159.69296
-15.286554,-165.76668
-15.423881,-162.09891
-14.816857,-160.49394
-15.628876,-155.85768
-15.102567,-163.40985
-15.146529,-164.13774
-15.112767,-159.27232
-15.039001,-156.73268
-15.003428,-160.811
-15.448358,-162.4474
-14.811769,-161.31824
-14.888688,-157.95599
-15.191837,-161.79631
-14.969208,-164.30074
-15.771542,-163.63838
-15.459046,-160.38452
-15.148587,-162.03868
-14.930207,-162.07455
-15.073724,-160.54533
-15.11175,-164.77638
-15.647287,-163.30061
-14.938224,-164.38593
-14.551255,-161.18399
-15.04631,-159.563
-14.579019,-161.1219
-15.378983,-160.48827
-14.764003,-159.23425
-14.916798,-161.87852
-15.11081,-160.71248
-15.082961,-160.5668
-15.36633,-160.68999
-15.133351,-160.26515
-14.562826,-163.09857
-15.258447,-163.98189
-14.508611,-160.87862
-15.407367,-161.86983
-15.129637,-160.66354
-14.806481,-160.93608
-15.068897,-164.19983
-14.981756,-160.90967
-15.133252,-161.34846
-15.270388,-162.04352
-14.743391,-158.4191
-15.143905,-161.02858
-15.185678,-161.94366
-14.827789,-162.51161
-16.160856,-164.38615
-15.18937,-161.54942
-14.781425,-160.65422
-15.11134,-157.33299
-15.193365,-162.43277
-15.225276,-158.46452
-14.893988,-158.27869
-14.854838,-159.95695
-14.944139,-158.43335
-14.749002,-159.88881
-15.107396,-165.00194
-15.083732,-161.01804
-14.86662,-161.91695
-15.189187,-162.77483
-15.321355,-162.71999
-15.687488,-162.89771
-15.434691,-164.88115
-15.16583,-159.69661
-15.144202,-161.27393
-14.871821,-163.76285
-14.945933,-159.10135
-15.106484,-165.3024
-14.229184,-160.58168
-15.174395,-162.59329
-15.416173,-164.2657
-14.978543,-160.1956
-14.96732,-160.01108
-15.144427,-161.60468
-15.127713,-159.10689
-14.836946,-159.32756
-15.022872,-161.36771
-15.096624,-160.79015
-15.171,-159.94588
-15.174698,-160.61118
-15.064712,-160.51515
-15.210375,-162.29935
-14.681854,-157.96614
-14.729919,-163.24821
-15.109947,-161.52235
-15.066787,-162.06273
-15.214977,-160.7318
-15.275183,-160.52617
-15.488256,-159.58398
-15.202,-162.84686
-15.264185,-163.05225
-15.138139,-161.32213
-15.218796,-162.19028
-14.573833,-161.79568
-15.272967,-159.15884
-15.028948,-160.42084
-15.589451,-164.07652
-14.718182,-160.23195
-15.187824,-161.93289
-14.35576,-160.36591
-14.852797,-160.58382
-14.995214,-162.17401
-15.136847,-158.07809
-15.176567,-160.13518
-15.184016,-162.96057
-15.244298,-157.49757
-15.152956,-162.97797
-15.352338,-164.39384
-15.207403,-159.66205
-14.528251,-162.71918
-14.699887,-157.66769
-15.066309,-162.29178
-15.589586,-162.02222
-14.671309,-161.17586
-14.572761,-159.65155
-15.350986,-158.49663
-14.972285,-159.79765
-15.204912,-163.15411
-15.051902,-161.2386
-14.946221,-161.87575
-14.944265,-160.52106
-14.877248,-161.79689
-14.703283,-160.60095
-15.696972,-160.73846
-15.471887,-161.58977
-15.209693,-162.58313
-14.924353,-157.51489
-15.409811,-164.75543
-15.240266,-163.10405
-15.411066,-160.10698
-15.519696,-160.58705
-14.888832,-161.47392
-15.020728,-162.11729
-15.041216,-163.0648
-14.897668,-159.81589
-15.251289,-160.14511
-15.175787,-162.23282
-14.709769,-162.44966
-14.881515,-161.39983
-15.050549,-161.53268
-15.162787,-161.62189
-15.289868,-158.10335
-14.922617,-163.58195
-15.152826,-160.98395
-15.070843,-161.20294
-15.027875,-161.09845
-14.972116,-161.61018
-14.96765,-157.40102
-15.03527,-161.14308
-15.079906,-160.735
-15.312898,-159.54242
-15.013502,-161.23575
-14.992029,-157.67319
-15.239913,-164.34517
-14.950747,-160.47661
-15.381357,-161.42067
-14.920286,-161.51195
-15.569524,-163.90787
-15.11556,-161.63116
-14.933836,-162.29953
-15.251095,-160.61906
-14.791492,-160.97195
-14.695506,-161.31964
-14.959829,-157.33121
-15.251386,-160.18913
-14.776244,-161.58101
-15.023318,-160.15506
-14.731038,-162.73001
-14.943461,-160.56406
-15.221126,-160.17242
-15.295109,-161.67722
-15.203824,-162.35457
-14.827587,-161.62709
-14.818994,-162.56071
-15.037469,-160.29771
-14.592368,-160.40721
-15.393814,-163.05862
-15.039992,-161.84006
-15.29997,-161.64706
-15.118757,-160.42715
-15.250751,-163.02444
-15.015215,-161.55934
-14.912075,-160.61177
-15.199017,-161.8295
-14.956788,-163.65353
-15.040562,-160.45317
-14.815365,-159.60706
-15.133281,-161.98926
-14.821599,-160.86705
-15.032631,-163.07254
-15.244595,-161.22
-14.997375,-159.254
-14.764088,-160.58673
-15.157814,-163.95328
-15.306446,-163.83043
-15.346273,-162.33702
-14.93933,-161.43398
-15.291007,-160.97586
-15.116821,-160.9998
-15.460663,-158.30231
-15.387231,-161.07077
-15.191442,-160.76773
-14.787301,-161.963
-15.539143,-159.51636
-14.579023,-160.74016
-14.922923,-159.60011
-15.198816,-160.99687
-14.972455,-160.95473
-14.983394,-159.30894
-14.747116,-161.24519
-15.089143,-160.08595
-15.16809,-162.68744
-15.24091,-162.77655
-14.977091,-162.02013
-15.563795,-160.25841
-15.136698,-159.32066
-15.047905,-161.14827
-14.995664,-160.0327
-14.878574,-158.2868
-14.90259,-163.2877
-15.248328,-160.46265
-14.787491,-162.39378
-15.189384,-161.90265
-15.279802,-163.57413
-14.940469,-162.93857
-15.123981,-164.65469
-15.041135,-160.81445
-15.556715,-163.14934
-15.17787,-162.75107
-14.847711,-160.10992
-15.172021,-160.38962
-15.068733,-159.51541
-15.107192,-162.87856
-15.46335,-162.2166
-14.895065,-162.83374
-15.119142,-159.80475
-15.306287,-161.11031
-15.064816,-161.94644
-15.012269,-161.18291
-14.947973,-162.33702
-15.031767,-162.08025
-15.333692,-159.94254
-15.029922,-162.00974
-15.306417,-160.55194
-14.932356,-160.25099
-15.418797,-161.37563
-15.185504,-160.22095
-15.147145,-160.66472
-15.253526,-160.50078
-14.849623,-159.95815
-14.956599,-160.60628
-14.835779,-163.31909
-14.968062,-162.17958
-15.047802,-160.84598
-14.893245,-162.91406
-15.394595,-160.29654
-14.978776,-161.39278
-15.401161,-160.85701
-15.047486,-162.47949
-15.18298,-161.36182
-15.041775,-161.60741
-15.009204,-160.52609
-15.183236,-159.01735
-14.965581,-162.67714
-15.077185,-160.54375
-14.750328,-162.27541
-15.087328,-160.03807
-14.972768,-160.44655
-15.079645,-161.25594
-15.151206,-162.98466
-15.170249,-160.48878
-15.067376,-163.66214
-14.935335,-160.39326
-15.126109,-161.80026
-15.330941,-159.99225
-14.8402,-161.34764
-14.885843,-162.32552
-15.042435,-160.7738
-15.129205,-158.89355
-15.123656,-161.26517
-15.149411,-161.78738
-15.081259,-160.28914
-15.127803,-161.77849
-15.192218,-162.01907
-15.095604,-160.48729
-15.167434,-162.48331
-15.317019,-162.96925
-15.023523,-159.19534
-15.063255,-160.6797
-14.86005,-161.53418
-15.136431,-161.36354
-15.016139,-160.83803
-15.112277,-161.72307
-15.063486,-162.51283
-14.870108,-160.40079
-15.293852,-161.46237
-14.991308,-160.63791
-15.026593,-160.75508
-14.934331,-160.85751
-14.921448,-161.90808
-14.896269,-160.4584
-15.216422,-162.6116
-15.024734,-161.62694
-14.969827,-161.28308
-14.92947,-161.32397
-15.123978,-160.71078
-15.008164,-159.29921
-14.862298,-160.74553
-15.240369,-160.68608
-15.01928,-160.99873
-15.020172,-162.40648
-15.277189,-160.20186
-14.849454,-161.22107
-15.119581,-160.10622
-15.057144,-160.88475
-15.173667,-162.09195
-15.136114,-161.36969
-14.981679,-160.93912
-15.202434,-161.73816
-15.013679,-159.76718
-15.082781,-160.22476
-15.057112,-163.48283
-14.979235,-160.97079
-15.070597,-161.39941
-15.279543,-161.06279
-15.200151,-161.16496
-15.135625,-162.40117
-14.96102,-162.31094
-14.943189,-160.75874
-14.895228,-160.76971
-15.041891,-162.63737
-15.093395,-161.4538
-15.185009,-161.7114
-15.173538,-160.05339
-15.041183,-162.75372
-15.108078,-160.29816
-15.285522,-161.47375
-15.03975,-160.59184
-15.342216,-161.99229
-14.896174,-161.40959
-15.087919,-161.80339
-14.961994,-160.54959
-14.983323,-161.23488
-15.156907,-161.07738
-15.100473,-160.65331
-14.9373,-160.80482
-15.04631,-161.67223
-15.067147,-159.4397
-15.077252,-161.35237
-15.098746,-160.30243
-15.404806,-162.28905
-15.004333,-160.48296
-15.015998,-160.83563
-15.006425,-161.43367
-14.858242,-160.29787
-14.989348,-160.96112
-15.092665,-161.53575
-15.203691,-160.79276
-15.056105,-160.12305
-14.989125,-160.95981
-15.040576,-160.75287
-15.360345,-159.43228
-14.984561,-161.28349
-15.034983,-161.72214
-15.126483,-161.11336
-15.188362,-161.34395
-14.990654,-161.02861
-14.851235,-160.27415
-15.241837,-162.48599
-15.045054,-159.60425
-14.924625,-159.8983
-15.3665,-160.76588
-14.985239,-161.53967
-14.843235,-162.09937
-14.959036,-160.69939
-14.995836,-160.51044
-15.038507,-162.10472
-15.148039,-160.24286
-14.939351,-162.65044
-15.089765,-161.52119
-15.130968,-160.61551
-15.091499,-161.56328
-15.140494,-160.8255
-15.200916,-160.45865
-15.21065,-161.65353
-14.831518,-161.15608
-15.194622,-161.07254
-14.982862,-161.61197
-15.210616,-160.40251
-15.059582,-160.45384
-14.927726,-160.28119
-15.134842,-162.7744
-14.958591,-160.71196
-15.233275,-160.38303
-15.136481,-162.32628
-15.167306,-160.94821
-15.012318,-160.67828
-14.919206,-161.15652
-14.880828,-162.07101
-14.86494,-160.81648
-15.145912,-160.73421
-15.07126,-161.75172
-15.09392,-161.00336
-15.115186,-161.22098
-15.088239,-161.57874
-14.996513,-161.4416
