CITIFILE A.01.01
!Agilent Technologies,N5230C,MY48100142,A.08.04.10
!Agilent N5230C: A.08.04.10
!Format: LogMag/Angle
!Date: Monday, August 24, 2020 12:18:35
NAME CH1_DATA
VAR Power MAG 801
DATA S11 DBANGLE
DATA S21 DBANGLE
DATA S12 DBANGLE
DATA S22 DBANGLE
VAR_LIST_BEGIN
-40
-39.975
-39.95
-39.925
-39.9
-39.875
-39.85
-39.825
-39.8
-39.775
-39.75
-39.725
-39.7
-39.675
-39.65
-39.625
-39.6
-39.575
-39.55
-39.525
-39.5
-39.475
-39.45
-39.425
-39.4
-39.375
-39.35
-39.325
-39.3
-39.275
-39.25
-39.225
-39.2
-39.175
-39.15
-39.125
-39.1
-39.075
-39.05
-39.025
-39
-38.975
-38.95
-38.925
-38.9
-38.875
-38.85
-38.825
-38.8
-38.775
-38.75
-38.725
-38.7
-38.675
-38.65
-38.625
-38.6
-38.575
-38.55
-38.525
-38.5
-38.475
-38.45
-38.425
-38.4
-38.375
-38.35
-38.325
-38.3
-38.275
-38.25
-38.225
-38.2
-38.175
-38.15
-38.125
-38.1
-38.075
-38.05
-38.025
-38
-37.975
-37.95
-37.925
-37.9
-37.875
-37.85
-37.825
-37.8
-37.775
-37.75
-37.725
-37.7
-37.675
-37.65
-37.625
-37.6
-37.575
-37.55
-37.525
-37.5
-37.475
-37.45
-37.425
-37.4
-37.375
-37.35
-37.325
-37.3
-37.275
-37.25
-37.225
-37.2
-37.175
-37.15
-37.125
-37.1
-37.075
-37.05
-37.025
-37
-36.975
-36.95
-36.925
-36.9
-36.875
-36.85
-36.825
-36.8
-36.775
-36.75
-36.725
-36.7
-36.675
-36.65
-36.625
-36.6
-36.575
-36.55
-36.525
-36.5
-36.475
-36.45
-36.425
-36.4
-36.375
-36.35
-36.325
-36.3
-36.275
-36.25
-36.225
-36.2
-36.175
-36.15
-36.125
-36.1
-36.075
-36.05
-36.025
-36
-35.975
-35.95
-35.925
-35.9
-35.875
-35.85
-35.825
-35.8
-35.775
-35.75
-35.725
-35.7
-35.675
-35.65
-35.625
-35.6
-35.575
-35.55
-35.525
-35.5
-35.475
-35.45
-35.425
-35.4
-35.375
-35.35
-35.325
-35.3
-35.275
-35.25
-35.225
-35.2
-35.175
-35.15
-35.125
-35.1
-35.075
-35.05
-35.025
-35
-34.975
-34.95
-34.925
-34.9
-34.875
-34.85
-34.825
-34.8
-34.775
-34.75
-34.725
-34.7
-34.675
-34.65
-34.625
-34.6
-34.575
-34.55
-34.525
-34.5
-34.475
-34.45
-34.425
-34.4
-34.375
-34.35
-34.325
-34.3
-34.275
-34.25
-34.225
-34.2
-34.175
-34.15
-34.125
-34.1
-34.075
-34.05
-34.025
-34
-33.975
-33.95
-33.925
-33.9
-33.875
-33.85
-33.825
-33.8
-33.775
-33.75
-33.725
-33.7
-33.675
-33.65
-33.625
-33.6
-33.575
-33.55
-33.525
-33.5
-33.475
-33.45
-33.425
-33.4
-33.375
-33.35
-33.325
-33.3
-33.275
-33.25
-33.225
-33.2
-33.175
-33.15
-33.125
-33.1
-33.075
-33.05
-33.025
-33
-32.975
-32.95
-32.925
-32.9
-32.875
-32.85
-32.825
-32.8
-32.775
-32.75
-32.725
-32.7
-32.675
-32.65
-32.625
-32.6
-32.575
-32.55
-32.525
-32.5
-32.475
-32.45
-32.425
-32.4
-32.375
-32.35
-32.325
-32.3
-32.275
-32.25
-32.225
-32.2
-32.175
-32.15
-32.125
-32.1
-32.075
-32.05
-32.025
-32
-31.975
-31.95
-31.925
-31.9
-31.875
-31.85
-31.825
-31.8
-31.775
-31.75
-31.725
-31.7
-31.675
-31.65
-31.625
-31.6
-31.575
-31.55
-31.525
-31.5
-31.475
-31.45
-31.425
-31.4
-31.375
-31.35
-31.325
-31.3
-31.275
-31.25
-31.225
-31.2
-31.175
-31.15
-31.125
-31.1
-31.075
-31.05
-31.025
-31
-30.975
-30.95
-30.925
-30.9
-30.875
-30.85
-30.825
-30.8
-30.775
-30.75
-30.725
-30.7
-30.675
-30.65
-30.625
-30.6
-30.575
-30.55
-30.525
-30.5
-30.475
-30.45
-30.425
-30.4
-30.375
-30.35
-30.325
-30.3
-30.275
-30.25
-30.225
-30.2
-30.175
-30.15
-30.125
-30.1
-30.075
-30.05
-30.025
-30
-29.975
-29.95
-29.925
-29.9
-29.875
-29.85
-29.825
-29.8
-29.775
-29.75
-29.725
-29.7
-29.675
-29.65
-29.625
-29.6
-29.575
-29.55
-29.525
-29.5
-29.475
-29.45
-29.425
-29.4
-29.375
-29.35
-29.325
-29.3
-29.275
-29.25
-29.225
-29.2
-29.175
-29.15
-29.125
-29.1
-29.075
-29.05
-29.025
-29
-28.975
-28.95
-28.925
-28.9
-28.875
-28.85
-28.825
-28.8
-28.775
-28.75
-28.725
-28.7
-28.675
-28.65
-28.625
-28.6
-28.575
-28.55
-28.525
-28.5
-28.475
-28.45
-28.425
-28.4
-28.375
-28.35
-28.325
-28.3
-28.275
-28.25
-28.225
-28.2
-28.175
-28.15
-28.125
-28.1
-28.075
-28.05
-28.025
-28
-27.975
-27.95
-27.925
-27.9
-27.875
-27.85
-27.825
-27.8
-27.775
-27.75
-27.725
-27.7
-27.675
-27.65
-27.625
-27.6
-27.575
-27.55
-27.525
-27.5
-27.475
-27.45
-27.425
-27.4
-27.375
-27.35
-27.325
-27.3
-27.275
-27.25
-27.225
-27.2
-27.175
-27.15
-27.125
-27.1
-27.075
-27.05
-27.025
-27
-26.975
-26.95
-26.925
-26.9
-26.875
-26.85
-26.825
-26.8
-26.775
-26.75
-26.725
-26.7
-26.675
-26.65
-26.625
-26.6
-26.575
-26.55
-26.525
-26.5
-26.475
-26.45
-26.425
-26.4
-26.375
-26.35
-26.325
-26.3
-26.275
-26.25
-26.225
-26.2
-26.175
-26.15
-26.125
-26.1
-26.075
-26.05
-26.025
-26
-25.975
-25.95
-25.925
-25.9
-25.875
-25.85
-25.825
-25.8
-25.775
-25.75
-25.725
-25.7
-25.675
-25.65
-25.625
-25.6
-25.575
-25.55
-25.525
-25.5
-25.475
-25.45
-25.425
-25.4
-25.375
-25.35
-25.325
-25.3
-25.275
-25.25
-25.225
-25.2
-25.175
-25.15
-25.125
-25.1
-25.075
-25.05
-25.025
-25
-24.975
-24.95
-24.925
-24.9
-24.875
-24.85
-24.825
-24.8
-24.775
-24.75
-24.725
-24.7
-24.675
-24.65
-24.625
-24.6
-24.575
-24.55
-24.525
-24.5
-24.475
-24.45
-24.425
-24.4
-24.375
-24.35
-24.325
-24.3
-24.275
-24.25
-24.225
-24.2
-24.175
-24.15
-24.125
-24.1
-24.075
-24.05
-24.025
-24
-23.975
-23.95
-23.925
-23.9
-23.875
-23.85
-23.825
-23.8
-23.775
-23.75
-23.725
-23.7
-23.675
-23.65
-23.625
-23.6
-23.575
-23.55
-23.525
-23.5
-23.475
-23.45
-23.425
-23.4
-23.375
-23.35
-23.325
-23.3
-23.275
-23.25
-23.225
-23.2
-23.175
-23.15
-23.125
-23.1
-23.075
-23.05
-23.025
-23
-22.975
-22.95
-22.925
-22.9
-22.875
-22.85
-22.825
-22.8
-22.775
-22.75
-22.725
-22.7
-22.675
-22.65
-22.625
-22.6
-22.575
-22.55
-22.525
-22.5
-22.475
-22.45
-22.425
-22.4
-22.375
-22.35
-22.325
-22.3
-22.275
-22.25
-22.225
-22.2
-22.175
-22.15
-22.125
-22.1
-22.075
-22.05
-22.025
-22
-21.975
-21.95
-21.925
-21.9
-21.875
-21.85
-21.825
-21.8
-21.775
-21.75
-21.725
-21.7
-21.675
-21.65
-21.625
-21.6
-21.575
-21.55
-21.525
-21.5
-21.475
-21.45
-21.425
-21.4
-21.375
-21.35
-21.325
-21.3
-21.275
-21.25
-21.225
-21.2
-21.175
-21.15
-21.125
-21.1
-21.075
-21.05
-21.025
-21
-20.975
-20.95
-20.925
-20.9
-20.875
-20.85
-20.825
-20.8
-20.775
-20.75
-20.725
-20.7
-20.675
-20.65
-20.625
-20.6
-20.575
-20.55
-20.525
-20.5
-20.475
-20.45
-20.425
-20.4
-20.375
-20.35
-20.325
-20.3
-20.275
-20.25
-20.225
-20.2
-20.175
-20.15
-20.125
-20.1
-20.075
-20.05
-20.025
-20
VAR_LIST_END
BEGIN
-14.828337,-158.19888
-14.765055,-159.90161
-15.269316,-152.79855
-14.437829,-161.72128
-15.011929,-154.91862
-14.650194,-156.24139
-15.738968,-153.38423
-15.635259,-162.71562
-14.873879,-153.15753
-16.037975,-160.98837
-14.831384,-152.36275
-15.303189,-162.05486
-15.184176,-159.35403
-15.158442,-161.88141
-14.887425,-158.72145
-15.034608,-156.43472
-15.131549,-158.77715
-14.803619,-157.67171
-15.374586,-153.69293
-14.560242,-155.0378
-15.64509,-158.66525
-16.105698,-156.00407
-15.016436,-159.3157
-15.29195,-161.31815
-14.898955,-158.90479
-15.37281,-158.7961
-15.460675,-160.96928
-14.652903,-153.96375
-16.051065,-156.68269
-15.30635,-160.65968
-14.303155,-158.68706
-15.136487,-160.15724
-15.861245,-156.07327
-14.438122,-157.4902
-14.752134,-161.27531
-15.240445,-161.36459
-15.512656,-154.27689
-15.069944,-162.00879
-15.393442,-162.84319
-13.8539,-159.94354
-14.330515,-157.08633
-14.890692,-160.84592
-15.464245,-164.78281
-15.427466,-159.04948
-15.585091,-164.92003
-14.619697,-159.32249
-14.739036,-161.71811
-14.987482,-164.02289
-14.503804,-159.78339
-15.581238,-157.01355
-15.642345,-159.74994
-14.69996,-158.51329
-15.420361,-158.02304
-15.138605,-163.43152
-15.151931,-159.23621
-14.686409,-163.07199
-15.153875,-157.21576
-15.148381,-157.97968
-14.879292,-161.35782
-15.057131,-161.89874
-14.859078,-155.43211
-15.070599,-159.8134
-15.340894,-163.45583
-15.133504,-155.89235
-14.49764,-164.88358
-14.687482,-158.48434
-14.568057,-161.25084
-14.059327,-156.84126
-14.691047,-157.17607
-14.957249,-158.12433
-15.533056,-155.28616
-15.175129,-158.77814
-15.335016,-159.31255
-14.692514,-161.9579
-15.453355,-160.09631
-15.570725,-157.48766
-15.395714,-156.8391
-14.687471,-155.80078
-15.429555,-153.60371
-15.131845,-160.45612
-14.686903,-157.41245
-14.967722,-158.68921
-15.130531,-155.38344
-14.75453,-159.60139
-14.673388,-156.9218
-14.975447,-156.38988
-14.816661,-160.89015
-15.061145,-160.48149
-15.142829,-161.58194
-14.676656,-163.4295
-14.671553,-162.46782
-15.805106,-156.7326
-15.175196,-158.95818
-14.465536,-161.83362
-14.775568,-158.75278
-14.841509,-158.85721
-14.579219,-160.03139
-14.276162,-161.30234
-15.23557,-159.84462
-15.163101,-156.15637
-15.037622,-160.03648
-15.198825,-155.95699
-14.376476,-159.85672
-15.008219,-163.26691
-15.109098,-156.25148
-15.033028,-158.76448
-14.897261,-156.46542
-15.193069,-158.98839
-15.761801,-161.32803
-15.143424,-159.68094
-15.024956,-154.51901
-14.586253,-154.96214
-14.73743,-157.2843
-15.321836,-159.86227
-15.441979,-160.44743
-14.79558,-158.5564
-15.294443,-158.85367
-15.204118,-164.93526
-14.802396,-160.0098
-15.231237,-158.35585
-14.919454,-156.59186
-15.094676,-158.51138
-15.41419,-162.91232
-15.51001,-159.7892
-14.270601,-155.11375
-15.126193,-159.29601
-15.652687,-162.82484
-15.024487,-162.03314
-15.439683,-154.88812
-15.14651,-158.20082
-15.679288,-156.65686
-15.347428,-157.94949
-15.880333,-159.33423
-15.416271,-160.0733
-14.980844,-157.29559
-15.364732,-156.94725
-15.196935,-160.57916
-14.558043,-157.4442
-15.191978,-158.48447
-15.002471,-161.59563
-14.355029,-161.47963
-14.66239,-159.36388
-15.257154,-161.01704
-14.594355,-161.43941
-15.432662,-158.50546
-14.660139,-161.46402
-14.380423,-157.10414
-15.733615,-159.03081
-15.247989,-163.37053
-15.430161,-160.90517
-15.273069,-160.80936
-15.262009,-159.92227
-15.298426,-160.68686
-14.846189,-158.38882
-15.403952,-157.03937
-15.522429,-157.27737
-14.779222,-160.31508
-14.966937,-158.88074
-15.479363,-157.66896
-15.647117,-160.97029
-14.039834,-154.20006
-14.743979,-159.14703
-14.49047,-156.93222
-14.606527,-158.17024
-15.788289,-158.66277
-14.698292,-158.67542
-14.797819,-157.4308
-15.30067,-159.42575
-15.283377,-159.47054
-14.922325,-159.1357
-15.379512,-157.65529
-14.680797,-160.97984
-15.775278,-159.02878
-14.669782,-156.49809
-15.789681,-156.81725
-15.522833,-156.48048
-15.13484,-161.29431
-14.803947,-157.03777
-14.651141,-161.87125
-14.631942,-159.05412
-14.865173,-154.07887
-15.187639,-161.28694
-15.718078,-162.75163
-15.079681,-155.78326
-15.877034,-161.06024
-15.000128,-161.45935
-14.989858,-156.26813
-15.708788,-157.79208
-15.068498,-157.48573
-14.943546,-161.56107
-15.08242,-159.30595
-15.583608,-161.68124
-15.084489,-156.60466
-14.704936,-157.57399
-15.217854,-162.20906
-15.424556,-163.06287
-14.987369,-154.92416
-14.63569,-155.44397
-15.907606,-154.46741
-14.82972,-161.15796
-14.992261,-159.68062
-15.336357,-154.20256
-15.242402,-163.89452
-15.59315,-160.96266
-14.916952,-154.30081
-15.12663,-161.8054
-14.550589,-157.24364
-15.507021,-160.04498
-15.718554,-162.21167
-14.864494,-155.80437
-15.032518,-157.40915
-14.912852,-158.72095
-15.054502,-155.8692
-15.365515,-155.84773
-15.326218,-158.68057
-14.667577,-158.33946
-14.565959,-158.48285
-15.044887,-160.94293
-14.637093,-157.01793
-14.824476,-162.3622
-15.480253,-159.14879
-14.897256,-156.27562
-15.132418,-163.25055
-15.327301,-162.84738
-15.227532,-155.61777
-15.921003,-161.12057
-14.731198,-159.50996
-15.398428,-159.11328
-14.786249,-157.50224
-15.091953,-160.25668
-15.300072,-160.16222
-14.906238,-160.22484
-14.95599,-159.69986
-15.331429,-157.45915
-15.005284,-157.79791
-14.889234,-157.65483
-14.873731,-160.79642
-15.181143,-160.24051
-14.72469,-161.10509
-15.09638,-159.33142
-14.837502,-156.46788
-15.065978,-161.65918
-15.308917,-160.99231
-14.817919,-161.27217
-15.459783,-157.11072
-15.436882,-158.666
-15.206132,-158.17398
-15.578413,-161.75516
-15.146482,-156.02107
-14.984232,-160.5645
-15.073301,-162.38695
-14.98574,-161.08228
-15.272652,-159.20338
-14.901931,-161.22585
-15.430511,-158.6523
-15.385379,-160.55498
-15.114427,-154.88937
-14.691646,-156.93326
-15.034205,-161.59653
-15.480128,-157.64615
-14.909655,-159.59567
-14.956095,-157.2688
-15.308584,-158.03487
-14.900954,-160.74638
-14.668702,-160.0894
-15.243983,-159.29103
-15.054039,-160.07454
-14.879704,-157.55673
-15.012543,-159.6096
-14.958046,-158.53081
-15.534774,-159.22951
-15.080976,-159.51169
-15.456125,-156.09193
-15.284891,-157.27449
-15.186069,-157.56108
-14.665381,-158.9418
-15.113851,-159.86104
-14.74197,-161.84296
-15.712646,-158.82051
-15.023376,-160.22147
-14.902781,-159.5144
-15.617381,-159.92052
-15.154592,-160.07968
-14.834442,-158.94511
-15.496727,-161.35355
-14.916369,-161.34952
-14.990062,-159.09024
-14.828928,-157.53989
-14.776489,-157.82065
-15.181809,-159.89392
-15.439162,-159.79042
-15.311896,-157.35307
-15.27005,-161.06789
-15.240211,-157.55237
-14.86476,-159.80844
-15.102157,-156.35907
-14.963284,-161.78311
-15.189891,-158.67224
-14.770065,-161.07114
-14.990161,-161.66727
-15.028544,-157.92802
-15.098042,-156.64706
-15.558761,-160.00153
-15.142995,-157.87585
-15.367504,-160.00974
-14.669093,-157.93535
-15.057467,-155.94547
-15.035025,-161.61523
-15.211492,-160.52345
-15.207303,-159.91045
-15.192485,-157.73398
-15.295036,-159.67322
-15.269158,-157.95972
-15.087729,-158.54996
-15.172487,-158.17203
-15.460073,-156.88795
-14.893657,-159.31822
-15.075588,-157.86285
-15.237535,-158.61823
-15.316543,-160.13083
-14.828629,-157.32381
-15.41228,-160.33646
-15.172708,-157.95189
-15.200847,-159.9059
-15.025571,-159.93738
-14.496133,-158.6368
-15.015143,-159.98111
-15.272508,-159.0975
-15.588634,-160.21301
-14.922091,-159.11534
-14.774713,-158.21632
-15.139481,-158.69429
-15.017612,-158.63426
-14.8863,-159.60286
-14.907909,-160.70723
-15.637833,-160.47011
-14.986606,-159.6552
-15.274984,-157.16766
-15.349321,-157.35712
-15.096616,-161.04895
-14.660151,-158.67432
-14.947992,-160.3447
-15.249654,-156.46832
-15.497358,-160.23987
-15.218708,-159.74026
-14.930406,-158.40773
-15.299531,-159.36107
-14.923807,-155.01627
-15.067822,-158.75406
-14.837337,-161.37016
-14.72362,-160.36247
-15.233626,-158.89281
-15.211235,-159.09496
-14.964443,-160.63757
-15.062684,-158.23088
-15.287063,-156.72871
-14.971481,-158.22531
-14.758977,-158.13148
-14.548488,-157.14651
-15.063792,-158.71933
-15.109694,-158.74857
-15.071078,-159.21768
-15.445178,-158.50821
-14.992856,-158.36317
-15.220803,-157.44441
-14.896127,-157.1427
-15.162313,-158.51756
-14.940374,-159.83931
-14.888618,-157.61887
-15.151968,-161.8558
-15.152092,-159.08528
-15.314702,-158.47702
-14.80255,-159.89325
-15.349621,-158.19113
-15.226123,-159.47046
-14.947005,-158.55136
-15.173697,-157.23871
-15.306477,-159.26373
-15.138176,-158.19096
-14.737133,-156.20189
-15.078815,-159.40509
-15.130336,-159.39401
-15.208503,-159.42773
-14.94809,-158.23579
-14.733831,-157.45186
-15.211267,-159.20601
-15.272281,-159.80438
-15.227335,-161.07367
-14.853006,-159.41299
-14.925125,-159.24568
-14.830626,-158.33907
-15.13238,-161.42525
-14.678379,-160.5493
-15.208329,-160.12045
-14.662508,-159.6671
-15.128283,-160.64964
-15.041636,-158.74791
-14.970303,-159.47581
-14.999334,-161.05682
-15.247054,-158.23044
-14.995824,-158.34831
-15.017087,-158.28346
-14.747602,-158.9537
-14.905315,-157.66367
-15.014226,-159.9213
-15.220419,-158.18385
-15.078728,-159.60612
-15.288217,-160.36784
-15.022583,-160.35832
-14.905024,-159.45233
-15.107154,-159.90289
-15.153967,-159.16374
-14.952709,-157.62047
-14.938673,-159.68393
-14.924689,-159.07181
-14.921143,-159.52205
-14.806021,-159.87727
-15.128221,-157.35216
-14.947521,-159.40909
-15.043803,-158.18784
-15.186821,-158.31012
-14.872289,-158.00462
-15.228295,-158.26122
-14.905015,-158.14136
-14.999968,-162.00366
-15.364587,-157.61023
-15.426767,-161.41461
-14.899909,-158.62939
-15.006036,-158.72694
-15.1512,-158.44298
-14.969223,-159.52504
-15.30218,-157.29333
-15.094058,-158.12057
-15.149672,-157.759
-14.931534,-158.32994
-15.226352,-157.60812
-14.853967,-156.49922
-14.965646,-159.53984
-14.908883,-157.92537
-15.107267,-158.25038
-15.107389,-157.72624
-15.164297,-158.5815
-15.152183,-160.24823
-15.090659,-159.20679
-15.238553,-159.73085
-14.965113,-158.86642
-14.937387,-158.07027
-15.065774,-159.46144
-14.935947,-156.89836
-14.970921,-158.80698
-15.077637,-159.56522
-15.210073,-160.99167
-15.164839,-158.05585
-14.940717,-160.22095
-14.97729,-157.50027
-14.62915,-158.71242
-15.265385,-157.45799
-14.925604,-158.34071
-15.008144,-158.95255
-15.085265,-158.91898
-15.154614,-158.59705
-15.324649,-157.24837
-15.178366,-158.18745
-15.056276,-158.18239
-15.007035,-160.97784
-15.034085,-157.9901
-15.061911,-158.54871
-14.922068,-159.43336
-15.106417,-158.29648
-14.753357,-158.93217
-14.93355,-162.04146
-15.297005,-160.69368
-15.11635,-158.27652
-15.247468,-155.95657
-15.512491,-158.01469
-15.213766,-158.27623
-15.170736,-159.47617
-14.942982,-159.06569
-14.999734,-160.05334
-15.106716,-159.13788
-15.000316,-159.98204
-15.263293,-158.97844
-15.309922,-157.86458
-15.382624,-159.22089
-15.222701,-158.45187
-14.786695,-159.59459
-15.158151,-159.1452
-14.930636,-158.71269
-15.0279,-158.73801
-14.94342,-159.20184
-14.880439,-159.93329
-14.883457,-159.16553
-15.166473,-160.79343
-14.889061,-159.89215
-15.097579,-158.94978
-15.042954,-157.57047
-15.178242,-160.6945
-15.105977,-156.47301
-14.81944,-157.98018
-15.169528,-160.21181
-14.9445,-158.79784
-14.803605,-157.69012
-14.857073,-158.65517
-14.999828,-159.61522
-15.119813,-159.78716
-14.768973,-158.6566
-15.170893,-159.90376
-15.08758,-158.98383
-15.071572,-159.05702
-15.015422,-160.61838
-15.055462,-160.05629
-15.057302,-159.24977
-15.076507,-160.33392
-15.084534,-159.61136
-14.856745,-160.96292
-15.234097,-159.77042
-14.998233,-159.51154
-15.159401,-159.91681
-15.240349,-158.96185
-15.094799,-159.30452
-14.995927,-158.23262
-14.989885,-159.63058
-14.939878,-158.996
-14.855964,-159.99887
-15.050891,-159.004
-15.033537,-157.23915
-15.005278,-160.59492
-15.078485,-159.19009
-14.951176,-158.56956
-15.26897,-159.65512
-15.011665,-159.40135
-15.152353,-160.31743
-14.968948,-158.44373
-14.992075,-159.60143
-15.20469,-159.52908
-15.243208,-157.99489
-15.013682,-159.25252
-15.120724,-159.66783
-15.056533,-160.07076
-14.861329,-160.01477
-15.053143,-158.87131
-14.853143,-158.93796
-15.00081,-158.35054
-14.951835,-158.84117
-14.89307,-159.56593
-15.165597,-159.39156
-15.131413,-158.82439
-15.139203,-160.48152
-15.346209,-158.50114
-14.831894,-159.50352
-15.101581,-159.17294
-15.08761,-158.93845
-15.373466,-158.29695
-15.168084,-159.6413
-14.957109,-159.05396
-14.978203,-159.44525
-15.000696,-158.46254
-14.878225,-157.49365
-14.798328,-157.03545
-15.161102,-159.06657
-15.103115,-159.27368
-15.098877,-159.33922
-15.043089,-160.10274
-15.029127,-159.34937
-14.891859,-159.54614
-14.845907,-158.08966
-15.044921,-159.82883
-15.172186,-159.75058
-15.062536,-159.98889
-15.338384,-159.70561
-14.954641,-159.08644
-14.975941,-159.3138
-15.023417,-159.29037
-14.980872,-158.39268
-15.017639,-157.81517
