CITIFILE A.01.01
!Agilent Technologies,N5230C,MY48100142,A.08.04.10
!Agilent N5230C: A.08.04.10
!Format: LogMag/Angle
!Date: Friday, September 11, 2020 11:53:23
NAME CH1_DATA
VAR Power MAG 801
DATA S11 DBANGLE
DATA S21 DBANGLE
DATA S12 DBANGLE
DATA S22 DBANGLE
VAR_LIST_BEGIN
-40
-39.975
-39.95
-39.925
-39.9
-39.875
-39.85
-39.825
-39.8
-39.775
-39.75
-39.725
-39.7
-39.675
-39.65
-39.625
-39.6
-39.575
-39.55
-39.525
-39.5
-39.475
-39.45
-39.425
-39.4
-39.375
-39.35
-39.325
-39.3
-39.275
-39.25
-39.225
-39.2
-39.175
-39.15
-39.125
-39.1
-39.075
-39.05
-39.025
-39
-38.975
-38.95
-38.925
-38.9
-38.875
-38.85
-38.825
-38.8
-38.775
-38.75
-38.725
-38.7
-38.675
-38.65
-38.625
-38.6
-38.575
-38.55
-38.525
-38.5
-38.475
-38.45
-38.425
-38.4
-38.375
-38.35
-38.325
-38.3
-38.275
-38.25
-38.225
-38.2
-38.175
-38.15
-38.125
-38.1
-38.075
-38.05
-38.025
-38
-37.975
-37.95
-37.925
-37.9
-37.875
-37.85
-37.825
-37.8
-37.775
-37.75
-37.725
-37.7
-37.675
-37.65
-37.625
-37.6
-37.575
-37.55
-37.525
-37.5
-37.475
-37.45
-37.425
-37.4
-37.375
-37.35
-37.325
-37.3
-37.275
-37.25
-37.225
-37.2
-37.175
-37.15
-37.125
-37.1
-37.075
-37.05
-37.025
-37
-36.975
-36.95
-36.925
-36.9
-36.875
-36.85
-36.825
-36.8
-36.775
-36.75
-36.725
-36.7
-36.675
-36.65
-36.625
-36.6
-36.575
-36.55
-36.525
-36.5
-36.475
-36.45
-36.425
-36.4
-36.375
-36.35
-36.325
-36.3
-36.275
-36.25
-36.225
-36.2
-36.175
-36.15
-36.125
-36.1
-36.075
-36.05
-36.025
-36
-35.975
-35.95
-35.925
-35.9
-35.875
-35.85
-35.825
-35.8
-35.775
-35.75
-35.725
-35.7
-35.675
-35.65
-35.625
-35.6
-35.575
-35.55
-35.525
-35.5
-35.475
-35.45
-35.425
-35.4
-35.375
-35.35
-35.325
-35.3
-35.275
-35.25
-35.225
-35.2
-35.175
-35.15
-35.125
-35.1
-35.075
-35.05
-35.025
-35
-34.975
-34.95
-34.925
-34.9
-34.875
-34.85
-34.825
-34.8
-34.775
-34.75
-34.725
-34.7
-34.675
-34.65
-34.625
-34.6
-34.575
-34.55
-34.525
-34.5
-34.475
-34.45
-34.425
-34.4
-34.375
-34.35
-34.325
-34.3
-34.275
-34.25
-34.225
-34.2
-34.175
-34.15
-34.125
-34.1
-34.075
-34.05
-34.025
-34
-33.975
-33.95
-33.925
-33.9
-33.875
-33.85
-33.825
-33.8
-33.775
-33.75
-33.725
-33.7
-33.675
-33.65
-33.625
-33.6
-33.575
-33.55
-33.525
-33.5
-33.475
-33.45
-33.425
-33.4
-33.375
-33.35
-33.325
-33.3
-33.275
-33.25
-33.225
-33.2
-33.175
-33.15
-33.125
-33.1
-33.075
-33.05
-33.025
-33
-32.975
-32.95
-32.925
-32.9
-32.875
-32.85
-32.825
-32.8
-32.775
-32.75
-32.725
-32.7
-32.675
-32.65
-32.625
-32.6
-32.575
-32.55
-32.525
-32.5
-32.475
-32.45
-32.425
-32.4
-32.375
-32.35
-32.325
-32.3
-32.275
-32.25
-32.225
-32.2
-32.175
-32.15
-32.125
-32.1
-32.075
-32.05
-32.025
-32
-31.975
-31.95
-31.925
-31.9
-31.875
-31.85
-31.825
-31.8
-31.775
-31.75
-31.725
-31.7
-31.675
-31.65
-31.625
-31.6
-31.575
-31.55
-31.525
-31.5
-31.475
-31.45
-31.425
-31.4
-31.375
-31.35
-31.325
-31.3
-31.275
-31.25
-31.225
-31.2
-31.175
-31.15
-31.125
-31.1
-31.075
-31.05
-31.025
-31
-30.975
-30.95
-30.925
-30.9
-30.875
-30.85
-30.825
-30.8
-30.775
-30.75
-30.725
-30.7
-30.675
-30.65
-30.625
-30.6
-30.575
-30.55
-30.525
-30.5
-30.475
-30.45
-30.425
-30.4
-30.375
-30.35
-30.325
-30.3
-30.275
-30.25
-30.225
-30.2
-30.175
-30.15
-30.125
-30.1
-30.075
-30.05
-30.025
-30
-29.975
-29.95
-29.925
-29.9
-29.875
-29.85
-29.825
-29.8
-29.775
-29.75
-29.725
-29.7
-29.675
-29.65
-29.625
-29.6
-29.575
-29.55
-29.525
-29.5
-29.475
-29.45
-29.425
-29.4
-29.375
-29.35
-29.325
-29.3
-29.275
-29.25
-29.225
-29.2
-29.175
-29.15
-29.125
-29.1
-29.075
-29.05
-29.025
-29
-28.975
-28.95
-28.925
-28.9
-28.875
-28.85
-28.825
-28.8
-28.775
-28.75
-28.725
-28.7
-28.675
-28.65
-28.625
-28.6
-28.575
-28.55
-28.525
-28.5
-28.475
-28.45
-28.425
-28.4
-28.375
-28.35
-28.325
-28.3
-28.275
-28.25
-28.225
-28.2
-28.175
-28.15
-28.125
-28.1
-28.075
-28.05
-28.025
-28
-27.975
-27.95
-27.925
-27.9
-27.875
-27.85
-27.825
-27.8
-27.775
-27.75
-27.725
-27.7
-27.675
-27.65
-27.625
-27.6
-27.575
-27.55
-27.525
-27.5
-27.475
-27.45
-27.425
-27.4
-27.375
-27.35
-27.325
-27.3
-27.275
-27.25
-27.225
-27.2
-27.175
-27.15
-27.125
-27.1
-27.075
-27.05
-27.025
-27
-26.975
-26.95
-26.925
-26.9
-26.875
-26.85
-26.825
-26.8
-26.775
-26.75
-26.725
-26.7
-26.675
-26.65
-26.625
-26.6
-26.575
-26.55
-26.525
-26.5
-26.475
-26.45
-26.425
-26.4
-26.375
-26.35
-26.325
-26.3
-26.275
-26.25
-26.225
-26.2
-26.175
-26.15
-26.125
-26.1
-26.075
-26.05
-26.025
-26
-25.975
-25.95
-25.925
-25.9
-25.875
-25.85
-25.825
-25.8
-25.775
-25.75
-25.725
-25.7
-25.675
-25.65
-25.625
-25.6
-25.575
-25.55
-25.525
-25.5
-25.475
-25.45
-25.425
-25.4
-25.375
-25.35
-25.325
-25.3
-25.275
-25.25
-25.225
-25.2
-25.175
-25.15
-25.125
-25.1
-25.075
-25.05
-25.025
-25
-24.975
-24.95
-24.925
-24.9
-24.875
-24.85
-24.825
-24.8
-24.775
-24.75
-24.725
-24.7
-24.675
-24.65
-24.625
-24.6
-24.575
-24.55
-24.525
-24.5
-24.475
-24.45
-24.425
-24.4
-24.375
-24.35
-24.325
-24.3
-24.275
-24.25
-24.225
-24.2
-24.175
-24.15
-24.125
-24.1
-24.075
-24.05
-24.025
-24
-23.975
-23.95
-23.925
-23.9
-23.875
-23.85
-23.825
-23.8
-23.775
-23.75
-23.725
-23.7
-23.675
-23.65
-23.625
-23.6
-23.575
-23.55
-23.525
-23.5
-23.475
-23.45
-23.425
-23.4
-23.375
-23.35
-23.325
-23.3
-23.275
-23.25
-23.225
-23.2
-23.175
-23.15
-23.125
-23.1
-23.075
-23.05
-23.025
-23
-22.975
-22.95
-22.925
-22.9
-22.875
-22.85
-22.825
-22.8
-22.775
-22.75
-22.725
-22.7
-22.675
-22.65
-22.625
-22.6
-22.575
-22.55
-22.525
-22.5
-22.475
-22.45
-22.425
-22.4
-22.375
-22.35
-22.325
-22.3
-22.275
-22.25
-22.225
-22.2
-22.175
-22.15
-22.125
-22.1
-22.075
-22.05
-22.025
-22
-21.975
-21.95
-21.925
-21.9
-21.875
-21.85
-21.825
-21.8
-21.775
-21.75
-21.725
-21.7
-21.675
-21.65
-21.625
-21.6
-21.575
-21.55
-21.525
-21.5
-21.475
-21.45
-21.425
-21.4
-21.375
-21.35
-21.325
-21.3
-21.275
-21.25
-21.225
-21.2
-21.175
-21.15
-21.125
-21.1
-21.075
-21.05
-21.025
-21
-20.975
-20.95
-20.925
-20.9
-20.875
-20.85
-20.825
-20.8
-20.775
-20.75
-20.725
-20.7
-20.675
-20.65
-20.625
-20.6
-20.575
-20.55
-20.525
-20.5
-20.475
-20.45
-20.425
-20.4
-20.375
-20.35
-20.325
-20.3
-20.275
-20.25
-20.225
-20.2
-20.175
-20.15
-20.125
-20.1
-20.075
-20.05
-20.025
-20
VAR_LIST_END
BEGIN
-15.917406,-157.45728
-15.704114,-156.54707
-15.428429,-157.20531
-14.422026,-159.88608
-15.20424,-161.00082
-14.912081,-168.74673
-15.011018,-163.75945
-14.568206,-165.22365
-14.802879,-179.08575
-16.113331,-160.86774
-15.483454,-157.31502
-13.606744,-155.12923
-15.168428,-166.56981
-14.607659,-152.30424
-15.596399,-162.37784
-13.773206,-162.25089
-13.660661,-151.46356
-14.218118,-169.50064
-14.233809,-158.59081
-14.842095,-160.9039
-15.83197,-148.04411
-14.724504,-158.25691
-14.721461,-151.06133
-14.364047,-152.9691
-15.267799,-162.47707
-14.778076,-164.80627
-14.170132,-158.45802
-15.245374,-158.85182
-14.787232,-162.61745
-15.867043,-169.88567
-15.034535,-160.80078
-15.197979,-160.20503
-14.044536,-166.29189
-14.841671,-161.88805
-14.277523,-155.27534
-15.522498,-161.95546
-14.848222,-159.8629
-14.958055,-160.90347
-14.511589,-159.78035
-15.489082,-160.53491
-14.29454,-160.14227
-14.767755,-150.10571
-14.288205,-161.82825
-15.427019,-161.01038
-14.514804,-157.4157
-14.860701,-164.4592
-15.845705,-167.60634
-15.849369,-162.99483
-14.6485,-161.52324
-14.545474,-152.77873
-14.719035,-164.80382
-14.200138,-160.7951
-14.591764,-163.42941
-16.076859,-160.75856
-14.599547,-156.86559
-15.140975,-159.00543
-15.639716,-154.54382
-14.833461,-156.77446
-13.240272,-168.0712
-16.180435,-157.30132
-15.435595,-165.31119
-16.25556,-160.36308
-14.491143,-164.74594
-14.917493,-164.64426
-14.880731,-163.30084
-14.793806,-164.6295
-14.993018,-158.05826
-15.084338,-170.58058
-13.419581,-165.16379
-14.255112,-159.00113
-14.981176,-159.7023
-14.302423,-160.7321
-14.207212,-156.51332
-16.369373,-159.3828
-14.272523,-160.27611
-14.917562,-149.52654
-14.30258,-155.16562
-15.306966,-161.2762
-15.048619,-165.58372
-14.606038,-160.94441
-14.600427,-165.5265
-15.351418,-167.48058
-15.789021,-161.46536
-16.239298,-163.64488
-15.393028,-161.40833
-15.376482,-161.06073
-14.806175,-160.73058
-15.327144,-162.83536
-15.585601,-160.41551
-16.023399,-154.40926
-15.03415,-164.86768
-14.869408,-157.88895
-14.827286,-157.18394
-14.90213,-158.35532
-15.30012,-158.02887
-15.358828,-164.37036
-14.729137,-165.98889
-13.905386,-161.15103
-16.03046,-158.36601
-15.015665,-161.35591
-15.31957,-163.44646
-14.099372,-162.46628
-15.224959,-168.12196
-15.706746,-162.22496
-15.037031,-166.93266
-15.421689,-162.3688
-15.197159,-165.53856
-14.693156,-162.95757
-16.686481,-163.16
-14.549786,-161.44713
-16.313616,-159.86069
-15.259499,-161.00468
-14.711085,-159.38602
-14.586011,-160.30534
-14.673684,-157.05392
-14.8643,-159.21982
-15.940656,-159.62703
-14.8482,-159.98314
-15.115689,-158.19925
-14.496623,-160.74922
-14.665729,-157.44951
-15.415379,-156.63669
-14.569031,-163.4263
-14.198494,-148.8414
-15.221801,-158.55557
-14.837509,-157.92743
-14.706009,-168.23734
-15.35761,-159.39137
-15.624337,-155.28069
-15.212241,-159.42787
-14.794533,-163.13681
-16.254133,-160.83932
-14.691701,-158.73576
-16.152027,-164.80452
-14.253848,-162.94473
-15.007596,-158.99751
-15.15295,-162.8396
-15.559197,-160.28246
-14.699132,-160.37938
-14.754626,-157.79985
-15.011454,-167.21426
-15.155134,-157.27354
-14.919354,-157.39862
-15.534768,-159.74358
-14.358259,-157.59537
-14.823232,-156.16508
-15.652089,-159.73936
-15.571616,-162.69424
-15.787235,-159.6158
-15.671861,-162.25128
-15.327975,-155.79382
-14.574592,-158.61923
-15.536665,-157.41968
-15.012825,-160.06392
-14.455713,-162.55836
-15.952054,-155.58647
-15.122147,-167.61227
-14.263544,-150.70644
-14.362237,-156.01707
-14.280285,-161.93727
-15.270704,-163.14168
-15.468911,-153.24916
-14.969745,-157.79863
-15.373231,-159.98857
-15.286245,-155.24907
-15.977982,-161.18161
-14.712568,-160.49603
-14.984098,-160.43958
-14.2935,-160.64589
-13.501522,-161.35342
-14.821788,-165.4337
-14.940432,-161.78984
-15.141341,-162.01167
-15.224931,-159.66939
-14.420441,-166.43704
-14.827234,-157.36165
-15.71845,-162.7464
-16.063644,-155.83238
-14.725831,-163.16153
-15.040812,-157.54332
-14.789319,-159.78091
-16.26034,-157.04469
-13.989793,-157.15163
-14.723353,-160.25661
-15.314811,-168.96309
-15.28558,-162.29784
-15.880994,-158.01231
-14.986129,-160.02464
-15.493811,-162.49446
-14.943575,-160.07375
-15.269271,-159.66235
-15.486667,-161.56319
-14.812538,-163.00034
-15.662647,-160.07915
-14.001525,-158.97234
-15.053946,-162.34999
-15.262949,-161.06779
-14.53506,-156.83685
-15.032325,-157.94328
-14.982855,-158.20502
-15.074623,-164.72711
-14.200232,-158.68695
-15.33308,-156.50523
-14.71248,-161.84093
-16.099401,-160.24129
-14.818672,-157.27144
-14.803139,-159.81967
-14.515541,-164.35156
-15.471126,-153.71178
-15.275697,-165.2178
-14.666376,-159.37946
-15.296742,-162.8886
-15.234939,-160.08092
-15.792121,-160.11008
-14.756193,-156.57181
-14.820971,-160.96973
-14.475643,-161.86324
-16.201916,-158.92625
-15.340099,-160.01552
-15.157359,-160.68428
-14.736445,-168.03938
-14.395431,-161.31789
-15.237842,-162.41454
-15.164406,-160.86665
-14.881769,-160.65858
-15.281291,-158.96089
-14.874629,-158.17493
-15.500246,-164.42915
-15.323848,-162.96071
-15.483384,-159.99605
-15.034407,-154.68515
-15.299215,-162.86122
-15.465692,-156.34714
-14.619098,-161.29857
-15.952472,-162.40079
-14.712306,-160.7513
-15.470942,-156.3663
-14.284897,-159.62837
-15.127309,-157.70595
-14.62378,-160.47574
-15.367795,-160.02475
-14.692259,-160.18558
-15.081031,-161.08897
-15.227115,-165.73222
-14.807879,-158.02252
-14.562449,-162.00307
-14.505552,-165.05359
-14.771644,-156.39705
-14.928472,-158.89305
-15.523273,-158.51775
-14.684122,-161.06796
-14.836937,-163.05531
-15.325886,-162.07954
-15.289967,-163.86087
-15.209439,-158.97162
-14.881737,-158.40956
-14.753035,-161.36002
-15.197905,-159.67122
-15.681976,-159.12531
-15.147326,-157.97346
-15.060017,-159.12099
-14.266744,-159.21794
-14.775523,-156.37256
-14.773152,-161.64015
-15.315107,-160.61473
-15.659921,-163.15588
-14.934698,-157.11418
-14.97355,-156.67781
-14.885286,-165.57101
-15.866067,-161.23888
-14.935495,-160.2428
-15.132581,-165.25397
-14.483696,-163.71852
-15.451915,-159.1418
-15.071527,-161.01003
-14.849362,-160.65958
-15.640903,-161.13524
-14.861217,-162.71913
-15.179076,-160.77559
-15.24809,-161.87936
-14.823771,-159.6051
-14.70667,-152.39345
-14.904589,-162.5766
-15.061972,-164.4129
-14.445772,-159.87524
-15.066884,-155.50676
-15.059252,-159.35518
-14.564485,-160.3956
-14.91646,-160.45435
-14.948223,-163.82407
-14.413983,-163.18964
-14.997411,-161.133
-15.529825,-154.2733
-15.642616,-158.72154
-14.32589,-164.80635
-15.111518,-160.97473
-15.441056,-164.62955
-15.384564,-158.44023
-15.616282,-161.6109
-14.929315,-161.04237
-15.276292,-160.73453
-15.602537,-164.71101
-15.150697,-157.93776
-15.341986,-158.14986
-14.993656,-162.16858
-15.405538,-160.39091
-15.694005,-164.52292
-14.81275,-162.24313
-15.176422,-159.71976
-15.514138,-161.92969
-15.03009,-163.38301
-14.813923,-160.66106
-14.502668,-161.52202
-14.905208,-164.36424
-15.008272,-159.43719
-15.238795,-160.09404
-15.374093,-158.35147
-15.249939,-157.96123
-15.076318,-163.95975
-14.98021,-158.03339
-15.38216,-163.80287
-15.047132,-159.17326
-15.286946,-159.79166
-14.804313,-156.52475
-15.04921,-156.58046
-14.928101,-161.25938
-15.171328,-160.49945
-14.43268,-158.85417
-14.675523,-156.47707
-15.560169,-159.31644
-15.090661,-161.71906
-15.473726,-162.5024
-15.440797,-158.98271
-14.832331,-160.74634
-14.781208,-162.27373
-15.378658,-159.51854
-15.405519,-160.52545
-15.257607,-163.14261
-14.849717,-161.56477
-14.907128,-157.88176
-14.271463,-161.97389
-15.150481,-162.37611
-15.085618,-161.65697
-15.35807,-160.82932
-15.382184,-163.27335
-15.226003,-162.01851
-15.705687,-161.24443
-15.592748,-161.43571
-14.743043,-160.36609
-14.810324,-160.70451
-14.946857,-157.97722
-14.903652,-155.69673
-14.799797,-165.05666
-15.498982,-159.11368
-15.186049,-160.31125
-15.326707,-161.89499
-15.003654,-160.44833
-15.179319,-157.5498
-14.94688,-163.33163
-15.109651,-158.54071
-14.924594,-162.96271
-15.059402,-161.10905
-14.749022,-162.83755
-14.979212,-159.57224
-14.805732,-164.18971
-14.40122,-160.68785
-14.760111,-160.96674
-14.683619,-156.35829
-15.053152,-163.83583
-14.829234,-159.11188
-14.82308,-161.66362
-14.672048,-164.32652
-14.544215,-158.92662
-14.918285,-162.80902
-14.879395,-161.01364
-14.963529,-160.9483
-15.417525,-161.36127
-15.288517,-162.21449
-15.15446,-160.63506
-14.96895,-157.14856
-14.3049,-161.13118
-15.273834,-160.83315
-14.862224,-155.14075
-15.33603,-161.60033
-15.008623,-160.25615
-15.088593,-157.18036
-15.202724,-162.22147
-14.483051,-161.95477
-15.02333,-161.93181
-15.511755,-159.77927
-15.190039,-160.42014
-14.466407,-161.21167
-15.538201,-161.40965
-15.331183,-157.28133
-14.767781,-159.19554
-15.706191,-162.7475
-14.971292,-160.44279
-14.404949,-157.85457
-14.906609,-160.39275
-15.268608,-161.07045
-14.732617,-163.72278
-15.263556,-163.77472
-15.232602,-160.72353
-15.154349,-159.14159
-14.910286,-162.32338
-15.227713,-159.06628
-14.38782,-157.08704
-15.050458,-162.31956
-15.223697,-159.64534
-15.288746,-160.39545
-15.342699,-159.52205
-15.108456,-160.26422
-15.583348,-162.71893
-14.88968,-161.68149
-14.937664,-159.41661
-15.609949,-159.18826
-15.112827,-161.97806
-14.940969,-157.75085
-14.987396,-161.56158
-15.649353,-160.10574
-15.056195,-159.54919
-14.990949,-163.66618
-14.999801,-162.6297
-14.898987,-159.63289
-14.867002,-160.74699
-14.706909,-159.21405
-15.172534,-161.55457
-15.291405,-160.35056
-15.453211,-163.65526
-15.236593,-162.5587
-14.984015,-162.29869
-15.056732,-163.40627
-15.027897,-158.99055
-14.952142,-159.06946
-14.884275,-158.8492
-15.15461,-158.40283
-14.760673,-158.78702
-14.983079,-160.47289
-14.943908,-161.60266
-14.953307,-158.52119
-14.793439,-160.50433
-15.067565,-158.96454
-15.230988,-162.42172
-14.897354,-161.0927
-15.047496,-159.45683
-15.071642,-158.15384
-15.222755,-163.29999
-15.009323,-160.29031
-15.146019,-160.96695
-14.971333,-158.02087
-15.294489,-159.63094
-15.513019,-163.81175
-15.328155,-160.38487
-15.379771,-159.96086
-15.089342,-161.42177
-15.416188,-159.22707
-14.762968,-161.73413
-15.341806,-159.93835
-14.795702,-161.01329
-14.664899,-159.67116
-15.54103,-159.23825
-15.169456,-160.00732
-14.91466,-162.06097
-14.959632,-161.60893
-15.114131,-158.9543
-15.266719,-160.51334
-15.109723,-163.90645
-15.117895,-161.74341
-14.9521,-160.58794
-15.157701,-162.85365
-14.785862,-161.09636
-15.545267,-161.33598
-15.115731,-158.76767
-15.087976,-160.916
-15.108955,-159.5249
-15.495397,-162.66084
-14.694499,-161.32195
-14.490582,-159.44521
-14.983517,-162.6404
-15.133631,-162.58148
-15.029029,-160.69341
-15.105765,-160.96411
-15.234862,-158.50873
-15.130871,-160.31329
-14.67941,-159.74066
-15.233135,-161.01216
-14.951069,-161.37206
-15.264609,-163.43791
-15.272202,-160.45988
-15.000429,-161.32713
-15.091957,-161.47641
-15.484043,-162.11208
-15.420627,-159.62036
-15.164809,-162.64061
-15.2326,-161.03532
-15.045496,-165.55582
-14.828148,-160.06319
-15.048895,-161.25166
-15.135388,-162.81573
-14.721042,-159.19373
-15.076982,-159.94119
-14.944351,-159.68172
-15.209377,-159.41626
-15.110326,-159.38184
-14.604785,-160.18246
-14.745434,-159.58281
-14.823227,-160.21849
-15.160769,-160.81026
-14.964611,-159.90662
-15.157576,-160.35211
-14.961473,-161.40361
-15.090132,-162.09995
-15.230687,-161.5946
-15.062656,-157.76332
-14.978696,-161.19885
-15.04213,-162.70717
-15.521736,-163.04057
-14.902365,-159.72618
-15.303839,-160.77686
-15.238114,-160.6579
-15.092004,-160.65585
-14.768314,-159.97963
-14.975821,-160.56996
-14.768175,-160.71042
-15.161038,-159.68411
-15.104668,-161.75778
-15.451944,-160.32556
-15.093673,-160.60001
-15.446771,-160.77567
-15.05521,-158.49063
-14.809487,-161.25012
-14.723886,-162.62451
-15.198827,-160.95393
-15.419022,-160.82693
-14.997963,-159.00041
-15.072916,-160.22223
-15.41058,-163.73486
-14.985187,-162.55551
-15.177445,-161.21866
-15.124008,-160.83849
-14.848019,-159.4736
-14.871366,-162.97282
-14.940843,-161.95741
-14.680196,-159.5049
-15.191164,-161.55159
-15.029801,-162.0155
-15.193539,-162.17593
-14.832048,-163.54443
-14.827599,-161.93867
-15.136404,-161.27493
-15.121182,-160.82045
-15.332648,-161.71637
-15.01654,-160.96333
-15.003376,-159.94774
-14.867337,-158.87105
-14.906591,-159.90761
-15.293511,-160.32419
-14.983874,-159.3521
-15.008126,-161.34926
-15.528369,-162.32997
-15.244548,-161.02692
-14.90927,-163.95674
-14.801336,-160.54295
-15.101212,-159.32509
-15.168523,-161.54765
-15.002033,-161.92261
-15.544324,-161.32227
-15.142816,-160.30592
-15.140636,-159.43993
-14.953097,-161.42368
-14.989138,-160.89436
-14.905463,-160.43259
-15.10106,-159.75595
-14.897219,-161.65175
-15.074366,-160.83333
