CITIFILE A.01.01
!Agilent Technologies,N5230C,MY48100142,A.08.04.10
!Agilent N5230C: A.08.04.10
!Format: LogMag/Angle
!Date: Wednesday, September 11, 2019 17:12:14
NAME CH1_DATA
VAR Power MAG 801
DATA S11 DBANGLE
DATA S21 DBANGLE
DATA S12 DBANGLE
DATA S22 DBANGLE
VAR_LIST_BEGIN
-40
-39.975
-39.95
-39.925
-39.9
-39.875
-39.85
-39.825
-39.8
-39.775
-39.75
-39.725
-39.7
-39.675
-39.65
-39.625
-39.6
-39.575
-39.55
-39.525
-39.5
-39.475
-39.45
-39.425
-39.4
-39.375
-39.35
-39.325
-39.3
-39.275
-39.25
-39.225
-39.2
-39.175
-39.15
-39.125
-39.1
-39.075
-39.05
-39.025
-39
-38.975
-38.95
-38.925
-38.9
-38.875
-38.85
-38.825
-38.8
-38.775
-38.75
-38.725
-38.7
-38.675
-38.65
-38.625
-38.6
-38.575
-38.55
-38.525
-38.5
-38.475
-38.45
-38.425
-38.4
-38.375
-38.35
-38.325
-38.3
-38.275
-38.25
-38.225
-38.2
-38.175
-38.15
-38.125
-38.1
-38.075
-38.05
-38.025
-38
-37.975
-37.95
-37.925
-37.9
-37.875
-37.85
-37.825
-37.8
-37.775
-37.75
-37.725
-37.7
-37.675
-37.65
-37.625
-37.6
-37.575
-37.55
-37.525
-37.5
-37.475
-37.45
-37.425
-37.4
-37.375
-37.35
-37.325
-37.3
-37.275
-37.25
-37.225
-37.2
-37.175
-37.15
-37.125
-37.1
-37.075
-37.05
-37.025
-37
-36.975
-36.95
-36.925
-36.9
-36.875
-36.85
-36.825
-36.8
-36.775
-36.75
-36.725
-36.7
-36.675
-36.65
-36.625
-36.6
-36.575
-36.55
-36.525
-36.5
-36.475
-36.45
-36.425
-36.4
-36.375
-36.35
-36.325
-36.3
-36.275
-36.25
-36.225
-36.2
-36.175
-36.15
-36.125
-36.1
-36.075
-36.05
-36.025
-36
-35.975
-35.95
-35.925
-35.9
-35.875
-35.85
-35.825
-35.8
-35.775
-35.75
-35.725
-35.7
-35.675
-35.65
-35.625
-35.6
-35.575
-35.55
-35.525
-35.5
-35.475
-35.45
-35.425
-35.4
-35.375
-35.35
-35.325
-35.3
-35.275
-35.25
-35.225
-35.2
-35.175
-35.15
-35.125
-35.1
-35.075
-35.05
-35.025
-35
-34.975
-34.95
-34.925
-34.9
-34.875
-34.85
-34.825
-34.8
-34.775
-34.75
-34.725
-34.7
-34.675
-34.65
-34.625
-34.6
-34.575
-34.55
-34.525
-34.5
-34.475
-34.45
-34.425
-34.4
-34.375
-34.35
-34.325
-34.3
-34.275
-34.25
-34.225
-34.2
-34.175
-34.15
-34.125
-34.1
-34.075
-34.05
-34.025
-34
-33.975
-33.95
-33.925
-33.9
-33.875
-33.85
-33.825
-33.8
-33.775
-33.75
-33.725
-33.7
-33.675
-33.65
-33.625
-33.6
-33.575
-33.55
-33.525
-33.5
-33.475
-33.45
-33.425
-33.4
-33.375
-33.35
-33.325
-33.3
-33.275
-33.25
-33.225
-33.2
-33.175
-33.15
-33.125
-33.1
-33.075
-33.05
-33.025
-33
-32.975
-32.95
-32.925
-32.9
-32.875
-32.85
-32.825
-32.8
-32.775
-32.75
-32.725
-32.7
-32.675
-32.65
-32.625
-32.6
-32.575
-32.55
-32.525
-32.5
-32.475
-32.45
-32.425
-32.4
-32.375
-32.35
-32.325
-32.3
-32.275
-32.25
-32.225
-32.2
-32.175
-32.15
-32.125
-32.1
-32.075
-32.05
-32.025
-32
-31.975
-31.95
-31.925
-31.9
-31.875
-31.85
-31.825
-31.8
-31.775
-31.75
-31.725
-31.7
-31.675
-31.65
-31.625
-31.6
-31.575
-31.55
-31.525
-31.5
-31.475
-31.45
-31.425
-31.4
-31.375
-31.35
-31.325
-31.3
-31.275
-31.25
-31.225
-31.2
-31.175
-31.15
-31.125
-31.1
-31.075
-31.05
-31.025
-31
-30.975
-30.95
-30.925
-30.9
-30.875
-30.85
-30.825
-30.8
-30.775
-30.75
-30.725
-30.7
-30.675
-30.65
-30.625
-30.6
-30.575
-30.55
-30.525
-30.5
-30.475
-30.45
-30.425
-30.4
-30.375
-30.35
-30.325
-30.3
-30.275
-30.25
-30.225
-30.2
-30.175
-30.15
-30.125
-30.1
-30.075
-30.05
-30.025
-30
-29.975
-29.95
-29.925
-29.9
-29.875
-29.85
-29.825
-29.8
-29.775
-29.75
-29.725
-29.7
-29.675
-29.65
-29.625
-29.6
-29.575
-29.55
-29.525
-29.5
-29.475
-29.45
-29.425
-29.4
-29.375
-29.35
-29.325
-29.3
-29.275
-29.25
-29.225
-29.2
-29.175
-29.15
-29.125
-29.1
-29.075
-29.05
-29.025
-29
-28.975
-28.95
-28.925
-28.9
-28.875
-28.85
-28.825
-28.8
-28.775
-28.75
-28.725
-28.7
-28.675
-28.65
-28.625
-28.6
-28.575
-28.55
-28.525
-28.5
-28.475
-28.45
-28.425
-28.4
-28.375
-28.35
-28.325
-28.3
-28.275
-28.25
-28.225
-28.2
-28.175
-28.15
-28.125
-28.1
-28.075
-28.05
-28.025
-28
-27.975
-27.95
-27.925
-27.9
-27.875
-27.85
-27.825
-27.8
-27.775
-27.75
-27.725
-27.7
-27.675
-27.65
-27.625
-27.6
-27.575
-27.55
-27.525
-27.5
-27.475
-27.45
-27.425
-27.4
-27.375
-27.35
-27.325
-27.3
-27.275
-27.25
-27.225
-27.2
-27.175
-27.15
-27.125
-27.1
-27.075
-27.05
-27.025
-27
-26.975
-26.95
-26.925
-26.9
-26.875
-26.85
-26.825
-26.8
-26.775
-26.75
-26.725
-26.7
-26.675
-26.65
-26.625
-26.6
-26.575
-26.55
-26.525
-26.5
-26.475
-26.45
-26.425
-26.4
-26.375
-26.35
-26.325
-26.3
-26.275
-26.25
-26.225
-26.2
-26.175
-26.15
-26.125
-26.1
-26.075
-26.05
-26.025
-26
-25.975
-25.95
-25.925
-25.9
-25.875
-25.85
-25.825
-25.8
-25.775
-25.75
-25.725
-25.7
-25.675
-25.65
-25.625
-25.6
-25.575
-25.55
-25.525
-25.5
-25.475
-25.45
-25.425
-25.4
-25.375
-25.35
-25.325
-25.3
-25.275
-25.25
-25.225
-25.2
-25.175
-25.15
-25.125
-25.1
-25.075
-25.05
-25.025
-25
-24.975
-24.95
-24.925
-24.9
-24.875
-24.85
-24.825
-24.8
-24.775
-24.75
-24.725
-24.7
-24.675
-24.65
-24.625
-24.6
-24.575
-24.55
-24.525
-24.5
-24.475
-24.45
-24.425
-24.4
-24.375
-24.35
-24.325
-24.3
-24.275
-24.25
-24.225
-24.2
-24.175
-24.15
-24.125
-24.1
-24.075
-24.05
-24.025
-24
-23.975
-23.95
-23.925
-23.9
-23.875
-23.85
-23.825
-23.8
-23.775
-23.75
-23.725
-23.7
-23.675
-23.65
-23.625
-23.6
-23.575
-23.55
-23.525
-23.5
-23.475
-23.45
-23.425
-23.4
-23.375
-23.35
-23.325
-23.3
-23.275
-23.25
-23.225
-23.2
-23.175
-23.15
-23.125
-23.1
-23.075
-23.05
-23.025
-23
-22.975
-22.95
-22.925
-22.9
-22.875
-22.85
-22.825
-22.8
-22.775
-22.75
-22.725
-22.7
-22.675
-22.65
-22.625
-22.6
-22.575
-22.55
-22.525
-22.5
-22.475
-22.45
-22.425
-22.4
-22.375
-22.35
-22.325
-22.3
-22.275
-22.25
-22.225
-22.2
-22.175
-22.15
-22.125
-22.1
-22.075
-22.05
-22.025
-22
-21.975
-21.95
-21.925
-21.9
-21.875
-21.85
-21.825
-21.8
-21.775
-21.75
-21.725
-21.7
-21.675
-21.65
-21.625
-21.6
-21.575
-21.55
-21.525
-21.5
-21.475
-21.45
-21.425
-21.4
-21.375
-21.35
-21.325
-21.3
-21.275
-21.25
-21.225
-21.2
-21.175
-21.15
-21.125
-21.1
-21.075
-21.05
-21.025
-21
-20.975
-20.95
-20.925
-20.9
-20.875
-20.85
-20.825
-20.8
-20.775
-20.75
-20.725
-20.7
-20.675
-20.65
-20.625
-20.6
-20.575
-20.55
-20.525
-20.5
-20.475
-20.45
-20.425
-20.4
-20.375
-20.35
-20.325
-20.3
-20.275
-20.25
-20.225
-20.2
-20.175
-20.15
-20.125
-20.1
-20.075
-20.05
-20.025
-20
VAR_LIST_END
BEGIN
-14.678871,-156.76917
-12.645918,-166.65448
-13.372215,-164.27626
-13.488743,-155.62369
-14.778261,-161.38831
-14.599873,-166.12131
-13.412754,-170.91444
-13.682107,-162.86455
-13.793396,-173.59541
-14.403024,-169.28394
-14.054494,-158.54488
-14.086638,-155.18204
-15.187275,-155.08331
-13.416966,-166.01225
-14.201462,-171.4944
-14.517089,-157.42578
-15.133842,-170.74126
-13.399337,-163.55684
-14.357229,-158.65112
-14.01818,-161.67775
-13.444288,-157.73344
-13.58247,-159.12041
-14.173849,-170.05779
-14.545314,-155.53247
-14.494923,-160.65468
-13.254804,-161.5974
-15.573491,-163.47244
-13.209701,-158.93416
-13.363846,-166.86658
-14.73104,-158.91364
-13.479585,-162.50952
-15.922704,-164.19374
-14.442858,-166.59125
-14.24281,-151.72235
-13.171329,-156.7365
-13.634048,-168.73576
-13.199402,-165.92062
-13.789878,-168.29993
-14.27436,-157.60278
-14.731595,-161.2596
-13.661447,-165.8589
-15.442262,-153.67735
-13.279958,-158.69167
-13.865587,-165.73735
-13.997593,-166.39462
-14.613133,-167.04387
-14.158338,-162.67886
-14.3578,-161.69524
-14.221576,-160.99161
-15.880462,-168.26245
-13.81161,-159.46291
-14.16034,-161.93828
-13.636399,-160.57835
-14.71733,-159.68141
-15.721566,-160.40735
-13.636381,-155.29028
-14.152278,-161.61836
-14.448655,-161.89117
-14.149584,-161.46431
-14.540032,-162.39847
-14.476986,-166.41452
-14.163526,-160.97096
-14.5441,-161.96001
-14.679506,-158.47725
-13.94846,-162.47211
-14.734852,-166.45731
-14.342901,-165.33701
-13.970902,-162.38861
-14.478533,-160.41827
-14.038881,-163.36595
-14.247617,-170.43068
-13.051019,-169.65091
-13.321851,-156.62871
-14.138407,-160.36674
-13.696321,-172.61662
-15.374257,-166.18832
-14.195223,-165.19469
-14.26329,-161.00519
-14.493429,-169.40897
-13.704668,-160.46568
-14.033823,-166.28606
-14.511806,-160.79568
-14.359893,-155.91887
-12.892873,-164.62625
-14.354057,-172.17047
-13.839421,-164.9066
-14.061179,-168.38564
-14.656384,-160.63029
-14.597415,-167.40791
-13.08669,-158.78217
-13.812211,-162.05089
-15.689855,-166.55547
-13.777832,-163.85005
-13.471388,-162.31744
-13.237949,-163.30853
-13.482276,-164.02905
-13.442872,-162.5616
-15.498162,-161.35484
-14.067236,-162.25473
-13.086076,-164.36623
-14.676716,-169.06175
-13.196016,-165.99109
-14.621933,-161.50348
-12.621711,-162.55789
-14.868869,-156.98193
-13.560979,-159.76152
-13.930812,-161.09549
-14.426798,-159.62251
-13.631808,-167.01312
-13.953279,-161.30943
-14.081137,-163.18936
-13.081748,-165.9846
-13.065064,-162.06642
-13.704752,-161.49928
-13.53707,-161.69986
-13.241272,-165.01166
-14.48428,-163.18018
-13.498813,-162.24925
-14.69401,-164.01036
-13.623166,-161.6414
-13.551692,-164.36575
-13.330072,-158.02513
-13.911699,-162.61357
-14.639173,-151.97351
-14.218958,-158.95247
-14.151733,-163.55396
-15.070465,-166.16887
-14.45009,-164.33339
-14.648702,-163.23872
-14.758254,-162.16383
-14.027729,-161.97977
-14.355489,-160.92787
-14.216131,-162.33086
-14.136452,-167.00594
-14.237451,-156.33269
-13.768799,-165.31693
-14.119981,-166.42053
-13.797234,-168.11363
-13.707717,-164.3221
-13.729025,-160.41998
-14.003983,-165.99857
-13.603216,-163.87698
-13.574672,-162.96573
-14.7022,-162.55376
-13.483134,-167.66696
-13.475827,-164.16887
-13.896076,-161.13353
-14.073934,-165.46336
-13.799585,-157.87321
-13.816978,-164.84993
-14.086715,-160.13872
-14.302189,-158.78755
-13.415172,-166.07574
-14.140059,-164.09866
-14.349835,-165.27101
-13.278576,-164.25984
-14.7393,-164.25891
-13.683317,-164.31085
-14.010796,-161.84842
-13.527624,-165.88115
-13.109998,-163.47235
-13.865378,-163.57355
-14.929155,-162.58568
-14.261788,-157.46516
-14.818043,-167.91118
-14.523716,-159.06842
-14.951561,-156.59943
-15.045224,-172.46013
-13.453334,-161.59503
-13.03016,-162.34346
-13.703013,-165.60872
-13.536268,-164.37526
-14.583914,-163.22527
-13.768789,-166.61581
-14.01767,-166.39662
-13.719416,-164.02834
-13.720488,-167.35428
-14.315898,-160.80469
-14.75235,-156.26669
-13.889378,-162.18016
-14.115992,-161.25052
-13.914666,-157.78273
-14.06254,-158.73344
-13.915974,-163.02217
-13.611574,-168.65031
-14.008818,-169.23372
-13.26338,-164.94653
-13.296609,-163.49252
-13.439322,-161.85529
-13.588883,-165.32201
-14.851943,-167.33228
-14.496572,-164.26907
-14.019972,-161.45743
-14.840918,-163.57004
-15.052888,-164.20378
-14.419585,-165.92395
-13.698193,-164.54074
-14.942788,-166.73996
-15.100878,-159.41028
-13.251069,-157.37047
-14.290638,-163.08617
-13.75844,-155.33691
-12.835788,-160.76051
-14.028038,-163.33768
-13.943251,-163.46104
-13.93071,-162.04703
-14.062552,-164.741
-13.742327,-162.71152
-13.813022,-161.7921
-13.372179,-168.65759
-13.379802,-156.45558
-13.538237,-161.11249
-15.101054,-168.68851
-13.307894,-160.79108
-13.882024,-156.68544
-13.830125,-160.72627
-14.104422,-162.95169
-13.210586,-161.9762
-14.653646,-165.29247
-14.233129,-166.47519
-14.133334,-164.15172
-13.3341,-165.68304
-14.838243,-162.30038
-13.491812,-158.44402
-13.436783,-161.01042
-13.85083,-163.23874
-14.398827,-164.31992
-14.415228,-158.09232
-14.429047,-162.83913
-14.450875,-161.56438
-13.818621,-162.63237
-14.069676,-165.40977
-14.915251,-165.28258
-13.853062,-161.67352
-14.193127,-165.18388
-14.178067,-158.54034
-14.95212,-166.04677
-13.80002,-160.77904
-14.126776,-160.03503
-13.848503,-163.50142
-13.603052,-164.20207
-14.121442,-165.11427
-13.84597,-158.1799
-14.352172,-160.19606
-14.068483,-165.39748
-14.557823,-159.09671
-13.924634,-158.62706
-13.991561,-165.83264
-14.525828,-162.6068
-14.559264,-164.77989
-14.131139,-158.66255
-14.197877,-167.93561
-14.203635,-160.98476
-14.711791,-167.34802
-14.1878,-164.7093
-14.486794,-162.12691
-13.846826,-161.90323
-13.79105,-166.12845
-14.781869,-163.88925
-14.179654,-164.36795
-13.855687,-157.73671
-13.603665,-167.77388
-14.23641,-167.18224
-13.485167,-158.54674
-13.975068,-163.66324
-15.285915,-160.80794
-14.109696,-167.96564
-13.559028,-161.11769
-13.93724,-162.51776
-13.890545,-165.86911
-14.109175,-159.91106
-13.289033,-168.12761
-14.546496,-167.37236
-14.41227,-158.8394
-13.698111,-163.46817
-13.582821,-159.90317
-14.278331,-159.43573
-14.413107,-164.58836
-14.382674,-159.08195
-14.41525,-164.63075
-13.917607,-162.38345
-14.024952,-166.93576
-14.786473,-161.73833
-13.243007,-162.10251
-13.908784,-163.44711
-13.68483,-165.83786
-14.996548,-161.97571
-13.949685,-160.34418
-13.893975,-164.40593
-13.700271,-166.34074
-13.5708,-161.41406
-13.344254,-164.55911
-14.159497,-165.30684
-13.940795,-163.86247
-14.498487,-163.0265
-13.475358,-162.94591
-14.392206,-163.79868
-14.25445,-163.7794
-14.011683,-157.76541
-13.721189,-159.89008
-14.522338,-162.71204
-14.403123,-164.68588
-13.834166,-157.35973
-13.770178,-167.54639
-13.876451,-168.55913
-13.914455,-161.7403
-13.951275,-164.44711
-13.921723,-162.08871
-14.226465,-162.07878
-13.919666,-159.55232
-14.586188,-165.16422
-13.673949,-162.72136
-14.370655,-160.51627
-13.640639,-162.23883
-14.159573,-163.69014
-13.4922,-163.12491
-13.33706,-165.72887
-13.47711,-163.59656
-14.073257,-160.83788
-13.839249,-164.55731
-13.959158,-163.05356
-14.673313,-160.24391
-13.850302,-163.76099
-14.71541,-166.12434
-14.566411,-160.64828
-13.276131,-165.1978
-13.743038,-159.55873
-13.741915,-158.85678
-14.26869,-161.77699
-13.719484,-161.38423
-14.128069,-164.38962
-13.959299,-158.1732
-14.00449,-161.86949
-13.992461,-161.80717
-14.607474,-163.5058
-13.835825,-163.07727
-13.738513,-167.80309
-14.087276,-164.40273
-14.895871,-160.40245
-14.784874,-164.89909
-13.965636,-159.1555
-13.413963,-163.02975
-13.988762,-161.21059
-13.676087,-162.84988
-14.157466,-165.9624
-14.672865,-160.76221
-14.361154,-164.57874
-14.842793,-161.05357
-13.630146,-160.33688
-13.67492,-159.0663
-13.293089,-160.98883
-14.108723,-161.7029
-13.922358,-162.38443
-13.632064,-163.67838
-13.759802,-163.64471
-14.578751,-163.37086
-14.295171,-163.78238
-13.821997,-158.44078
-14.174942,-163.97557
-14.333824,-164.36089
-13.610705,-161.65164
-14.502366,-164.83078
-13.513965,-167.58113
-14.584534,-161.38489
-13.334133,-166.52609
-13.551821,-161.79915
-14.316308,-162.71375
-14.224406,-161.33791
-13.579544,-161.08325
-14.004754,-165.19551
-14.208959,-161.91386
-14.471485,-163.71629
-14.173729,-161.67126
-14.439909,-165.83835
-13.703961,-162.77386
-13.645543,-159.28111
-14.213828,-160.47893
-13.879785,-162.78508
-13.699103,-162.96799
-14.088328,-163.55521
-14.306538,-161.56908
-13.758014,-162.15221
-13.775907,-163.95398
-13.989915,-158.48531
-13.970039,-162.07578
-14.349624,-163.18825
-14.723973,-165.57205
-13.55933,-163.87207
-14.609008,-159.53587
-14.072526,-164.56949
-13.887661,-162.37279
-14.233132,-159.83861
-13.938454,-165.03059
-13.645243,-163.62097
-14.117989,-164.12781
-14.144571,-162.13063
-14.33787,-158.62238
-13.82868,-166.07286
-13.72051,-163.18922
-13.637359,-162.05214
-13.781556,-165.75476
-13.675482,-165.01663
-13.922669,-159.93205
-13.974158,-163.05455
-14.383066,-159.76927
-14.584476,-165.12074
-13.871807,-159.60811
-13.944121,-165.45149
-13.519112,-159.57765
-14.653605,-162.85851
-14.070549,-165.20103
-14.432256,-161.55965
-13.997158,-163.45834
-14.585193,-160.946
-13.73423,-162.12955
-14.095837,-161.76955
-13.910705,-160.55083
-14.151396,-165.40546
-14.246464,-165.22794
-13.711354,-165.7841
-13.532238,-165.95526
-13.982748,-161.69221
-13.743765,-162.30597
-14.145807,-162.38304
-14.009918,-163.54678
-14.511298,-159.15567
-13.798804,-163.2383
-14.607059,-163.0106
-14.044469,-164.40053
-13.742571,-161.81073
-14.390686,-161.72556
-14.376924,-166.39589
-13.987634,-162.0376
-13.937976,-162.18864
-14.129069,-165.47162
-14.24434,-162.7108
-14.063915,-163.53056
-13.811379,-163.52112
-13.926013,-161.05385
-14.341396,-160.45038
-13.978537,-159.4597
-14.009598,-160.92247
-14.24628,-159.41986
-14.2505,-162.37314
-14.198851,-162.26576
-13.745847,-162.14282
-14.214686,-163.39346
-14.056621,-163.49704
-14.347708,-159.56274
-14.20034,-165.6337
-14.18653,-163.11456
-13.936392,-163.27393
-14.229045,-161.53609
-13.712394,-161.81921
-13.984622,-163.13235
-13.686327,-162.47423
-14.055453,-159.21799
-14.242367,-163.7307
-13.801519,-162.65753
-14.235683,-163.31935
-14.006167,-165.16655
-13.830051,-160.84863
-13.870895,-162.23656
-14.144202,-162.48181
-14.570164,-159.54018
-14.35879,-162.44603
-14.207273,-164.49886
-14.225698,-162.04794
-14.024344,-162.8524
-14.006454,-163.56415
-13.967231,-162.01913
-14.374708,-162.18941
-13.978223,-163.51843
-13.982131,-164.12399
-13.902255,-162.09415
-13.775568,-164.3215
-14.169536,-161.64597
-13.999273,-163.06577
-14.116213,-163.85951
-14.110373,-163.29323
-14.023551,-160.55609
-13.654146,-164.23047
-13.710786,-165.81856
-13.999274,-163.88553
-13.874125,-162.68362
-13.648115,-164.0912
-13.999408,-162.86856
-13.743161,-161.17947
-14.104249,-163.29451
-14.543113,-159.54527
-14.153735,-163.5005
-14.474895,-162.60771
-13.77667,-160.06715
-13.760858,-162.00201
-14.069457,-163.29567
-13.897712,-165.46733
-14.030593,-161.52052
-14.278165,-161.8008
-13.98584,-159.3548
-14.043828,-160.99936
-13.73234,-164.2222
-13.851371,-162.54944
-13.820615,-163.19392
-14.154805,-160.52774
-13.679212,-163.12402
-14.008904,-158.97061
-13.944401,-164.36882
-14.069298,-164.72845
-13.987443,-165.28358
-14.144209,-164.2905
-14.185392,-163.36868
-14.034362,-161.21809
-14.089972,-163.32207
-14.25475,-160.56709
-13.995164,-162.76991
-14.192935,-164.83109
-13.692033,-162.73557
-14.521603,-163.09073
-13.963261,-164.98911
-13.817499,-161.63828
-13.830793,-162.68384
-14.092228,-163.59662
-14.303893,-163.17845
-14.145783,-163.63927
-14.469734,-164.49522
-13.836083,-165.95763
-14.229616,-162.76988
-14.416604,-164.48819
-14.467563,-161.85609
-13.949857,-162.83252
-14.029971,-163.49353
-13.871479,-164.12439
-14.008561,-164.65405
-14.033885,-164.70296
-14.147937,-162.5014
-14.267819,-163.66827
-13.941683,-164.65443
-14.37995,-164.85092
-14.206292,-163.0798
-13.85226,-163.06999
-14.291122,-163.11711
-14.125544,-161.58249
-14.371655,-163.43767
-13.781127,-161.55452
-13.969838,-162.63933
-14.202574,-162.25215
-14.069907,-161.44347
-13.485369,-162.52641
-14.036251,-162.01616
-14.572139,-163.09198
-14.116768,-163.506
-14.380166,-161.00307
-13.942962,-163.17856
-13.988381,-163.56615
-13.690558,-162.95605
-14.26528,-162.04561
-13.881272,-163.79587
-13.873148,-162.73239
-13.645981,-163.93019
-14.061697,-163.388
-14.256454,-164.52206
-13.662942,-161.84944
-13.987626,-164.15715
-13.828808,-162.16409
-14.228871,-163.37453
-13.760001,-162.93077
-14.280895,-162.37381
-14.026999,-161.8197
-13.727523,-164.00043
-14.011189,-164.53914
-14.209038,-162.46907
-13.623245,-165.91078
-14.079478,-163.64024
-13.912405,-162.56519
-13.725384,-161.47713
-13.892944,-161.08739
