CITIFILE A.01.01
!Agilent Technologies,N5230C,MY48100142,A.08.04.10
!Agilent N5230C: A.08.04.10
!Format: LogMag/Angle
!Date: Wednesday, February 19, 2020 19:51:50
NAME CH1_DATA
VAR Power MAG 801
DATA S11 DBANGLE
DATA S21 DBANGLE
DATA S12 DBANGLE
DATA S22 DBANGLE
VAR_LIST_BEGIN
-40
-39.975
-39.95
-39.925
-39.9
-39.875
-39.85
-39.825
-39.8
-39.775
-39.75
-39.725
-39.7
-39.675
-39.65
-39.625
-39.6
-39.575
-39.55
-39.525
-39.5
-39.475
-39.45
-39.425
-39.4
-39.375
-39.35
-39.325
-39.3
-39.275
-39.25
-39.225
-39.2
-39.175
-39.15
-39.125
-39.1
-39.075
-39.05
-39.025
-39
-38.975
-38.95
-38.925
-38.9
-38.875
-38.85
-38.825
-38.8
-38.775
-38.75
-38.725
-38.7
-38.675
-38.65
-38.625
-38.6
-38.575
-38.55
-38.525
-38.5
-38.475
-38.45
-38.425
-38.4
-38.375
-38.35
-38.325
-38.3
-38.275
-38.25
-38.225
-38.2
-38.175
-38.15
-38.125
-38.1
-38.075
-38.05
-38.025
-38
-37.975
-37.95
-37.925
-37.9
-37.875
-37.85
-37.825
-37.8
-37.775
-37.75
-37.725
-37.7
-37.675
-37.65
-37.625
-37.6
-37.575
-37.55
-37.525
-37.5
-37.475
-37.45
-37.425
-37.4
-37.375
-37.35
-37.325
-37.3
-37.275
-37.25
-37.225
-37.2
-37.175
-37.15
-37.125
-37.1
-37.075
-37.05
-37.025
-37
-36.975
-36.95
-36.925
-36.9
-36.875
-36.85
-36.825
-36.8
-36.775
-36.75
-36.725
-36.7
-36.675
-36.65
-36.625
-36.6
-36.575
-36.55
-36.525
-36.5
-36.475
-36.45
-36.425
-36.4
-36.375
-36.35
-36.325
-36.3
-36.275
-36.25
-36.225
-36.2
-36.175
-36.15
-36.125
-36.1
-36.075
-36.05
-36.025
-36
-35.975
-35.95
-35.925
-35.9
-35.875
-35.85
-35.825
-35.8
-35.775
-35.75
-35.725
-35.7
-35.675
-35.65
-35.625
-35.6
-35.575
-35.55
-35.525
-35.5
-35.475
-35.45
-35.425
-35.4
-35.375
-35.35
-35.325
-35.3
-35.275
-35.25
-35.225
-35.2
-35.175
-35.15
-35.125
-35.1
-35.075
-35.05
-35.025
-35
-34.975
-34.95
-34.925
-34.9
-34.875
-34.85
-34.825
-34.8
-34.775
-34.75
-34.725
-34.7
-34.675
-34.65
-34.625
-34.6
-34.575
-34.55
-34.525
-34.5
-34.475
-34.45
-34.425
-34.4
-34.375
-34.35
-34.325
-34.3
-34.275
-34.25
-34.225
-34.2
-34.175
-34.15
-34.125
-34.1
-34.075
-34.05
-34.025
-34
-33.975
-33.95
-33.925
-33.9
-33.875
-33.85
-33.825
-33.8
-33.775
-33.75
-33.725
-33.7
-33.675
-33.65
-33.625
-33.6
-33.575
-33.55
-33.525
-33.5
-33.475
-33.45
-33.425
-33.4
-33.375
-33.35
-33.325
-33.3
-33.275
-33.25
-33.225
-33.2
-33.175
-33.15
-33.125
-33.1
-33.075
-33.05
-33.025
-33
-32.975
-32.95
-32.925
-32.9
-32.875
-32.85
-32.825
-32.8
-32.775
-32.75
-32.725
-32.7
-32.675
-32.65
-32.625
-32.6
-32.575
-32.55
-32.525
-32.5
-32.475
-32.45
-32.425
-32.4
-32.375
-32.35
-32.325
-32.3
-32.275
-32.25
-32.225
-32.2
-32.175
-32.15
-32.125
-32.1
-32.075
-32.05
-32.025
-32
-31.975
-31.95
-31.925
-31.9
-31.875
-31.85
-31.825
-31.8
-31.775
-31.75
-31.725
-31.7
-31.675
-31.65
-31.625
-31.6
-31.575
-31.55
-31.525
-31.5
-31.475
-31.45
-31.425
-31.4
-31.375
-31.35
-31.325
-31.3
-31.275
-31.25
-31.225
-31.2
-31.175
-31.15
-31.125
-31.1
-31.075
-31.05
-31.025
-31
-30.975
-30.95
-30.925
-30.9
-30.875
-30.85
-30.825
-30.8
-30.775
-30.75
-30.725
-30.7
-30.675
-30.65
-30.625
-30.6
-30.575
-30.55
-30.525
-30.5
-30.475
-30.45
-30.425
-30.4
-30.375
-30.35
-30.325
-30.3
-30.275
-30.25
-30.225
-30.2
-30.175
-30.15
-30.125
-30.1
-30.075
-30.05
-30.025
-30
-29.975
-29.95
-29.925
-29.9
-29.875
-29.85
-29.825
-29.8
-29.775
-29.75
-29.725
-29.7
-29.675
-29.65
-29.625
-29.6
-29.575
-29.55
-29.525
-29.5
-29.475
-29.45
-29.425
-29.4
-29.375
-29.35
-29.325
-29.3
-29.275
-29.25
-29.225
-29.2
-29.175
-29.15
-29.125
-29.1
-29.075
-29.05
-29.025
-29
-28.975
-28.95
-28.925
-28.9
-28.875
-28.85
-28.825
-28.8
-28.775
-28.75
-28.725
-28.7
-28.675
-28.65
-28.625
-28.6
-28.575
-28.55
-28.525
-28.5
-28.475
-28.45
-28.425
-28.4
-28.375
-28.35
-28.325
-28.3
-28.275
-28.25
-28.225
-28.2
-28.175
-28.15
-28.125
-28.1
-28.075
-28.05
-28.025
-28
-27.975
-27.95
-27.925
-27.9
-27.875
-27.85
-27.825
-27.8
-27.775
-27.75
-27.725
-27.7
-27.675
-27.65
-27.625
-27.6
-27.575
-27.55
-27.525
-27.5
-27.475
-27.45
-27.425
-27.4
-27.375
-27.35
-27.325
-27.3
-27.275
-27.25
-27.225
-27.2
-27.175
-27.15
-27.125
-27.1
-27.075
-27.05
-27.025
-27
-26.975
-26.95
-26.925
-26.9
-26.875
-26.85
-26.825
-26.8
-26.775
-26.75
-26.725
-26.7
-26.675
-26.65
-26.625
-26.6
-26.575
-26.55
-26.525
-26.5
-26.475
-26.45
-26.425
-26.4
-26.375
-26.35
-26.325
-26.3
-26.275
-26.25
-26.225
-26.2
-26.175
-26.15
-26.125
-26.1
-26.075
-26.05
-26.025
-26
-25.975
-25.95
-25.925
-25.9
-25.875
-25.85
-25.825
-25.8
-25.775
-25.75
-25.725
-25.7
-25.675
-25.65
-25.625
-25.6
-25.575
-25.55
-25.525
-25.5
-25.475
-25.45
-25.425
-25.4
-25.375
-25.35
-25.325
-25.3
-25.275
-25.25
-25.225
-25.2
-25.175
-25.15
-25.125
-25.1
-25.075
-25.05
-25.025
-25
-24.975
-24.95
-24.925
-24.9
-24.875
-24.85
-24.825
-24.8
-24.775
-24.75
-24.725
-24.7
-24.675
-24.65
-24.625
-24.6
-24.575
-24.55
-24.525
-24.5
-24.475
-24.45
-24.425
-24.4
-24.375
-24.35
-24.325
-24.3
-24.275
-24.25
-24.225
-24.2
-24.175
-24.15
-24.125
-24.1
-24.075
-24.05
-24.025
-24
-23.975
-23.95
-23.925
-23.9
-23.875
-23.85
-23.825
-23.8
-23.775
-23.75
-23.725
-23.7
-23.675
-23.65
-23.625
-23.6
-23.575
-23.55
-23.525
-23.5
-23.475
-23.45
-23.425
-23.4
-23.375
-23.35
-23.325
-23.3
-23.275
-23.25
-23.225
-23.2
-23.175
-23.15
-23.125
-23.1
-23.075
-23.05
-23.025
-23
-22.975
-22.95
-22.925
-22.9
-22.875
-22.85
-22.825
-22.8
-22.775
-22.75
-22.725
-22.7
-22.675
-22.65
-22.625
-22.6
-22.575
-22.55
-22.525
-22.5
-22.475
-22.45
-22.425
-22.4
-22.375
-22.35
-22.325
-22.3
-22.275
-22.25
-22.225
-22.2
-22.175
-22.15
-22.125
-22.1
-22.075
-22.05
-22.025
-22
-21.975
-21.95
-21.925
-21.9
-21.875
-21.85
-21.825
-21.8
-21.775
-21.75
-21.725
-21.7
-21.675
-21.65
-21.625
-21.6
-21.575
-21.55
-21.525
-21.5
-21.475
-21.45
-21.425
-21.4
-21.375
-21.35
-21.325
-21.3
-21.275
-21.25
-21.225
-21.2
-21.175
-21.15
-21.125
-21.1
-21.075
-21.05
-21.025
-21
-20.975
-20.95
-20.925
-20.9
-20.875
-20.85
-20.825
-20.8
-20.775
-20.75
-20.725
-20.7
-20.675
-20.65
-20.625
-20.6
-20.575
-20.55
-20.525
-20.5
-20.475
-20.45
-20.425
-20.4
-20.375
-20.35
-20.325
-20.3
-20.275
-20.25
-20.225
-20.2
-20.175
-20.15
-20.125
-20.1
-20.075
-20.05
-20.025
-20
VAR_LIST_END
BEGIN
-15.174561,-158.07494
-14.64003,-158.9104
-14.974223,-156.05672
-15.275196,-160.68433
-14.89226,-161.92863
-15.31961,-157.51074
-14.921662,-160.93544
-15.271436,-158.47336
-14.863131,-164.75679
-15.70228,-160.02342
-15.17652,-159.15157
-15.571921,-159.71172
-15.342518,-158.38596
-14.81743,-158.86852
-15.147528,-160.04219
-15.491459,-161.0526
-15.456402,-160.92691
-14.849295,-160.27901
-14.776576,-161.38377
-14.274049,-163.12964
-15.112262,-163.47693
-14.886254,-159.41267
-15.013214,-159.60913
-14.732031,-159.88438
-14.730807,-158.54915
-14.77252,-158.23663
-14.934853,-161.8764
-14.96837,-158.6535
-15.038391,-162.65533
-14.997927,-161.38889
-15.601212,-162.66461
-15.58565,-159.3784
-15.715501,-160.55986
-14.797093,-163.91823
-15.226713,-160.31123
-14.838102,-156.79707
-15.122156,-162.48396
-15.006785,-157.76933
-15.478643,-156.95326
-15.168597,-165.1785
-15.089688,-160.17935
-14.944288,-165.93637
-15.546578,-155.29979
-14.937573,-161.07439
-14.613187,-163.10339
-15.354932,-159.19868
-14.656523,-156.11507
-14.802095,-162.46642
-14.665923,-161.13451
-15.926786,-159.40912
-15.441325,-159.06317
-15.288795,-158.99542
-15.129058,-157.13033
-14.686298,-161.51259
-15.312526,-160.02493
-14.767568,-159.11557
-15.210945,-158.34293
-15.439194,-160.19569
-15.260242,-161.60005
-15.23865,-160.80202
-14.354469,-164.34657
-15.056301,-159.17036
-14.708167,-161.77687
-14.91766,-161.07413
-15.031957,-161.01834
-15.221341,-167.0932
-15.009126,-157.73236
-15.127584,-161.32382
-15.248115,-162.67719
-14.601397,-162.65735
-14.948153,-160.47894
-15.474175,-158.32019
-15.209358,-158.57619
-14.951639,-163.8152
-15.212285,-161.24039
-14.979649,-161.68694
-15.056728,-158.92049
-14.996674,-158.23581
-14.721862,-161.6954
-15.071544,-156.96574
-15.239061,-162.10577
-15.18218,-161.45024
-15.139475,-161.47174
-14.942636,-159.92247
-15.317419,-165.05663
-15.428028,-160.68648
-15.618178,-161.52547
-15.403216,-158.77411
-14.962862,-162.03279
-15.142776,-160.77596
-14.786619,-159.52615
-14.923484,-163.64409
-14.90531,-160.77048
-14.981116,-161.70178
-15.388848,-162.87549
-15.33689,-159.7355
-15.074317,-161.36642
-14.883695,-159.59686
-15.15005,-157.76089
-14.83066,-159.36639
-15.258983,-163.27187
-15.135857,-163.22179
-15.335716,-160.66115
-14.766477,-160.69209
-15.543206,-158.01149
-15.224592,-160.8741
-15.199944,-160.30348
-14.789412,-159.9624
-15.072198,-163.05029
-14.861297,-160.69315
-15.454263,-156.18674
-14.976475,-164.81137
-15.02463,-161.20811
-15.143431,-161.33685
-15.747716,-159.33891
-15.338469,-157.59308
-15.038926,-158.82106
-14.8745,-162.14275
-14.982782,-162.90089
-15.170738,-160.46405
-14.84909,-158.38068
-15.164834,-161.3981
-15.173549,-157.6875
-15.150753,-158.9767
-15.519271,-160.80769
-15.194022,-159.16586
-15.011646,-161.42868
-14.784022,-162.42287
-14.950127,-156.04108
-14.390696,-157.20815
-14.613307,-158.83844
-15.051178,-164.52411
-14.973725,-160.69743
-15.401112,-163.18127
-15.6338,-160.19127
-14.794829,-159.15111
-15.341862,-159.84187
-14.86733,-161.95139
-14.774219,-162.26651
-14.827275,-159.58008
-14.990246,-162.67076
-15.155712,-160.8166
-15.602815,-162.93085
-15.609289,-161.56332
-15.548373,-160.62428
-14.720559,-160.50681
-15.246222,-160.66902
-15.339108,-160.23897
-15.156181,-160.72845
-15.200711,-161.28673
-15.259978,-158.36623
-15.262942,-159.99338
-14.982621,-159.09972
-14.845743,-161.34746
-15.022106,-162.47844
-15.016135,-160.41486
-15.605496,-159.34697
-14.791775,-158.68698
-14.683597,-159.00844
-15.170903,-159.39038
-15.461421,-159.88583
-15.073606,-158.96619
-14.758583,-161.68402
-15.210082,-161.80655
-15.083068,-162.1308
-15.234626,-158.57265
-15.29242,-159.2088
-15.11835,-160.81468
-15.460062,-160.91301
-14.888237,-158.92879
-15.569799,-158.06294
-15.207005,-160.38503
-14.99688,-160.03407
-15.063589,-162.09468
-15.064206,-159.25526
-14.740396,-159.35976
-15.411316,-159.69011
-15.258727,-159.41397
-15.148734,-161.77609
-15.353676,-159.17892
-14.946382,-161.35616
-14.632056,-159.36226
-15.138647,-162.99039
-15.026294,-160.09868
-14.923785,-159.44177
-14.463172,-159.32666
-15.103606,-161.04297
-15.065825,-161.52774
-14.817429,-161.95067
-15.195516,-160.22981
-14.824656,-161.56577
-15.015342,-159.37253
-15.176435,-162.21266
-14.649978,-162.23711
-15.007837,-161.64621
-15.290633,-163.74715
-15.187419,-161.30052
-14.991992,-161.65791
-14.984592,-161.35315
-14.890841,-159.70219
-14.879457,-160.00232
-14.939759,-159.98575
-15.1868,-158.26767
-15.027362,-159.47726
-14.938451,-161.03415
-14.923615,-160.92287
-14.881279,-161.955
-15.051399,-162.52969
-15.126632,-159.4649
-15.047244,-159.98759
-14.974792,-158.0983
-14.674345,-161.38928
-15.273483,-159.43828
-14.745835,-158.79192
-15.030411,-160.99222
-14.973414,-163.81158
-14.936714,-162.0712
-14.872379,-161.06229
-15.172771,-161.54158
-15.204725,-160.91992
-14.873883,-160.68889
-15.211312,-160.02681
-14.845231,-161.83014
-15.387861,-159.69029
-14.964027,-162.66161
-15.035258,-161.4794
-14.72779,-160.73839
-15.206006,-160.61481
-15.173622,-160.37122
-14.72844,-163.20877
-15.182614,-162.79295
-15.110997,-163.925
-14.948261,-157.63271
-15.406988,-160.0732
-15.298231,-159.97414
-15.374544,-159.32968
-15.0373,-159.17993
-15.368188,-162.64622
-15.011681,-162.02039
-14.767467,-160.30115
-15.675571,-159.93069
-14.761353,-160.43541
-15.013597,-161.09309
-15.141945,-159.59784
-15.182941,-161.63449
-15.330604,-161.26601
-15.198026,-159.00694
-15.195314,-160.7227
-14.84311,-158.78812
-14.887331,-159.66017
-15.161572,-159.25868
-14.873708,-161.43318
-15.139426,-162.23763
-14.8781,-161.85185
-14.879803,-160.28119
-15.09538,-161.67188
-14.684956,-159.28931
-15.086968,-161.8602
-14.892577,-161.10667
-15.028407,-160.2979
-14.73572,-160.78758
-14.87931,-160.98286
-15.164966,-160.02771
-15.188052,-163.12076
-14.700056,-163.7372
-14.889736,-161.09218
-15.072532,-162.0153
-15.332112,-159.82671
-15.222711,-161.08748
-15.286383,-158.17253
-14.939731,-162.05849
-15.205836,-160.81708
-14.853437,-159.75838
-15.149039,-160.30991
-15.069994,-162.17781
-14.915163,-161.24916
-15.312454,-160.0051
-15.003813,-160.84621
-15.339458,-160.76164
-14.855719,-160.00604
-15.126651,-160.30481
-15.027847,-157.92458
-14.904469,-160.89413
-14.982174,-160.4017
-14.862269,-159.95796
-15.155147,-160.24429
-14.844061,-160.92346
-14.748463,-160.33084
-15.269807,-160.74306
-15.153311,-159.73048
-15.278048,-161.09741
-15.122679,-161.98001
-15.34401,-159.17221
-15.046759,-161.38698
-15.352561,-160.14539
-15.360066,-159.92451
-15.415226,-162.24611
-14.598902,-160.35974
-15.424427,-160.9859
-14.920106,-161.77856
-15.071602,-162.19896
-14.774702,-161.76904
-15.354625,-158.82516
-14.945388,-159.01006
-15.126134,-159.60088
-15.020146,-161.73624
-14.925959,-161.57188
-15.001416,-161.07611
-14.862951,-160.15955
-14.851407,-162.18579
-14.955662,-160.028
-15.00176,-160.74883
-15.03585,-161.03746
-15.051467,-161.43753
-15.435133,-161.65247
-15.183527,-161.60887
-15.482505,-162.03156
-14.784266,-162.47969
-15.019608,-161.56445
-15.233768,-160.69276
-15.031478,-159.24084
-14.84959,-160.41367
-14.991356,-161.52225
-15.116367,-161.68335
-14.706346,-160.58217
-14.896082,-162.14175
-15.296873,-161.12386
-15.070202,-161.97176
-15.026761,-160.21867
-15.263285,-160.85786
-15.086749,-159.68332
-15.286215,-159.97592
-15.312815,-159.68608
-15.031752,-161.18149
-14.968711,-158.98811
-15.115256,-159.64194
-15.019327,-160.09145
-15.040898,-161.33469
-14.977422,-158.87909
-14.67591,-161.41905
-15.063909,-160.15565
-15.193782,-161.29478
-14.571499,-160.35175
-14.939598,-162.07249
-14.925047,-162.46918
-14.847224,-161.21049
-15.014029,-158.46848
-15.001332,-161.55598
-15.006842,-162.25821
-15.192529,-161.46629
-15.165792,-160.53026
-15.210798,-161.98412
-15.223246,-158.84277
-14.899941,-158.71808
-14.655169,-160.09901
-15.185852,-160.78081
-15.156515,-161.7449
-14.958069,-161.82715
-15.204846,-161.95261
-15.199265,-158.4552
-14.973111,-159.74646
-15.015162,-158.77341
-14.954741,-159.95602
-15.127286,-160.39546
-15.037147,-160.23392
-15.039669,-159.84055
-15.122669,-161.25172
-15.039602,-160.4184
-14.746626,-161.76141
-15.006373,-162.07809
-15.172146,-160.14125
-15.31473,-159.83992
-15.092419,-160.9843
-15.146501,-159.8748
-15.203138,-161.89622
-15.046415,-161.69257
-15.02555,-160.13324
-14.980634,-160.40491
-14.992827,-158.62022
-14.929962,-160.048
-15.207473,-161.0621
-14.661209,-161.71844
-15.181544,-161.84467
-14.936625,-159.41768
-15.024179,-161.28922
-15.307489,-159.77417
-15.190215,-159.57477
-15.064411,-159.44984
-14.828505,-160.43864
-14.970167,-160.93341
-15.096349,-158.95006
-15.001111,-161.67177
-15.193033,-161.49361
-15.016393,-161.72113
-15.12435,-161.85777
-15.147867,-160.58257
-14.816281,-159.8156
-15.094883,-161.26443
-15.144004,-159.40654
-15.481103,-159.80125
-15.056764,-159.62537
-15.094596,-161.1525
-15.414377,-161.35039
-15.259536,-161.24098
-15.247809,-158.77133
-15.006916,-160.87183
-15.128889,-161.7627
-15.147371,-161.63852
-15.120529,-160.80818
-15.067281,-160.17426
-15.220161,-162.67346
-15.121461,-160.31935
-15.001806,-162.2149
-14.801041,-159.21817
-15.377206,-161.87425
-14.971924,-163.25212
-14.946188,-158.68939
-14.781957,-160.84988
-15.105058,-160.11377
-15.13647,-159.38306
-14.968858,-159.48097
-14.917719,-161.77614
-15.303499,-159.73329
-14.899947,-159.97423
-15.013219,-160.26996
-15.178204,-159.50487
-15.098554,-159.77003
-15.085705,-160.55753
-15.218927,-160.03838
-15.329213,-160.81721
-14.91552,-161.87711
-14.788941,-160.38382
-15.130995,-160.54071
-15.165985,-161.65175
-15.069121,-158.81583
-15.088364,-161.86272
-14.922741,-160.35091
-14.965789,-160.05707
-15.009241,-161.17482
-15.226965,-161.10249
-15.080167,-160.9957
-15.121572,-161.49446
-14.887724,-161.20183
-15.079227,-160.97778
-15.100632,-159.9529
-15.419465,-158.55009
-15.171782,-161.08598
-15.155402,-161.32849
-15.286949,-160.15779
-15.19922,-161.15831
-15.081763,-162.12227
-15.051989,-160.91313
-15.239351,-160.52116
-15.009727,-159.81006
-15.060367,-160.39934
-15.211594,-160.81458
-14.968078,-161.25641
-15.096958,-159.58586
-14.877811,-160.78369
-14.99099,-160.44873
-15.264814,-161.60683
-15.169044,-159.87434
-15.19685,-159.66383
-14.936817,-160.68088
-15.097581,-159.93547
-15.093996,-160.03023
-15.191051,-161.1812
-15.165001,-161.01466
-15.018933,-161.6015
-15.077273,-161.68747
-15.188563,-160.63989
-15.094377,-160.96622
-15.009757,-161.40059
-15.093609,-160.25185
-15.046352,-159.90871
-15.225584,-160.89328
-15.078525,-161.06773
-14.865497,-160.68848
-15.217177,-161.07758
-14.904645,-160.4146
-14.922309,-160.23627
-14.916377,-159.38737
-15.099677,-162.06055
-15.141416,-160.58015
-15.128017,-160.58063
-15.173786,-159.76471
-15.052788,-161.9035
-15.060606,-158.39018
-15.22873,-161.75894
-14.940336,-159.84616
-14.910311,-160.34145
-14.909558,-161.3085
-15.049114,-159.01967
-15.07067,-160.49641
-15.124746,-160.62927
-15.02558,-160.18536
-15.108027,-160.63785
-15.058,-160.67404
-15.023244,-160.02626
-15.079455,-159.82054
-15.05342,-159.96011
-15.103932,-161.56721
-14.990108,-162.15152
-15.07561,-160.76001
-15.051276,-161.42276
-14.896516,-161.64459
-15.209988,-160.06458
-14.863405,-160.80402
-15.206134,-160.96458
-15.032679,-161.15715
-15.072686,-160.04953
-15.100919,-160.37953
-15.033985,-161.24318
-15.130109,-160.00183
-15.061995,-160.79428
-15.06027,-161.10225
-14.901483,-160.67334
-15.127793,-160.16969
-15.013676,-161.13718
-15.096146,-161.07501
-15.050362,-161.30075
-15.198452,-160.21765
-14.812343,-159.35452
-15.057033,-161.23222
-15.031459,-160.5063
-14.886262,-160.59273
-15.051733,-159.84933
-15.287613,-160.21417
-15.099623,-159.67917
-15.140431,-162.06987
-15.152143,-159.97623
-15.385088,-160.22958
-15.115554,-161.1226
-14.94396,-160.36441
-14.941825,-159.99138
-15.026359,-161.16661
-15.094465,-161.56792
-15.068825,-160.11073
-15.133239,-160.37689
-15.005039,-161.71983
-15.132471,-160.63319
-15.070124,-159.66954
-15.064041,-160.55922
-15.063473,-160.05424
-15.079455,-160.19539
-15.005571,-161.11372
-14.969177,-161.09698
-15.118136,-160.76389
-14.994039,-160.54613
-15.231311,-160.4276
-15.065124,-160.45107
-15.044119,-160.67821
-14.887268,-161.2533
-15.115359,-160.65442
-15.080735,-160.56572
-15.026109,-159.43419
-15.235058,-161.42984
-15.217649,-160.81927
-15.158716,-159.63536
-14.988598,-161.53999
-15.121811,-162.43295
-14.954989,-160.79935
-15.035729,-160.96426
-15.07066,-161.32645
-15.096456,-161.05774
-15.223339,-159.90906
-14.852585,-159.5489
-15.09454,-161.65416
-15.00438,-160.75723
-15.199309,-161.05405
-15.211946,-162.23376
-14.975836,-160.42169
-15.029556,-159.97276
-15.19997,-160.54794
-14.97546,-161.04536
-15.143283,-160.69057
