CITIFILE A.01.01
!Agilent Technologies,N5230C,MY48100142,A.08.04.10
!Agilent N5230C: A.08.04.10
!Format: LogMag/Angle
!Date: Monday, September 07, 2020 16:51:34
NAME CH1_DATA
VAR Power MAG 801
DATA S11 DBANGLE
DATA S21 DBANGLE
DATA S12 DBANGLE
DATA S22 DBANGLE
VAR_LIST_BEGIN
-40
-39.975
-39.95
-39.925
-39.9
-39.875
-39.85
-39.825
-39.8
-39.775
-39.75
-39.725
-39.7
-39.675
-39.65
-39.625
-39.6
-39.575
-39.55
-39.525
-39.5
-39.475
-39.45
-39.425
-39.4
-39.375
-39.35
-39.325
-39.3
-39.275
-39.25
-39.225
-39.2
-39.175
-39.15
-39.125
-39.1
-39.075
-39.05
-39.025
-39
-38.975
-38.95
-38.925
-38.9
-38.875
-38.85
-38.825
-38.8
-38.775
-38.75
-38.725
-38.7
-38.675
-38.65
-38.625
-38.6
-38.575
-38.55
-38.525
-38.5
-38.475
-38.45
-38.425
-38.4
-38.375
-38.35
-38.325
-38.3
-38.275
-38.25
-38.225
-38.2
-38.175
-38.15
-38.125
-38.1
-38.075
-38.05
-38.025
-38
-37.975
-37.95
-37.925
-37.9
-37.875
-37.85
-37.825
-37.8
-37.775
-37.75
-37.725
-37.7
-37.675
-37.65
-37.625
-37.6
-37.575
-37.55
-37.525
-37.5
-37.475
-37.45
-37.425
-37.4
-37.375
-37.35
-37.325
-37.3
-37.275
-37.25
-37.225
-37.2
-37.175
-37.15
-37.125
-37.1
-37.075
-37.05
-37.025
-37
-36.975
-36.95
-36.925
-36.9
-36.875
-36.85
-36.825
-36.8
-36.775
-36.75
-36.725
-36.7
-36.675
-36.65
-36.625
-36.6
-36.575
-36.55
-36.525
-36.5
-36.475
-36.45
-36.425
-36.4
-36.375
-36.35
-36.325
-36.3
-36.275
-36.25
-36.225
-36.2
-36.175
-36.15
-36.125
-36.1
-36.075
-36.05
-36.025
-36
-35.975
-35.95
-35.925
-35.9
-35.875
-35.85
-35.825
-35.8
-35.775
-35.75
-35.725
-35.7
-35.675
-35.65
-35.625
-35.6
-35.575
-35.55
-35.525
-35.5
-35.475
-35.45
-35.425
-35.4
-35.375
-35.35
-35.325
-35.3
-35.275
-35.25
-35.225
-35.2
-35.175
-35.15
-35.125
-35.1
-35.075
-35.05
-35.025
-35
-34.975
-34.95
-34.925
-34.9
-34.875
-34.85
-34.825
-34.8
-34.775
-34.75
-34.725
-34.7
-34.675
-34.65
-34.625
-34.6
-34.575
-34.55
-34.525
-34.5
-34.475
-34.45
-34.425
-34.4
-34.375
-34.35
-34.325
-34.3
-34.275
-34.25
-34.225
-34.2
-34.175
-34.15
-34.125
-34.1
-34.075
-34.05
-34.025
-34
-33.975
-33.95
-33.925
-33.9
-33.875
-33.85
-33.825
-33.8
-33.775
-33.75
-33.725
-33.7
-33.675
-33.65
-33.625
-33.6
-33.575
-33.55
-33.525
-33.5
-33.475
-33.45
-33.425
-33.4
-33.375
-33.35
-33.325
-33.3
-33.275
-33.25
-33.225
-33.2
-33.175
-33.15
-33.125
-33.1
-33.075
-33.05
-33.025
-33
-32.975
-32.95
-32.925
-32.9
-32.875
-32.85
-32.825
-32.8
-32.775
-32.75
-32.725
-32.7
-32.675
-32.65
-32.625
-32.6
-32.575
-32.55
-32.525
-32.5
-32.475
-32.45
-32.425
-32.4
-32.375
-32.35
-32.325
-32.3
-32.275
-32.25
-32.225
-32.2
-32.175
-32.15
-32.125
-32.1
-32.075
-32.05
-32.025
-32
-31.975
-31.95
-31.925
-31.9
-31.875
-31.85
-31.825
-31.8
-31.775
-31.75
-31.725
-31.7
-31.675
-31.65
-31.625
-31.6
-31.575
-31.55
-31.525
-31.5
-31.475
-31.45
-31.425
-31.4
-31.375
-31.35
-31.325
-31.3
-31.275
-31.25
-31.225
-31.2
-31.175
-31.15
-31.125
-31.1
-31.075
-31.05
-31.025
-31
-30.975
-30.95
-30.925
-30.9
-30.875
-30.85
-30.825
-30.8
-30.775
-30.75
-30.725
-30.7
-30.675
-30.65
-30.625
-30.6
-30.575
-30.55
-30.525
-30.5
-30.475
-30.45
-30.425
-30.4
-30.375
-30.35
-30.325
-30.3
-30.275
-30.25
-30.225
-30.2
-30.175
-30.15
-30.125
-30.1
-30.075
-30.05
-30.025
-30
-29.975
-29.95
-29.925
-29.9
-29.875
-29.85
-29.825
-29.8
-29.775
-29.75
-29.725
-29.7
-29.675
-29.65
-29.625
-29.6
-29.575
-29.55
-29.525
-29.5
-29.475
-29.45
-29.425
-29.4
-29.375
-29.35
-29.325
-29.3
-29.275
-29.25
-29.225
-29.2
-29.175
-29.15
-29.125
-29.1
-29.075
-29.05
-29.025
-29
-28.975
-28.95
-28.925
-28.9
-28.875
-28.85
-28.825
-28.8
-28.775
-28.75
-28.725
-28.7
-28.675
-28.65
-28.625
-28.6
-28.575
-28.55
-28.525
-28.5
-28.475
-28.45
-28.425
-28.4
-28.375
-28.35
-28.325
-28.3
-28.275
-28.25
-28.225
-28.2
-28.175
-28.15
-28.125
-28.1
-28.075
-28.05
-28.025
-28
-27.975
-27.95
-27.925
-27.9
-27.875
-27.85
-27.825
-27.8
-27.775
-27.75
-27.725
-27.7
-27.675
-27.65
-27.625
-27.6
-27.575
-27.55
-27.525
-27.5
-27.475
-27.45
-27.425
-27.4
-27.375
-27.35
-27.325
-27.3
-27.275
-27.25
-27.225
-27.2
-27.175
-27.15
-27.125
-27.1
-27.075
-27.05
-27.025
-27
-26.975
-26.95
-26.925
-26.9
-26.875
-26.85
-26.825
-26.8
-26.775
-26.75
-26.725
-26.7
-26.675
-26.65
-26.625
-26.6
-26.575
-26.55
-26.525
-26.5
-26.475
-26.45
-26.425
-26.4
-26.375
-26.35
-26.325
-26.3
-26.275
-26.25
-26.225
-26.2
-26.175
-26.15
-26.125
-26.1
-26.075
-26.05
-26.025
-26
-25.975
-25.95
-25.925
-25.9
-25.875
-25.85
-25.825
-25.8
-25.775
-25.75
-25.725
-25.7
-25.675
-25.65
-25.625
-25.6
-25.575
-25.55
-25.525
-25.5
-25.475
-25.45
-25.425
-25.4
-25.375
-25.35
-25.325
-25.3
-25.275
-25.25
-25.225
-25.2
-25.175
-25.15
-25.125
-25.1
-25.075
-25.05
-25.025
-25
-24.975
-24.95
-24.925
-24.9
-24.875
-24.85
-24.825
-24.8
-24.775
-24.75
-24.725
-24.7
-24.675
-24.65
-24.625
-24.6
-24.575
-24.55
-24.525
-24.5
-24.475
-24.45
-24.425
-24.4
-24.375
-24.35
-24.325
-24.3
-24.275
-24.25
-24.225
-24.2
-24.175
-24.15
-24.125
-24.1
-24.075
-24.05
-24.025
-24
-23.975
-23.95
-23.925
-23.9
-23.875
-23.85
-23.825
-23.8
-23.775
-23.75
-23.725
-23.7
-23.675
-23.65
-23.625
-23.6
-23.575
-23.55
-23.525
-23.5
-23.475
-23.45
-23.425
-23.4
-23.375
-23.35
-23.325
-23.3
-23.275
-23.25
-23.225
-23.2
-23.175
-23.15
-23.125
-23.1
-23.075
-23.05
-23.025
-23
-22.975
-22.95
-22.925
-22.9
-22.875
-22.85
-22.825
-22.8
-22.775
-22.75
-22.725
-22.7
-22.675
-22.65
-22.625
-22.6
-22.575
-22.55
-22.525
-22.5
-22.475
-22.45
-22.425
-22.4
-22.375
-22.35
-22.325
-22.3
-22.275
-22.25
-22.225
-22.2
-22.175
-22.15
-22.125
-22.1
-22.075
-22.05
-22.025
-22
-21.975
-21.95
-21.925
-21.9
-21.875
-21.85
-21.825
-21.8
-21.775
-21.75
-21.725
-21.7
-21.675
-21.65
-21.625
-21.6
-21.575
-21.55
-21.525
-21.5
-21.475
-21.45
-21.425
-21.4
-21.375
-21.35
-21.325
-21.3
-21.275
-21.25
-21.225
-21.2
-21.175
-21.15
-21.125
-21.1
-21.075
-21.05
-21.025
-21
-20.975
-20.95
-20.925
-20.9
-20.875
-20.85
-20.825
-20.8
-20.775
-20.75
-20.725
-20.7
-20.675
-20.65
-20.625
-20.6
-20.575
-20.55
-20.525
-20.5
-20.475
-20.45
-20.425
-20.4
-20.375
-20.35
-20.325
-20.3
-20.275
-20.25
-20.225
-20.2
-20.175
-20.15
-20.125
-20.1
-20.075
-20.05
-20.025
-20
VAR_LIST_END
BEGIN
-15.600519,-155.82506
-16.006796,-161.73434
-14.743288,-157.29921
-15.000316,-156.9687
-14.977301,-160.60767
-15.261071,-163.92487
-15.051609,-153.80368
-15.353508,-159.09607
-14.74636,-160.96945
-15.806677,-155.42908
-15.153898,-156.9213
-15.331432,-161.34488
-14.62272,-157.59909
-14.565543,-158.43993
-14.151244,-160.61694
-15.182732,-159.78136
-14.385782,-157.24269
-14.991141,-156.81728
-15.12015,-158.06401
-15.226367,-156.02332
-14.971451,-155.52544
-15.57634,-156.48866
-15.113809,-157.79321
-15.168538,-153.93341
-15.138268,-158.72905
-15.072107,-162.95888
-14.419558,-156.73482
-14.787436,-156.87027
-14.770816,-154.75072
-15.183237,-157.98143
-15.519838,-156.31874
-14.892325,-156.75426
-15.455562,-156.58348
-14.882703,-155.84105
-15.202524,-158.11707
-14.722421,-155.00603
-15.013862,-156.97037
-15.127674,-156.30157
-14.822162,-158.37408
-15.341148,-156.71495
-15.259491,-157.37302
-15.078357,-157.80008
-15.187836,-156.25951
-14.981587,-158.54042
-15.212635,-159.84512
-13.885873,-158.20465
-14.947482,-153.98766
-15.540589,-157.31566
-14.872654,-158.52164
-14.722995,-160.14479
-14.787572,-159.81642
-15.020944,-158.30235
-15.220325,-159.38138
-15.6085,-157.43553
-15.362033,-156.73184
-15.129919,-153.92908
-14.858625,-155.46492
-15.268678,-156.61511
-15.623887,-161.44989
-15.443604,-159.48569
-14.364691,-157.95729
-14.826935,-156.07751
-15.331953,-158.26279
-14.768518,-157.94572
-14.878172,-157.50774
-15.1987,-157.38995
-15.063707,-158.64133
-15.113163,-155.28659
-14.989317,-156.2469
-14.895288,-159.8347
-15.142578,-154.14099
-14.968179,-158.31757
-14.946031,-157.59081
-15.195529,-156.42772
-14.792171,-159.93973
-15.378572,-159.76938
-15.175818,-158.86754
-14.787461,-159.75334
-15.447947,-157.55067
-14.692095,-158.98701
-15.430724,-159.34662
-14.857503,-160.98413
-15.330259,-156.37201
-15.21566,-160.96519
-15.293049,-157.69911
-15.543783,-159.73094
-14.83927,-154.2843
-15.26911,-160.75154
-15.122913,-157.15704
-14.881363,-155.66057
-15.632813,-154.3743
-14.981112,-158.07582
-15.068046,-161.7088
-14.786532,-158.69759
-14.720959,-158.92397
-15.180186,-152.96828
-14.762538,-158.3284
-15.712082,-159.30843
-14.895141,-154.99164
-14.864846,-160.34201
-14.667311,-157.29225
-14.641844,-157.88962
-15.082623,-156.94321
-14.854718,-159.57343
-14.848334,-160.5199
-15.274675,-154.20702
-15.24929,-156.85046
-14.940314,-159.67587
-15.337947,-161.78239
-15.007731,-158.79852
-15.359208,-158.18156
-15.313531,-155.08894
-14.949977,-155.83553
-15.566869,-157.14989
-14.939255,-153.99548
-14.95898,-155.99564
-15.224869,-157.38008
-15.26715,-156.45903
-15.274693,-159.30356
-15.145358,-158.60321
-15.439308,-157.41763
-15.011045,-155.27461
-15.347334,-160.00752
-15.110138,-159.8663
-15.209756,-156.05672
-15.456183,-157.46339
-15.140892,-163.30635
-15.422044,-158.54836
-14.916619,-154.2749
-14.573625,-161.35576
-15.055121,-160.64828
-15.383418,-158.17432
-14.882867,-152.72493
-14.97269,-158.33563
-14.946648,-160.45889
-14.696045,-159.54689
-15.272402,-159.03154
-15.06045,-158.1571
-14.734,-160.24054
-15.185958,-160.64482
-15.239504,-158.16806
-15.197639,-157.47446
-15.177115,-156.92401
-14.483144,-159.19669
-15.125124,-156.63832
-14.826471,-159.96027
-15.195685,-159.28311
-15.320623,-160.36626
-15.198542,-158.8156
-15.428587,-160.11659
-15.20614,-156.41351
-15.404919,-157.36786
-14.888455,-158.5334
-15.233237,-160.00813
-15.187335,-157.03935
-15.633837,-155.91327
-15.053833,-155.99492
-14.921464,-156.66159
-15.033566,-156.62541
-15.395044,-157.51714
-15.155452,-160.03191
-14.741199,-157.88261
-15.062728,-157.47035
-14.720361,-158.4399
-14.784964,-157.56612
-14.621926,-157.29218
-15.288472,-153.81142
-15.074515,-156.16629
-15.325033,-160.9789
-15.021451,-156.3974
-15.133027,-156.19907
-14.987155,-156.45081
-15.643908,-158.3331
-15.226953,-158.66335
-14.950242,-153.06505
-15.605037,-153.84467
-15.258136,-159.54427
-15.465343,-159.02809
-15.152947,-156.15181
-14.793114,-156.44238
-14.797519,-156.74092
-14.823638,-155.39557
-15.339036,-157.70256
-14.938722,-158.29901
-15.03807,-156.39714
-14.77855,-156.03407
-14.747197,-156.29199
-15.206606,-157.80119
-15.359375,-158.95718
-15.24114,-156.33226
-14.942975,-160.87146
-15.446803,-160.82771
-15.38683,-154.19452
-15.382644,-157.03204
-15.202953,-156.88503
-14.973476,-158.28453
-14.933546,-157.32504
-14.809972,-157.52419
-15.471049,-157.84416
-15.020199,-156.5563
-15.132438,-156.81398
-15.071418,-155.23686
-14.865515,-158.92973
-15.208544,-158.09802
-15.076928,-160.58757
-14.95922,-158.4207
-15.038875,-158.04176
-15.245678,-156.63808
-15.084722,-158.1362
-15.173645,-157.23891
-15.451903,-157.44629
-15.504209,-159.19464
-14.762763,-155.84798
-15.094669,-156.52126
-14.878852,-156.50331
-15.005894,-159.37344
-15.296155,-160.09158
-15.213637,-159.86121
-15.188486,-157.54268
-14.922158,-156.62263
-14.935646,-157.87404
-15.170503,-156.22606
-14.968873,-155.99205
-15.204916,-157.2285
-14.982719,-157.98238
-15.002446,-156.31992
-15.165525,-157.3934
-14.851412,-157.93074
-15.229588,-158.63689
-14.863188,-159.99692
-15.243416,-157.53552
-15.223804,-158.10503
-14.978262,-160.20135
-14.789776,-159.06021
-15.130069,-155.30089
-14.935222,-158.105
-15.293516,-157.00725
-15.074222,-156.0619
-15.146041,-158.70152
-15.158242,-157.76768
-14.924924,-155.49513
-14.970452,-157.81184
-14.81102,-157.44565
-15.177876,-160.35939
-14.965668,-154.94824
-15.125199,-158.81413
-14.992303,-160.02449
-14.829982,-158.55632
-14.782578,-159.03398
-14.890651,-156.25507
-15.25515,-157.07224
-15.038012,-155.67915
-14.757581,-157.33496
-15.005764,-155.9825
-14.763249,-157.03697
-14.902221,-158.94453
-15.170921,-158.73586
-14.984619,-156.34468
-15.014289,-156.34749
-15.073725,-157.18976
-15.353209,-158.74217
-15.218802,-156.31862
-14.754778,-157.08757
-14.73292,-158.10397
-15.166298,-157.67548
-15.240334,-157.93216
-15.23935,-157.51057
-14.714316,-158.3851
-15.428329,-156.06708
-15.006093,-156.46996
-15.027227,-154.82227
-15.09617,-160.44684
-15.149046,-157.82085
-15.205912,-156.71584
-14.841213,-156.88882
-15.224091,-157.74849
-14.87763,-158.24734
-15.326838,-159.49487
-14.852024,-156.8101
-15.497875,-156.25845
-14.668183,-160.16805
-15.102774,-159.07492
-15.009961,-159.08527
-15.343699,-157.22699
-15.014874,-157.77849
-15.182849,-157.87904
-14.928696,-157.45988
-15.251467,-157.50706
-15.353743,-157.38411
-15.063385,-156.95439
-15.157464,-157.26588
-15.384768,-157.21231
-14.850951,-158.69328
-15.023722,-156.67789
-15.11087,-158.41324
-15.024738,-157.3822
-15.339606,-156.62582
-15.303859,-157.52435
-15.101083,-157.31458
-14.984224,-156.97823
-15.308914,-159.83589
-15.214346,-159.28732
-15.106236,-158.98022
-15.203319,-158.1602
-15.120998,-157.97571
-14.97457,-158.67143
-14.981053,-155.90413
-15.235139,-158.38048
-14.74826,-160.06528
-14.901988,-158.37212
-14.9768,-156.93422
-15.357478,-157.15494
-14.501616,-157.33807
-15.140635,-155.43724
-14.696429,-157.2653
-15.281622,-158.51323
-15.2546,-159.32756
-15.038713,-158.53481
-15.188817,-155.90746
-15.104233,-157.80942
-14.83433,-158.73827
-15.018913,-160.95015
-14.963552,-158.1938
-14.91038,-158.51749
-15.038646,-158.06546
-15.012106,-156.73222
-15.070071,-159.27061
-15.306806,-158.0681
-14.629742,-157.94397
-15.093567,-157.37309
-15.073859,-156.24034
-14.93339,-156.66917
-14.98517,-159.65254
-14.91177,-160.32358
-15.103796,-158.07077
-14.886426,-157.20905
-15.334912,-157.39301
-15.059759,-157.62254
-15.210239,-158.1478
-15.331416,-157.17871
-14.967848,-158.45238
-15.097869,-156.72397
-15.130084,-158.57579
-14.938723,-157.77336
-15.061024,-157.46461
-15.045541,-156.73773
-15.04468,-158.63248
-15.093882,-156.49374
-15.326266,-155.88133
-14.99964,-156.7881
-15.087588,-157.92715
-15.031049,-158.11183
-14.959164,-156.57018
-14.827343,-159.07462
-14.805611,-155.5276
-15.270786,-157.40823
-15.216271,-156.90031
-15.229391,-156.73508
-15.012132,-158.80803
-15.019114,-158.43823
-15.291816,-159.53435
-15.056933,-158.39566
-14.998395,-157.73056
-15.074339,-156.92378
-15.017521,-157.51855
-14.998349,-156.71709
-14.879579,-157.26851
-14.88243,-159.29518
-14.95825,-158.38132
-15.167401,-157.65416
-15.114038,-157.38586
-14.945883,-158.31583
-15.073362,-158.45085
-14.974807,-157.78865
-14.706639,-158.20201
-14.95431,-158.70477
-15.328172,-156.88026
-14.888488,-155.5437
-15.17213,-157.5985
-14.896173,-157.89694
-14.906787,-157.13478
-15.254285,-158.56947
-14.789615,-158.0173
-15.072019,-156.92705
-15.039265,-157.70052
-15.059875,-157.88634
-15.316383,-157.08862
-15.11598,-158.79427
-15.08539,-158.44868
-14.79098,-158.41438
-15.257264,-159.51802
-14.842596,-156.84657
-14.776015,-158.34483
-14.920261,-157.66519
-15.192945,-158.20976
-15.141437,-156.44606
-15.237799,-157.14777
-15.12,-157.96393
-15.246635,-157.53575
-15.18503,-157.22568
-15.267706,-158.22249
-14.822628,-156.87396
-15.113604,-156.64264
-15.11565,-157.89795
-15.284518,-157.9353
-15.151111,-158.46194
-15.226415,-157.8645
-15.04642,-159.47049
-14.840598,-157.52332
-15.009156,-156.77379
-15.051524,-158.75983
-15.089712,-157.33484
-14.856138,-157.19678
-15.26202,-156.81181
-15.284665,-157.19533
-15.106634,-158.29982
-15.074469,-156.14853
-15.070608,-157.19542
-15.046556,-159.59537
-14.931149,-157.7599
-14.997931,-156.31448
-15.21364,-157.74319
-14.943165,-157.64977
-14.976637,-157.93892
-14.850211,-157.8799
-14.963063,-157.12669
-15.22813,-156.69997
-14.841453,-156.9174
-15.14449,-157.77695
-15.348351,-158.77646
-14.838703,-157.83197
-15.080699,-157.40819
-14.782602,-156.64981
-15.002201,-155.64989
-15.214468,-158.19102
-14.839578,-157.68338
-15.091312,-158.56981
-15.052488,-157.11525
-15.067105,-156.7034
-14.921361,-159.09933
-14.948579,-157.9791
-15.085822,-157.51588
-15.070771,-158.2393
-15.14685,-158.37712
-15.025434,-158.41995
-15.04019,-156.97144
-14.93576,-157.14917
-15.001828,-157.9229
-14.984388,-158.39238
-15.129733,-157.89406
-15.169691,-157.54814
-14.895152,-158.2838
-14.99977,-156.92897
-15.309168,-156.87401
-15.020039,-156.19978
-14.9819,-157.87732
-14.999756,-156.67674
-15.089583,-158.33414
-15.032062,-158.01215
-15.070683,-158.16924
-15.198394,-156.59842
-15.30842,-157.1198
-15.107903,-158.32227
-15.137812,-157.15985
-15.072227,-158.29495
-15.211975,-157.48347
-15.321396,-157.685
-14.876347,-157.1256
-14.96665,-156.61104
-15.228822,-158.01457
-15.185138,-158.14606
-15.041131,-157.36143
-15.301204,-159.20964
-15.230521,-157.7364
-15.076145,-159.18465
-15.012472,-157.55858
-15.03167,-158.46628
-14.948212,-156.87137
-15.013806,-158.67715
-14.955124,-156.7897
-15.025038,-156.21843
-15.168659,-157.75475
-14.983562,-157.37526
-15.241646,-157.68233
-15.121434,-156.50252
-14.865584,-157.20284
-14.872944,-157.59689
-15.230841,-157.62561
-15.049207,-157.26511
-15.012786,-156.27081
-15.214541,-156.5661
-14.978846,-156.69043
-14.96077,-156.41145
-14.981084,-157.93697
-15.0084,-155.42137
-14.832905,-156.50569
-14.904205,-157.87444
-15.076957,-157.85152
-15.35559,-157.27783
-15.203674,-157.70705
-15.064279,-158.05219
-15.159172,-157.15993
-15.240419,-157.43073
-15.220444,-158.53647
-15.097664,-157.81639
-15.120882,-157.73012
-15.043732,-158.74321
-14.859049,-157.35373
-15.141011,-158.16374
-15.037578,-157.75983
-15.107074,-157.96979
-14.977284,-158.75725
-14.990507,-156.97266
-15.122194,-158.70891
-15.172992,-157.88393
-14.93267,-157.71672
-15.091661,-157.63034
-15.180358,-158.94826
-15.294133,-158.00034
-15.086545,-157.01456
-15.207405,-158.74889
-15.018775,-156.96707
-15.019354,-157.97849
-15.113652,-158.45656
-15.039758,-157.50366
-14.974732,-158.4174
-15.102963,-157.3205
-15.101514,-157.01881
-15.048376,-158.45268
-15.010469,-158.53769
-15.329869,-157.19487
-15.20304,-157.68932
-14.999049,-158.45061
-14.974652,-156.78647
-14.9679,-158.64928
-15.105832,-157.67287
-14.987379,-158.0423
-14.984109,-156.83759
-15.057398,-158.3051
-14.972056,-158.3692
-15.141755,-157.77524
-15.122497,-158.16289
-15.182213,-158.18988
-15.041587,-157.16766
-15.143686,-157.66037
-14.900926,-157.68974
-15.028135,-157.93193
-15.081522,-157.06981
-15.337667,-157.32283
-14.872824,-158.80408
-15.082411,-156.75526
-14.99751,-157.77888
-14.994215,-158.33501
-14.846075,-157.18272
-15.063842,-158.25137
-15.04245,-157.56071
-15.003691,-157.74139
-15.104515,-157.22815
-14.967498,-157.66386
-14.982752,-157.68604
-15.118599,-158.53661
-15.208172,-157.80846
-15.005929,-157.06731
-15.053239,-158.1546
-14.921115,-156.98407
-14.983612,-157.95053
-15.135238,-157.56381
-15.090569,-158.71489
-15.021129,-157.78462
-15.133811,-156.33224
-14.981589,-157.9823
-15.036499,-158.73778
-14.946012,-157.55367
-15.105189,-157.01411
-15.084989,-157.93286
-15.031454,-158.83495
-15.110037,-157.01189
