CITIFILE A.01.01
!Agilent Technologies,N5230C,MY48100142,A.08.04.10
!Agilent N5230C: A.08.04.10
!Format: LogMag/Angle
!Date: Monday, September 07, 2020 16:54:53
NAME CH1_DATA
VAR Power MAG 801
DATA S11 DBANGLE
DATA S21 DBANGLE
DATA S12 DBANGLE
DATA S22 DBANGLE
VAR_LIST_BEGIN
-40
-39.975
-39.95
-39.925
-39.9
-39.875
-39.85
-39.825
-39.8
-39.775
-39.75
-39.725
-39.7
-39.675
-39.65
-39.625
-39.6
-39.575
-39.55
-39.525
-39.5
-39.475
-39.45
-39.425
-39.4
-39.375
-39.35
-39.325
-39.3
-39.275
-39.25
-39.225
-39.2
-39.175
-39.15
-39.125
-39.1
-39.075
-39.05
-39.025
-39
-38.975
-38.95
-38.925
-38.9
-38.875
-38.85
-38.825
-38.8
-38.775
-38.75
-38.725
-38.7
-38.675
-38.65
-38.625
-38.6
-38.575
-38.55
-38.525
-38.5
-38.475
-38.45
-38.425
-38.4
-38.375
-38.35
-38.325
-38.3
-38.275
-38.25
-38.225
-38.2
-38.175
-38.15
-38.125
-38.1
-38.075
-38.05
-38.025
-38
-37.975
-37.95
-37.925
-37.9
-37.875
-37.85
-37.825
-37.8
-37.775
-37.75
-37.725
-37.7
-37.675
-37.65
-37.625
-37.6
-37.575
-37.55
-37.525
-37.5
-37.475
-37.45
-37.425
-37.4
-37.375
-37.35
-37.325
-37.3
-37.275
-37.25
-37.225
-37.2
-37.175
-37.15
-37.125
-37.1
-37.075
-37.05
-37.025
-37
-36.975
-36.95
-36.925
-36.9
-36.875
-36.85
-36.825
-36.8
-36.775
-36.75
-36.725
-36.7
-36.675
-36.65
-36.625
-36.6
-36.575
-36.55
-36.525
-36.5
-36.475
-36.45
-36.425
-36.4
-36.375
-36.35
-36.325
-36.3
-36.275
-36.25
-36.225
-36.2
-36.175
-36.15
-36.125
-36.1
-36.075
-36.05
-36.025
-36
-35.975
-35.95
-35.925
-35.9
-35.875
-35.85
-35.825
-35.8
-35.775
-35.75
-35.725
-35.7
-35.675
-35.65
-35.625
-35.6
-35.575
-35.55
-35.525
-35.5
-35.475
-35.45
-35.425
-35.4
-35.375
-35.35
-35.325
-35.3
-35.275
-35.25
-35.225
-35.2
-35.175
-35.15
-35.125
-35.1
-35.075
-35.05
-35.025
-35
-34.975
-34.95
-34.925
-34.9
-34.875
-34.85
-34.825
-34.8
-34.775
-34.75
-34.725
-34.7
-34.675
-34.65
-34.625
-34.6
-34.575
-34.55
-34.525
-34.5
-34.475
-34.45
-34.425
-34.4
-34.375
-34.35
-34.325
-34.3
-34.275
-34.25
-34.225
-34.2
-34.175
-34.15
-34.125
-34.1
-34.075
-34.05
-34.025
-34
-33.975
-33.95
-33.925
-33.9
-33.875
-33.85
-33.825
-33.8
-33.775
-33.75
-33.725
-33.7
-33.675
-33.65
-33.625
-33.6
-33.575
-33.55
-33.525
-33.5
-33.475
-33.45
-33.425
-33.4
-33.375
-33.35
-33.325
-33.3
-33.275
-33.25
-33.225
-33.2
-33.175
-33.15
-33.125
-33.1
-33.075
-33.05
-33.025
-33
-32.975
-32.95
-32.925
-32.9
-32.875
-32.85
-32.825
-32.8
-32.775
-32.75
-32.725
-32.7
-32.675
-32.65
-32.625
-32.6
-32.575
-32.55
-32.525
-32.5
-32.475
-32.45
-32.425
-32.4
-32.375
-32.35
-32.325
-32.3
-32.275
-32.25
-32.225
-32.2
-32.175
-32.15
-32.125
-32.1
-32.075
-32.05
-32.025
-32
-31.975
-31.95
-31.925
-31.9
-31.875
-31.85
-31.825
-31.8
-31.775
-31.75
-31.725
-31.7
-31.675
-31.65
-31.625
-31.6
-31.575
-31.55
-31.525
-31.5
-31.475
-31.45
-31.425
-31.4
-31.375
-31.35
-31.325
-31.3
-31.275
-31.25
-31.225
-31.2
-31.175
-31.15
-31.125
-31.1
-31.075
-31.05
-31.025
-31
-30.975
-30.95
-30.925
-30.9
-30.875
-30.85
-30.825
-30.8
-30.775
-30.75
-30.725
-30.7
-30.675
-30.65
-30.625
-30.6
-30.575
-30.55
-30.525
-30.5
-30.475
-30.45
-30.425
-30.4
-30.375
-30.35
-30.325
-30.3
-30.275
-30.25
-30.225
-30.2
-30.175
-30.15
-30.125
-30.1
-30.075
-30.05
-30.025
-30
-29.975
-29.95
-29.925
-29.9
-29.875
-29.85
-29.825
-29.8
-29.775
-29.75
-29.725
-29.7
-29.675
-29.65
-29.625
-29.6
-29.575
-29.55
-29.525
-29.5
-29.475
-29.45
-29.425
-29.4
-29.375
-29.35
-29.325
-29.3
-29.275
-29.25
-29.225
-29.2
-29.175
-29.15
-29.125
-29.1
-29.075
-29.05
-29.025
-29
-28.975
-28.95
-28.925
-28.9
-28.875
-28.85
-28.825
-28.8
-28.775
-28.75
-28.725
-28.7
-28.675
-28.65
-28.625
-28.6
-28.575
-28.55
-28.525
-28.5
-28.475
-28.45
-28.425
-28.4
-28.375
-28.35
-28.325
-28.3
-28.275
-28.25
-28.225
-28.2
-28.175
-28.15
-28.125
-28.1
-28.075
-28.05
-28.025
-28
-27.975
-27.95
-27.925
-27.9
-27.875
-27.85
-27.825
-27.8
-27.775
-27.75
-27.725
-27.7
-27.675
-27.65
-27.625
-27.6
-27.575
-27.55
-27.525
-27.5
-27.475
-27.45
-27.425
-27.4
-27.375
-27.35
-27.325
-27.3
-27.275
-27.25
-27.225
-27.2
-27.175
-27.15
-27.125
-27.1
-27.075
-27.05
-27.025
-27
-26.975
-26.95
-26.925
-26.9
-26.875
-26.85
-26.825
-26.8
-26.775
-26.75
-26.725
-26.7
-26.675
-26.65
-26.625
-26.6
-26.575
-26.55
-26.525
-26.5
-26.475
-26.45
-26.425
-26.4
-26.375
-26.35
-26.325
-26.3
-26.275
-26.25
-26.225
-26.2
-26.175
-26.15
-26.125
-26.1
-26.075
-26.05
-26.025
-26
-25.975
-25.95
-25.925
-25.9
-25.875
-25.85
-25.825
-25.8
-25.775
-25.75
-25.725
-25.7
-25.675
-25.65
-25.625
-25.6
-25.575
-25.55
-25.525
-25.5
-25.475
-25.45
-25.425
-25.4
-25.375
-25.35
-25.325
-25.3
-25.275
-25.25
-25.225
-25.2
-25.175
-25.15
-25.125
-25.1
-25.075
-25.05
-25.025
-25
-24.975
-24.95
-24.925
-24.9
-24.875
-24.85
-24.825
-24.8
-24.775
-24.75
-24.725
-24.7
-24.675
-24.65
-24.625
-24.6
-24.575
-24.55
-24.525
-24.5
-24.475
-24.45
-24.425
-24.4
-24.375
-24.35
-24.325
-24.3
-24.275
-24.25
-24.225
-24.2
-24.175
-24.15
-24.125
-24.1
-24.075
-24.05
-24.025
-24
-23.975
-23.95
-23.925
-23.9
-23.875
-23.85
-23.825
-23.8
-23.775
-23.75
-23.725
-23.7
-23.675
-23.65
-23.625
-23.6
-23.575
-23.55
-23.525
-23.5
-23.475
-23.45
-23.425
-23.4
-23.375
-23.35
-23.325
-23.3
-23.275
-23.25
-23.225
-23.2
-23.175
-23.15
-23.125
-23.1
-23.075
-23.05
-23.025
-23
-22.975
-22.95
-22.925
-22.9
-22.875
-22.85
-22.825
-22.8
-22.775
-22.75
-22.725
-22.7
-22.675
-22.65
-22.625
-22.6
-22.575
-22.55
-22.525
-22.5
-22.475
-22.45
-22.425
-22.4
-22.375
-22.35
-22.325
-22.3
-22.275
-22.25
-22.225
-22.2
-22.175
-22.15
-22.125
-22.1
-22.075
-22.05
-22.025
-22
-21.975
-21.95
-21.925
-21.9
-21.875
-21.85
-21.825
-21.8
-21.775
-21.75
-21.725
-21.7
-21.675
-21.65
-21.625
-21.6
-21.575
-21.55
-21.525
-21.5
-21.475
-21.45
-21.425
-21.4
-21.375
-21.35
-21.325
-21.3
-21.275
-21.25
-21.225
-21.2
-21.175
-21.15
-21.125
-21.1
-21.075
-21.05
-21.025
-21
-20.975
-20.95
-20.925
-20.9
-20.875
-20.85
-20.825
-20.8
-20.775
-20.75
-20.725
-20.7
-20.675
-20.65
-20.625
-20.6
-20.575
-20.55
-20.525
-20.5
-20.475
-20.45
-20.425
-20.4
-20.375
-20.35
-20.325
-20.3
-20.275
-20.25
-20.225
-20.2
-20.175
-20.15
-20.125
-20.1
-20.075
-20.05
-20.025
-20
VAR_LIST_END
BEGIN
-15.763841,-153.87779
-15.446263,-155.29382
-15.446364,-157.37054
-14.864486,-160.80687
-13.807513,-158.5034
-14.611832,-155.04828
-14.290601,-165.82024
-15.301472,-157.92464
-14.137873,-149.88712
-14.751487,-152.35213
-16.238155,-162.28978
-13.78842,-159.42355
-14.891341,-146.30295
-14.046212,-155.25723
-14.623154,-154.16031
-14.223008,-161.58525
-15.825663,-153.06662
-14.688685,-157.37965
-14.742603,-151.96643
-15.864919,-159.41602
-16.575432,-153.49197
-15.362055,-160.47575
-14.33707,-157.11568
-15.494392,-152.81998
-15.591672,-160.5661
-15.762646,-160.8681
-14.699893,-160.78572
-15.064734,-153.01746
-14.139168,-154.73674
-13.967105,-155.13074
-15.469543,-161.69598
-14.775171,-153.79407
-15.53129,-165.70274
-16.22205,-167.32866
-14.629537,-155.39482
-14.491959,-150.9648
-15.288895,-157.23206
-14.728273,-163.14859
-14.851348,-154.52692
-14.764935,-158.40883
-15.104018,-158.70013
-14.95066,-150.20158
-15.737118,-161.08806
-15.291985,-159.69925
-15.617384,-160.68864
-14.099718,-155.12091
-14.611155,-161.98183
-14.063329,-153.15128
-14.724786,-156.51393
-15.569625,-162.55515
-15.226858,-149.74396
-14.647586,-161.4622
-15.212343,-152.92216
-14.681901,-153.5379
-14.83272,-153.93584
-16.391642,-162.89827
-14.269933,-153.55237
-15.137271,-162.52477
-14.331244,-157.99513
-15.414682,-155.70114
-14.32058,-165.75743
-15.769083,-155.55043
-15.414847,-155.15215
-14.755033,-145.69981
-15.573881,-161.63013
-15.091636,-159.26994
-16.084711,-150.17484
-14.76206,-153.14294
-15.730582,-147.44885
-14.544952,-157.19521
-14.909098,-157.92035
-13.671056,-163.65375
-15.840888,-154.32901
-15.089127,-157.26251
-14.884995,-157.10023
-14.481231,-159.7887
-14.596529,-165.36781
-15.568386,-159.27646
-16.154768,-158.49568
-15.766408,-164.4521
-14.788294,-158.81502
-16.173834,-157.53877
-15.467327,-158.76547
-13.606825,-158.56142
-15.890111,-157.56813
-14.652032,-156.35242
-15.376695,-159.478
-14.593464,-150.41895
-14.570103,-159.04417
-14.29926,-151.90053
-16.039888,-158.26434
-16.636948,-148.2578
-14.156178,-155.09721
-14.517038,-158.79913
-15.594338,-152.34207
-15.002221,-154.99875
-14.751015,-152.36523
-14.941605,-163.41718
-14.300639,-154.73859
-14.852384,-156.44469
-14.277057,-157.24176
-14.915545,-157.5376
-14.385349,-153.99274
-15.321016,-155.31152
-14.870256,-156.67453
-15.046126,-154.4599
-15.783389,-155.0351
-13.776673,-163.27403
-15.583996,-151.75418
-15.71185,-159.57849
-14.746689,-153.09926
-15.644173,-156.93996
-14.341159,-155.11708
-15.348694,-156.65216
-15.873013,-163.91858
-15.543079,-160.98929
-15.397079,-162.94099
-15.382712,-154.84488
-16.542667,-159.75572
-13.631599,-155.45811
-15.255211,-155.90173
-15.454993,-159.24681
-15.024975,-157.71393
-15.877047,-159.48064
-14.713655,-156.49707
-14.939602,-155.1032
-15.105731,-157.08994
-14.948584,-157.30394
-14.177841,-161.96716
-14.713597,-158.49883
-14.353523,-157.28879
-15.116838,-155.40344
-15.220492,-153.21329
-15.620569,-153.6841
-14.8936,-152.55879
-15.421042,-152.27757
-14.458207,-154.85281
-15.036144,-156.85561
-14.563545,-154.95686
-15.017776,-162.36191
-15.383527,-161.94058
-15.344281,-158.87119
-15.449236,-158.82051
-15.114687,-157.17528
-15.219452,-147.993
-14.985449,-155.0726
-15.490666,-161.86301
-14.448128,-154.9409
-14.371567,-150.28329
-14.700401,-152.57248
-15.066247,-159.63962
-15.381088,-154.52954
-14.997746,-159.36064
-15.190671,-157.19395
-14.871262,-159.18115
-16.078613,-156.51495
-15.410895,-163.27954
-13.904222,-159.98058
-15.676023,-156.07178
-15.240353,-157.75313
-15.250831,-153.16513
-15.553731,-161.12726
-15.994307,-152.35794
-15.673523,-153.69688
-15.213786,-157.70508
-15.262589,-165.47023
-14.894552,-154.52356
-14.715034,-159.29601
-15.094932,-159.04964
-14.414522,-158.45799
-15.609227,-153.19164
-15.105719,-159.9527
-14.336562,-160.62648
-15.93528,-157.14929
-14.664758,-160.20853
-14.535296,-154.91106
-14.951833,-152.22424
-14.088813,-162.4178
-14.788935,-164.70779
-15.16359,-154.76472
-15.384321,-154.04919
-15.043574,-159.81606
-15.657895,-158.84888
-15.000861,-156.91321
-15.710212,-158.72556
-15.256503,-154.62396
-14.807228,-156.23106
-14.792557,-162.12787
-14.836766,-161.65057
-15.91051,-157.14227
-15.822,-161.48463
-15.688071,-161.46956
-14.96311,-156.39169
-14.403857,-154.70552
-14.534299,-157.8078
-16.614103,-159.92563
-15.165078,-161.22897
-15.22412,-158.72758
-15.962229,-155.02409
-15.030456,-161.75438
-14.556177,-154.80836
-15.328971,-157.81401
-15.170997,-158.86646
-15.269238,-156.95346
-15.592629,-156.15607
-13.984335,-157.19247
-15.672249,-161.39304
-14.779431,-160.03496
-15.475013,-161.13655
-15.316062,-151.35187
-15.310238,-156.46483
-15.01838,-154.59631
-14.832621,-159.68527
-15.382474,-160.907
-14.93201,-154.94368
-15.25377,-153.79944
-16.199482,-160.66998
-14.719311,-162.21419
-15.180178,-161.09181
-14.649699,-157.24574
-14.93584,-160.67448
-14.931061,-156.63181
-14.964489,-150.61609
-15.680305,-154.4561
-14.544968,-155.4335
-15.136778,-154.56207
-14.696638,-161.75012
-14.271593,-159.63821
-15.661755,-160.77843
-14.916301,-157.10391
-15.205975,-151.87732
-15.06871,-158.11308
-14.882498,-157.72327
-14.863804,-158.7984
-14.357962,-154.29515
-15.432446,-157.8792
-14.974957,-161.56047
-15.46784,-159.18788
-15.591856,-159.44952
-14.46481,-160.02995
-15.63699,-164.59113
-15.179421,-153.37677
-15.091816,-159.10567
-15.321886,-159.45296
-15.827515,-159.06868
-14.849798,-158.0085
-14.702278,-154.46693
-14.549444,-158.1741
-14.994702,-151.5833
-15.270476,-157.70161
-14.915373,-157.11061
-14.970646,-156.01537
-15.092505,-153.07513
-14.758194,-158.371
-14.565094,-155.91702
-15.094236,-157.40215
-15.580371,-159.09863
-14.14417,-157.90009
-14.447725,-165.2545
-15.29255,-156.88184
-14.864992,-160.1499
-14.570563,-160.97023
-15.371511,-156.98761
-15.232846,-158.1028
-14.95728,-161.5363
-15.627917,-163.80762
-15.124684,-157.87328
-15.358279,-160.0383
-14.498454,-159.01144
-15.017583,-157.41457
-15.257458,-156.01161
-15.401451,-155.13536
-15.286912,-157.74016
-15.666573,-155.90277
-14.484456,-160.88138
-14.791348,-161.79993
-14.57954,-159.12872
-14.204041,-158.04401
-15.321121,-157.52979
-14.773985,-157.05476
-14.974165,-157.86768
-15.31773,-153.20953
-14.976998,-158.31464
-14.847608,-151.75496
-15.004215,-158.73698
-15.336883,-160.82909
-15.153703,-154.40961
-15.485179,-153.93741
-15.106077,-155.75592
-15.015067,-155.4321
-15.343198,-159.08023
-15.192248,-157.64105
-14.512671,-158.07817
-14.641009,-158.92683
-14.763362,-156.00807
-15.153407,-155.30875
-14.12296,-158.56203
-15.00614,-157.07393
-14.79858,-158.76872
-15.486039,-164.088
-14.804499,-156.4371
-15.149079,-158.2121
-14.66649,-159.70148
-15.125997,-161.60817
-15.438647,-156.49063
-14.959622,-161.38277
-14.932583,-151.6657
-15.664606,-156.16223
-16.019974,-155.2709
-15.305212,-158.59001
-15.06069,-158.18138
-14.96272,-156.97536
-14.995876,-158.7462
-15.107191,-160.25731
-15.223676,-153.68869
-14.795773,-158.14156
-15.501356,-159.72964
-15.442307,-157.11397
-15.234386,-159.15822
-14.919148,-155.41965
-14.725371,-155.10371
-15.178875,-157.60793
-15.287995,-161.87317
-14.742179,-160.03529
-15.682193,-153.22784
-14.732455,-155.17015
-14.876493,-155.79709
-15.389528,-156.93864
-14.527945,-156.3297
-15.127748,-157.52443
-15.047486,-154.19516
-14.960908,-153.47977
-14.70028,-161.04094
-15.090919,-156.38956
-14.709893,-158.18854
-14.767384,-158.53574
-14.815505,-151.8311
-15.157725,-153.86113
-14.824409,-154.22194
-15.445622,-157.48596
-14.64288,-158.52986
-14.789271,-158.19258
-15.152837,-157.03041
-14.755945,-159.00357
-15.407214,-156.36732
-15.264538,-159.24879
-14.739683,-157.25238
-15.413392,-160.03699
-14.937178,-153.93614
-15.714465,-156.56944
-14.631474,-157.4774
-15.447312,-152.03172
-14.819396,-156.6586
-15.018938,-158.88684
-15.323853,-159.52646
-14.721236,-155.32108
-15.391817,-161.32367
-15.006432,-157.96016
-15.007228,-157.62447
-14.569035,-156.85664
-15.279133,-153.85194
-15.220718,-155.28601
-15.612842,-159.28871
-14.916177,-156.89403
-14.948602,-158.08568
-15.035349,-158.84816
-15.16111,-156.32913
-14.98358,-154.38916
-15.151855,-154.98233
-14.88413,-155.52557
-14.778607,-159.12251
-14.8826,-158.1288
-15.086171,-159.40076
-14.802466,-155.40967
-14.72171,-158.34442
-14.980058,-156.15598
-15.067744,-156.53716
-15.237774,-158.27045
-15.376633,-158.35023
-14.239545,-155.17313
-14.825624,-161.28285
-16.036039,-156.26817
-14.400331,-158.70158
-14.561308,-157.16771
-15.464448,-156.29585
-15.297641,-160.27469
-15.735572,-156.42238
-14.73713,-155.00284
-15.139873,-154.73506
-14.929374,-157.37614
-15.203176,-159.32207
-15.156766,-160.63336
-15.245883,-159.05426
-15.08707,-157.57173
-15.391864,-160.61188
-14.733893,-159.84499
-15.103004,-158.21063
-15.368461,-155.17191
-14.964212,-155.37567
-15.160448,-156.11685
-15.035663,-160.42656
-15.06756,-155.60211
-15.164503,-157.53033
-14.674099,-156.30049
-14.668633,-156.1123
-14.804465,-157.53609
-14.924037,-155.39429
-15.25327,-159.38765
-15.180531,-157.84641
-15.049976,-158.82793
-14.694193,-155.95367
-15.100197,-158.47391
-15.3537,-154.61993
-14.673034,-158.25839
-15.141781,-160.64949
-15.213624,-156.25871
-14.602861,-158.82634
-15.089903,-158.28195
-14.738034,-155.93512
-15.409048,-158.43217
-15.367158,-157.44188
-15.113019,-155.26289
-15.333585,-159.43202
-15.148416,-156.06564
-14.889742,-155.12808
-15.09688,-159.57317
-15.072306,-157.91673
-15.685034,-156.17174
-14.688491,-157.99742
-14.921766,-156.4308
-15.370086,-156.258
-15.458121,-156.72702
-14.815069,-158.50073
-15.163167,-154.65657
-15.231722,-156.63129
-15.044437,-156.61307
-15.036729,-161.13589
-15.084507,-156.3409
-15.692319,-158.50365
-14.922091,-158.30048
-15.057484,-155.78535
-14.71681,-160.08232
-14.856723,-157.67241
-14.906294,-159.69565
-15.690657,-162.61218
-15.205309,-156.83302
-15.166147,-157.24905
-15.123981,-158.5435
-14.762781,-157.44038
-15.222343,-160.32675
-14.686523,-153.98654
-15.055454,-157.26189
-14.978502,-156.0751
-15.062284,-158.6357
-14.628449,-159.98198
-14.890046,-155.61052
-15.377515,-154.64841
-14.735935,-154.50203
-15.039899,-157.25385
-15.014472,-156.96153
-14.711202,-157.80507
-15.260668,-160.73145
-14.953382,-156.76619
-14.8047,-155.75816
-15.153371,-160.15797
-15.157228,-158.87219
-14.78824,-157.35585
-15.366769,-155.39464
-14.706652,-156.11102
-15.289514,-158.76419
-14.664893,-158.63016
-15.301072,-159.53882
-15.054168,-158.42526
-15.130038,-157.15573
-15.091722,-155.64716
-15.26799,-157.83893
-14.844261,-159.24655
-15.252852,-159.66087
-15.317403,-159.84734
-14.751433,-159.87265
-14.987902,-157.14978
-15.815035,-157.55341
-15.29005,-155.49892
-15.147516,-157.51645
-14.904012,-157.45908
-14.699168,-158.96371
-15.001423,-158.38579
-15.1162,-156.11827
-15.130716,-155.6115
-14.7037,-157.12004
-14.822614,-157.91533
-15.309325,-159.24408
-14.954401,-159.76636
-14.663698,-157.52264
-14.875307,-155.72816
-15.12566,-158.69737
-14.766244,-157.30069
-15.048635,-157.77286
-14.75134,-160.96399
-15.087896,-159.66702
-14.949701,-158.82695
-14.517995,-154.8456
-14.840619,-159.23036
-15.544499,-156.69864
-15.181079,-158.7635
-14.819777,-157.0556
-15.03438,-158.22917
-15.08677,-157.80373
-15.441185,-156.96004
-15.045879,-156.31822
-15.04315,-159.55405
-15.130251,-158.49229
-14.908729,-159.80882
-14.913659,-157.92493
-14.931309,-158.00417
-15.488707,-158.8084
-15.242467,-158.01654
-15.171246,-158.1989
-14.896277,-155.64999
-15.189068,-156.09486
-14.956063,-156.18968
-15.348863,-157.05734
-15.171127,-158.26892
-15.112109,-154.98087
-14.999249,-158.68463
-15.320382,-156.10123
-15.019452,-156.5303
-15.128127,-156.72649
-14.983384,-157.61082
-14.993008,-154.95242
-15.182607,-156.50113
-14.717822,-157.32581
-15.264211,-159.12114
-15.278641,-157.33057
-14.825411,-159.03862
-15.031668,-157.55116
-15.178524,-157.37651
-15.358566,-158.18829
-15.1897,-158.50629
-15.170553,-157.90109
-15.188062,-159.72874
-14.966455,-156.94289
-15.16144,-158.55235
-15.038219,-157.18851
-15.006042,-158.25615
-15.434656,-159.9435
-15.026346,-157.76305
-14.835896,-157.92734
-15.13479,-159.55753
-15.211736,-160.21858
-15.030788,-157.97876
-15.034322,-156.15343
-14.710864,-156.54149
-15.154733,-159.88007
-15.098654,-155.4158
-15.138646,-157.44238
-14.915028,-158.22055
-15.215138,-157.98988
-15.496084,-158.10628
-14.959735,-157.666
-14.916345,-158.85736
-15.01519,-156.94452
-15.247593,-157.94211
-15.114111,-156.98213
-15.108174,-156.79651
-14.999171,-157.52817
-15.511496,-158.92506
-15.099949,-160.96696
-15.198512,-156.46555
-15.067558,-159.05037
-15.219365,-156.78349
-15.308001,-157.27174
-15.045286,-157.58031
-14.864573,-157.69868
-15.043803,-157.01505
-15.05058,-156.89484
-14.983619,-156.05978
