CITIFILE A.01.01
!Agilent Technologies,N5230C,MY48100142,A.08.04.10
!Agilent N5230C: A.08.04.10
!Format: LogMag/Angle
!Date: Friday, July 24, 2020 12:53:12
NAME CH1_DATA
VAR Power MAG 801
DATA S11 DBANGLE
DATA S21 DBANGLE
DATA S12 DBANGLE
DATA S22 DBANGLE
VAR_LIST_BEGIN
-40
-39.975
-39.95
-39.925
-39.9
-39.875
-39.85
-39.825
-39.8
-39.775
-39.75
-39.725
-39.7
-39.675
-39.65
-39.625
-39.6
-39.575
-39.55
-39.525
-39.5
-39.475
-39.45
-39.425
-39.4
-39.375
-39.35
-39.325
-39.3
-39.275
-39.25
-39.225
-39.2
-39.175
-39.15
-39.125
-39.1
-39.075
-39.05
-39.025
-39
-38.975
-38.95
-38.925
-38.9
-38.875
-38.85
-38.825
-38.8
-38.775
-38.75
-38.725
-38.7
-38.675
-38.65
-38.625
-38.6
-38.575
-38.55
-38.525
-38.5
-38.475
-38.45
-38.425
-38.4
-38.375
-38.35
-38.325
-38.3
-38.275
-38.25
-38.225
-38.2
-38.175
-38.15
-38.125
-38.1
-38.075
-38.05
-38.025
-38
-37.975
-37.95
-37.925
-37.9
-37.875
-37.85
-37.825
-37.8
-37.775
-37.75
-37.725
-37.7
-37.675
-37.65
-37.625
-37.6
-37.575
-37.55
-37.525
-37.5
-37.475
-37.45
-37.425
-37.4
-37.375
-37.35
-37.325
-37.3
-37.275
-37.25
-37.225
-37.2
-37.175
-37.15
-37.125
-37.1
-37.075
-37.05
-37.025
-37
-36.975
-36.95
-36.925
-36.9
-36.875
-36.85
-36.825
-36.8
-36.775
-36.75
-36.725
-36.7
-36.675
-36.65
-36.625
-36.6
-36.575
-36.55
-36.525
-36.5
-36.475
-36.45
-36.425
-36.4
-36.375
-36.35
-36.325
-36.3
-36.275
-36.25
-36.225
-36.2
-36.175
-36.15
-36.125
-36.1
-36.075
-36.05
-36.025
-36
-35.975
-35.95
-35.925
-35.9
-35.875
-35.85
-35.825
-35.8
-35.775
-35.75
-35.725
-35.7
-35.675
-35.65
-35.625
-35.6
-35.575
-35.55
-35.525
-35.5
-35.475
-35.45
-35.425
-35.4
-35.375
-35.35
-35.325
-35.3
-35.275
-35.25
-35.225
-35.2
-35.175
-35.15
-35.125
-35.1
-35.075
-35.05
-35.025
-35
-34.975
-34.95
-34.925
-34.9
-34.875
-34.85
-34.825
-34.8
-34.775
-34.75
-34.725
-34.7
-34.675
-34.65
-34.625
-34.6
-34.575
-34.55
-34.525
-34.5
-34.475
-34.45
-34.425
-34.4
-34.375
-34.35
-34.325
-34.3
-34.275
-34.25
-34.225
-34.2
-34.175
-34.15
-34.125
-34.1
-34.075
-34.05
-34.025
-34
-33.975
-33.95
-33.925
-33.9
-33.875
-33.85
-33.825
-33.8
-33.775
-33.75
-33.725
-33.7
-33.675
-33.65
-33.625
-33.6
-33.575
-33.55
-33.525
-33.5
-33.475
-33.45
-33.425
-33.4
-33.375
-33.35
-33.325
-33.3
-33.275
-33.25
-33.225
-33.2
-33.175
-33.15
-33.125
-33.1
-33.075
-33.05
-33.025
-33
-32.975
-32.95
-32.925
-32.9
-32.875
-32.85
-32.825
-32.8
-32.775
-32.75
-32.725
-32.7
-32.675
-32.65
-32.625
-32.6
-32.575
-32.55
-32.525
-32.5
-32.475
-32.45
-32.425
-32.4
-32.375
-32.35
-32.325
-32.3
-32.275
-32.25
-32.225
-32.2
-32.175
-32.15
-32.125
-32.1
-32.075
-32.05
-32.025
-32
-31.975
-31.95
-31.925
-31.9
-31.875
-31.85
-31.825
-31.8
-31.775
-31.75
-31.725
-31.7
-31.675
-31.65
-31.625
-31.6
-31.575
-31.55
-31.525
-31.5
-31.475
-31.45
-31.425
-31.4
-31.375
-31.35
-31.325
-31.3
-31.275
-31.25
-31.225
-31.2
-31.175
-31.15
-31.125
-31.1
-31.075
-31.05
-31.025
-31
-30.975
-30.95
-30.925
-30.9
-30.875
-30.85
-30.825
-30.8
-30.775
-30.75
-30.725
-30.7
-30.675
-30.65
-30.625
-30.6
-30.575
-30.55
-30.525
-30.5
-30.475
-30.45
-30.425
-30.4
-30.375
-30.35
-30.325
-30.3
-30.275
-30.25
-30.225
-30.2
-30.175
-30.15
-30.125
-30.1
-30.075
-30.05
-30.025
-30
-29.975
-29.95
-29.925
-29.9
-29.875
-29.85
-29.825
-29.8
-29.775
-29.75
-29.725
-29.7
-29.675
-29.65
-29.625
-29.6
-29.575
-29.55
-29.525
-29.5
-29.475
-29.45
-29.425
-29.4
-29.375
-29.35
-29.325
-29.3
-29.275
-29.25
-29.225
-29.2
-29.175
-29.15
-29.125
-29.1
-29.075
-29.05
-29.025
-29
-28.975
-28.95
-28.925
-28.9
-28.875
-28.85
-28.825
-28.8
-28.775
-28.75
-28.725
-28.7
-28.675
-28.65
-28.625
-28.6
-28.575
-28.55
-28.525
-28.5
-28.475
-28.45
-28.425
-28.4
-28.375
-28.35
-28.325
-28.3
-28.275
-28.25
-28.225
-28.2
-28.175
-28.15
-28.125
-28.1
-28.075
-28.05
-28.025
-28
-27.975
-27.95
-27.925
-27.9
-27.875
-27.85
-27.825
-27.8
-27.775
-27.75
-27.725
-27.7
-27.675
-27.65
-27.625
-27.6
-27.575
-27.55
-27.525
-27.5
-27.475
-27.45
-27.425
-27.4
-27.375
-27.35
-27.325
-27.3
-27.275
-27.25
-27.225
-27.2
-27.175
-27.15
-27.125
-27.1
-27.075
-27.05
-27.025
-27
-26.975
-26.95
-26.925
-26.9
-26.875
-26.85
-26.825
-26.8
-26.775
-26.75
-26.725
-26.7
-26.675
-26.65
-26.625
-26.6
-26.575
-26.55
-26.525
-26.5
-26.475
-26.45
-26.425
-26.4
-26.375
-26.35
-26.325
-26.3
-26.275
-26.25
-26.225
-26.2
-26.175
-26.15
-26.125
-26.1
-26.075
-26.05
-26.025
-26
-25.975
-25.95
-25.925
-25.9
-25.875
-25.85
-25.825
-25.8
-25.775
-25.75
-25.725
-25.7
-25.675
-25.65
-25.625
-25.6
-25.575
-25.55
-25.525
-25.5
-25.475
-25.45
-25.425
-25.4
-25.375
-25.35
-25.325
-25.3
-25.275
-25.25
-25.225
-25.2
-25.175
-25.15
-25.125
-25.1
-25.075
-25.05
-25.025
-25
-24.975
-24.95
-24.925
-24.9
-24.875
-24.85
-24.825
-24.8
-24.775
-24.75
-24.725
-24.7
-24.675
-24.65
-24.625
-24.6
-24.575
-24.55
-24.525
-24.5
-24.475
-24.45
-24.425
-24.4
-24.375
-24.35
-24.325
-24.3
-24.275
-24.25
-24.225
-24.2
-24.175
-24.15
-24.125
-24.1
-24.075
-24.05
-24.025
-24
-23.975
-23.95
-23.925
-23.9
-23.875
-23.85
-23.825
-23.8
-23.775
-23.75
-23.725
-23.7
-23.675
-23.65
-23.625
-23.6
-23.575
-23.55
-23.525
-23.5
-23.475
-23.45
-23.425
-23.4
-23.375
-23.35
-23.325
-23.3
-23.275
-23.25
-23.225
-23.2
-23.175
-23.15
-23.125
-23.1
-23.075
-23.05
-23.025
-23
-22.975
-22.95
-22.925
-22.9
-22.875
-22.85
-22.825
-22.8
-22.775
-22.75
-22.725
-22.7
-22.675
-22.65
-22.625
-22.6
-22.575
-22.55
-22.525
-22.5
-22.475
-22.45
-22.425
-22.4
-22.375
-22.35
-22.325
-22.3
-22.275
-22.25
-22.225
-22.2
-22.175
-22.15
-22.125
-22.1
-22.075
-22.05
-22.025
-22
-21.975
-21.95
-21.925
-21.9
-21.875
-21.85
-21.825
-21.8
-21.775
-21.75
-21.725
-21.7
-21.675
-21.65
-21.625
-21.6
-21.575
-21.55
-21.525
-21.5
-21.475
-21.45
-21.425
-21.4
-21.375
-21.35
-21.325
-21.3
-21.275
-21.25
-21.225
-21.2
-21.175
-21.15
-21.125
-21.1
-21.075
-21.05
-21.025
-21
-20.975
-20.95
-20.925
-20.9
-20.875
-20.85
-20.825
-20.8
-20.775
-20.75
-20.725
-20.7
-20.675
-20.65
-20.625
-20.6
-20.575
-20.55
-20.525
-20.5
-20.475
-20.45
-20.425
-20.4
-20.375
-20.35
-20.325
-20.3
-20.275
-20.25
-20.225
-20.2
-20.175
-20.15
-20.125
-20.1
-20.075
-20.05
-20.025
-20
VAR_LIST_END
BEGIN
-14.574869,-150.60226
-13.357872,-145.84654
-15.37153,-140.62303
-14.156872,-142.38118
-15.608185,-147.02797
-14.225953,-143.90558
-13.780325,-139.24438
-14.184747,-144.99197
-14.810026,-144.15878
-14.899857,-142.15633
-15.205256,-145.34285
-13.785979,-141.31339
-14.592126,-150.62877
-14.008828,-137.6971
-14.827663,-142.79465
-14.894424,-140.74982
-14.208514,-143.1813
-14.079268,-147.20259
-14.445262,-137.65948
-15.789433,-153.31339
-12.940992,-154.42354
-14.343642,-143.14005
-14.569301,-147.46198
-14.22374,-153.44435
-13.564144,-146.54956
-14.174756,-144.61293
-14.636877,-139.13268
-14.921801,-142.17401
-14.641471,-152.8161
-14.783805,-140.09348
-14.13329,-142.14847
-14.870767,-145.51486
-13.403575,-143.60393
-14.848174,-146.9077
-14.210648,-144.49765
-13.782817,-147.61961
-15.395694,-145.63434
-14.076278,-138.9104
-14.1543,-151.77725
-14.467792,-139.59944
-15.178272,-151.21777
-15.347095,-137.97398
-14.540078,-154.94995
-13.816442,-148.08151
-14.724949,-144.02013
-14.334311,-146.42647
-14.038306,-140.80106
-15.416355,-145.33319
-15.221292,-150.29802
-15.436285,-146.32776
-15.296488,-147.0656
-13.902207,-136.90898
-14.286042,-147.1165
-14.900772,-143.62544
-14.172386,-146.44666
-13.551291,-140.55821
-15.449438,-148.53574
-15.168008,-145.66269
-13.173938,-144.66815
-14.443331,-141.35237
-14.283524,-142.00615
-15.33305,-141.26425
-14.545093,-141.47125
-15.553353,-144.45044
-14.060486,-143.83472
-13.279003,-146.48314
-14.660876,-148.94237
-15.22784,-145.90996
-14.250104,-138.01192
-14.769155,-141.34863
-15.288934,-143.36615
-14.047788,-144.29329
-15.145029,-150.63672
-14.033041,-144.92857
-15.24457,-142.81552
-14.184822,-142.33879
-15.538884,-161.90331
-15.630159,-144.58011
-14.829301,-148.63509
-15.300066,-141.70848
-13.932961,-143.08775
-13.800244,-140.05074
-15.224641,-142.96568
-14.657887,-146.27707
-14.638785,-141.68347
-14.8207,-140.12488
-15.04746,-146.64819
-14.210506,-137.34654
-14.709823,-142.87701
-14.564004,-143.5359
-13.681154,-143.44966
-14.319769,-144.67549
-15.502606,-143.13353
-14.688376,-144.29408
-15.046453,-147.34427
-13.906232,-146.55969
-14.720475,-145.48587
-15.218763,-146.97322
-15.543778,-145.70302
-15.213295,-144.31812
-14.468672,-141.03229
-14.785478,-143.18291
-14.279037,-143.3604
-14.827132,-144.90683
-14.462796,-145.34053
-13.459549,-147.67662
-15.332975,-144.10539
-14.258924,-144.55893
-14.021517,-141.58249
-14.836055,-142.05313
-14.387464,-141.98744
-14.420577,-145.62569
-15.141849,-152.44287
-14.751818,-145.33623
-14.165313,-139.24271
-15.062506,-149.241
-13.477756,-145.10234
-14.408289,-153.2343
-14.46972,-146.82022
-15.000059,-147.42873
-15.020859,-142.44414
-14.093534,-145.71487
-15.627676,-144.45702
-15.588034,-150.11203
-14.651986,-144.51663
-13.707041,-136.51605
-13.684771,-142.06326
-14.837646,-146.09744
-14.296131,-147.9407
-14.919868,-147.35655
-14.602839,-139.58495
-14.896331,-141.20827
-13.983896,-148.49075
-14.10352,-138.51132
-14.157322,-147.2205
-14.908438,-138.75287
-15.935919,-147.91322
-14.983748,-139.56302
-14.32382,-143.17726
-14.517248,-149.56386
-14.966548,-144.23343
-15.538945,-145.83179
-14.563672,-145.59967
-14.366025,-146.33949
-14.396819,-138.20349
-14.51432,-149.75739
-14.445902,-143.04941
-14.810468,-141.39725
-14.806198,-143.90936
-15.304206,-145.40118
-15.236226,-145.19098
-14.594395,-149.28943
-14.764127,-144.24648
-14.260538,-148.62222
-14.238138,-140.91826
-13.989054,-148.31349
-14.618533,-143.93523
-14.332109,-143.98471
-15.878975,-142.50208
-14.24451,-144.39102
-14.250819,-145.60738
-14.35554,-147.87445
-14.593232,-143.71541
-14.754604,-145.02756
-14.876623,-151.41833
-13.808584,-141.37505
-14.368124,-146.48312
-14.082847,-144.73828
-14.597508,-145.4841
-14.704578,-141.92749
-14.580605,-148.21661
-14.795074,-148.11815
-14.301175,-146.66821
-13.631112,-144.17279
-15.227988,-149.70625
-15.361013,-149.38727
-14.361252,-139.51765
-14.412946,-141.04117
-14.937906,-140.39551
-14.769216,-147.3065
-14.639528,-135.35901
-14.950319,-143.78654
-14.303135,-145.22537
-14.798728,-143.03175
-14.328311,-147.08672
-13.617746,-146.89244
-13.909989,-145.43491
-14.438156,-142.65222
-14.37296,-144.52521
-15.484509,-145.17703
-14.260297,-146.696
-14.601954,-146.87314
-14.925211,-140.96016
-15.12339,-145.18251
-14.170882,-151.06488
-15.30317,-142.8497
-13.720269,-145.29083
-14.534369,-142.23343
-14.44459,-144.5144
-14.846325,-142.86276
-14.632726,-142.27026
-15.199416,-145.24367
-14.668985,-148.05818
-15.151987,-143.9523
-14.64384,-145.76268
-14.457364,-144.37021
-13.52234,-147.81825
-14.233092,-144.4192
-14.422934,-139.73421
-14.361023,-146.61075
-14.869781,-145.75064
-14.823918,-148.47179
-14.928753,-148.00391
-14.844034,-139.49585
-14.78427,-144.19798
-14.254721,-145.03316
-14.756104,-145.79553
-14.409954,-142.29541
-14.213171,-145.53017
-14.932378,-150.52585
-14.525709,-143.97699
-14.056166,-149.61484
-14.893987,-146.14063
-14.041374,-140.8093
-15.169909,-145.04062
-14.833675,-144.33578
-14.877147,-144.40321
-15.422557,-142.09016
-15.188518,-146.90404
-14.491064,-142.98761
-15.162296,-146.01839
-14.60837,-150.85295
-14.754603,-141.4198
-13.655499,-143.81122
-14.5026,-143.68381
-14.236937,-148.71896
-14.242877,-146.17656
-15.547914,-142.89798
-14.313612,-142.22594
-14.504459,-142.50731
-14.29121,-140.09319
-14.294087,-144.38887
-14.530162,-147.89224
-14.364488,-146.01674
-14.983067,-145.71294
-14.637396,-141.99355
-14.923709,-142.26654
-14.633797,-139.13081
-14.522862,-143.74406
-14.447511,-140.14301
-13.967471,-147.90479
-14.299999,-140.44287
-15.273787,-143.57222
-15.101229,-146.00082
-14.561194,-142.5598
-14.25467,-141.39799
-14.959435,-140.93706
-14.000964,-144.25739
-14.18676,-142.8416
-14.402225,-144.32274
-14.386823,-142.40573
-14.569076,-144.21855
-14.765796,-143.84717
-14.924194,-146.92896
-14.250005,-145.86739
-15.110236,-146.44153
-14.074594,-142.68747
-14.14289,-143.94273
-14.541162,-144.20837
-14.984258,-143.68134
-13.681447,-142.83226
-14.948881,-151.64555
-15.16038,-144.68028
-14.883664,-145.05064
-14.955565,-147.31097
-13.693624,-147.18532
-14.686426,-145.46004
-14.666898,-145.65877
-14.244742,-145.09898
-15.050641,-140.96538
-14.389011,-146.76491
-14.806399,-146.77429
-14.447879,-145.25966
-14.80381,-150.37227
-15.053156,-142.77052
-14.187263,-144.18521
-14.566894,-142.04359
-14.566813,-142.39406
-14.296676,-148.46793
-14.817714,-146.77142
-14.408476,-145.22173
-14.278418,-145.23343
-14.72422,-146.79773
-14.234549,-139.80383
-14.145424,-144.90419
-14.98543,-143.51221
-14.929492,-141.74657
-14.436701,-141.64577
-14.37905,-144.50215
-14.570444,-142.98955
-14.664101,-145.17574
-14.776258,-143.16553
-15.123749,-146.44321
-14.36151,-144.39227
-15.041436,-145.00246
-14.821687,-142.57024
-13.969829,-140.44853
-14.082758,-143.53171
-14.313839,-145.93774
-14.868197,-145.96422
-14.609606,-147.07683
-14.51885,-142.4697
-14.798042,-144.53908
-14.643422,-140.81194
-14.851231,-144.60173
-14.656265,-140.59044
-14.604323,-145.53752
-14.343303,-140.8481
-14.987268,-144.40073
-14.335187,-142.19026
-14.529516,-142.93356
-14.818394,-142.4142
-14.57604,-146.31761
-14.249587,-142.81493
-14.103397,-142.41077
-14.402339,-143.05695
-14.754097,-144.99367
-15.07067,-148.99406
-14.570028,-147.18311
-15.323481,-145.67618
-14.285497,-146.62698
-13.960396,-146.15617
-14.222187,-144.60228
-14.311951,-144.1459
-14.23635,-142.57237
-14.455377,-144.37654
-14.338802,-145.72151
-14.724189,-144.18138
-14.078427,-142.22299
-14.25436,-143.72601
-14.341378,-142.85994
-14.39622,-143.47751
-14.533431,-144.91866
-14.613155,-144.16005
-14.681643,-142.08659
-15.137246,-146.47047
-14.711991,-146.15384
-14.9545,-145.03654
-14.89122,-146.146
-14.436919,-144.67473
-14.805867,-144.3914
-14.450808,-145.11967
-14.220884,-145.75583
-14.937434,-144.14365
-14.777947,-144.2617
-14.515127,-141.99112
-14.579302,-143.48215
-14.530209,-147.44934
-14.805303,-146.06195
-14.642346,-148.83003
-15.14541,-142.23776
-14.517653,-145.38092
-14.171968,-145.04054
-14.186788,-145.04195
-14.356563,-143.25258
-14.909201,-148.10645
-14.515682,-144.61565
-14.578271,-145.9987
-14.178617,-143.21104
-14.37382,-142.36812
-14.169338,-144.06934
-14.141277,-143.59157
-14.709986,-143.14825
-14.904809,-142.87677
-14.353288,-143.5872
-14.312238,-146.25256
-14.71719,-143.35291
-13.66359,-144.61205
-14.231349,-145.11374
-14.642794,-143.46783
-13.940131,-141.58812
-14.640138,-141.88286
-14.560431,-146.84349
-14.455931,-143.32755
-14.508456,-142.56735
-14.717873,-143.99579
-14.804315,-144.11378
-15.034891,-148.64995
-14.897193,-143.92018
-14.78035,-144.9026
-15.284109,-142.04486
-14.057331,-145.27171
-14.72189,-142.73691
-14.557173,-145.46211
-14.365877,-145.2247
-14.558495,-144.84778
-14.573184,-144.76743
-13.716507,-145.51834
-15.209821,-143.35028
-14.698037,-145.02655
-14.762871,-142.54922
-14.698075,-144.80444
-14.814487,-142.11646
-14.2572,-145.38153
-14.489979,-142.44948
-14.97055,-145.48346
-14.331499,-141.3913
-14.708004,-143.61398
-14.578723,-140.257
-14.440069,-143.57216
-14.560905,-145.47063
-14.231519,-146.2507
-14.439936,-143.49872
-14.506427,-143.61011
-14.779592,-142.31873
-14.685106,-143.20261
-14.652937,-144.54201
-14.74498,-144.4903
-14.690596,-145.27142
-14.478894,-146.80063
-14.953113,-145.45331
-14.839898,-143.65617
-14.656465,-144.58446
-14.749007,-143.18369
-14.861392,-144.62134
-14.995886,-144.72678
-14.377297,-143.88449
-14.566278,-143.8215
-14.645008,-145.60812
-14.596431,-144.32281
-14.59735,-143.32405
-14.46556,-143.12059
-14.582565,-145.15121
-14.33658,-143.49919
-14.679777,-146.30383
-14.712634,-144.52153
-14.853055,-145.59602
-14.647588,-144.73512
-14.221029,-145.20181
-14.816115,-146.37219
-14.655329,-144.81302
-14.397399,-141.95798
-14.581488,-143.3931
-14.524713,-145.54289
-14.330687,-146.2292
-14.582108,-144.899
-14.517368,-145.76384
-14.473963,-142.95204
-14.689503,-144.22647
-14.691957,-142.26886
-14.270123,-144.08832
-14.688695,-143.37709
-14.256234,-142.16689
-14.965217,-144.46867
-14.538434,-144.94687
-14.986378,-142.95789
-14.76742,-145.82187
-14.578291,-142.12671
-15.008375,-146.89642
-14.823718,-141.85155
-14.323516,-143.30376
-14.373809,-143.32758
-14.419426,-143.3822
-14.676922,-143.25861
-14.281558,-142.12932
-14.405486,-144.36737
-14.668354,-145.15552
-14.582817,-144.23875
-14.564014,-145.91042
-14.70815,-143.04617
-14.623507,-147.026
-14.997605,-144.39012
-14.560173,-141.47623
-14.430241,-144.22958
-14.450091,-141.94124
-14.733687,-143.66432
-14.473517,-143.85077
-14.636014,-145.08316
-14.613965,-144.7263
-14.691927,-142.22238
-14.617019,-146.42706
-14.759943,-143.96947
-14.390719,-143.51491
-14.619167,-143.34248
-14.517517,-143.54236
-14.641448,-144.5769
-14.634212,-145.57118
-14.506643,-144.52296
-14.314305,-144.4292
-14.517208,-145.08841
-14.512416,-143.57388
-14.612994,-142.17737
-14.397032,-144.41441
-14.701551,-145.22488
-14.600813,-145.05057
-14.652078,-143.32919
-14.369205,-145.10634
-14.597126,-145.68779
-14.739574,-146.08153
-14.465087,-142.29521
-14.362589,-144.76811
-14.637799,-146.04851
-14.71761,-146.3633
-14.571598,-145.27261
-14.664225,-145.83585
-14.323629,-145.97794
-14.567579,-143.63394
-14.492822,-145.65463
-14.738266,-145.91663
-14.801786,-143.89232
-14.486273,-143.73265
-14.925768,-142.98337
-14.649959,-145.01019
-14.64448,-144.82066
-14.478144,-145.28027
-14.708669,-144.49162
-14.536324,-142.74219
-14.492718,-147.81543
-14.394509,-143.87025
-14.530237,-145.06927
-14.652959,-143.15996
-14.463186,-146.43764
-14.835772,-142.85968
-14.471778,-145.25352
-14.784205,-144.45972
-14.663401,-144.75264
-14.809798,-144.0818
-14.59055,-145.48077
-14.881015,-143.04124
-14.95943,-145.8829
-14.774617,-144.9881
-14.753601,-145.71741
-14.520782,-146.15697
-14.47094,-143.13747
-14.470418,-145.4968
-14.424624,-144.6053
-14.585489,-145.44441
-14.398863,-145.64836
-14.465125,-143.88011
-14.386542,-144.06088
-14.749913,-145.353
-14.745042,-144.74229
-14.194942,-142.7823
-14.569776,-144.70248
-14.464944,-144.76997
-14.487938,-143.466
-14.564025,-145.3304
-14.386033,-143.63026
-14.848051,-143.49767
-14.507404,-143.43188
-14.379563,-143.58632
-14.446362,-145.48958
-14.610419,-144.77748
-14.374041,-146.70692
-14.546649,-144.6153
-14.624145,-143.66881
-14.659312,-144.537
-14.665545,-144.15483
-14.520545,-145.63995
-14.706911,-144.38959
-14.57735,-143.35793
-14.927206,-143.6414
-14.581614,-145.52098
-14.605861,-145.16681
-14.597286,-145.25864
-14.766896,-145.6391
-14.627784,-144.17851
-14.677065,-145.11064
-14.239787,-145.60341
-14.51179,-145.17056
-14.396362,-143.63046
-14.542988,-143.64777
-14.559449,-145.08809
-14.524571,-144.52121
-14.869336,-144.64777
-14.633771,-144.64134
