CITIFILE A.01.01
!Agilent Technologies,N5230C,MY48100142,A.08.04.10
!Agilent N5230C: A.08.04.10
!Format: LogMag/Angle
!Date: Friday, July 24, 2020 12:39:34
NAME CH1_DATA
VAR Power MAG 801
DATA S11 DBANGLE
DATA S21 DBANGLE
DATA S12 DBANGLE
DATA S22 DBANGLE
VAR_LIST_BEGIN
-40
-39.975
-39.95
-39.925
-39.9
-39.875
-39.85
-39.825
-39.8
-39.775
-39.75
-39.725
-39.7
-39.675
-39.65
-39.625
-39.6
-39.575
-39.55
-39.525
-39.5
-39.475
-39.45
-39.425
-39.4
-39.375
-39.35
-39.325
-39.3
-39.275
-39.25
-39.225
-39.2
-39.175
-39.15
-39.125
-39.1
-39.075
-39.05
-39.025
-39
-38.975
-38.95
-38.925
-38.9
-38.875
-38.85
-38.825
-38.8
-38.775
-38.75
-38.725
-38.7
-38.675
-38.65
-38.625
-38.6
-38.575
-38.55
-38.525
-38.5
-38.475
-38.45
-38.425
-38.4
-38.375
-38.35
-38.325
-38.3
-38.275
-38.25
-38.225
-38.2
-38.175
-38.15
-38.125
-38.1
-38.075
-38.05
-38.025
-38
-37.975
-37.95
-37.925
-37.9
-37.875
-37.85
-37.825
-37.8
-37.775
-37.75
-37.725
-37.7
-37.675
-37.65
-37.625
-37.6
-37.575
-37.55
-37.525
-37.5
-37.475
-37.45
-37.425
-37.4
-37.375
-37.35
-37.325
-37.3
-37.275
-37.25
-37.225
-37.2
-37.175
-37.15
-37.125
-37.1
-37.075
-37.05
-37.025
-37
-36.975
-36.95
-36.925
-36.9
-36.875
-36.85
-36.825
-36.8
-36.775
-36.75
-36.725
-36.7
-36.675
-36.65
-36.625
-36.6
-36.575
-36.55
-36.525
-36.5
-36.475
-36.45
-36.425
-36.4
-36.375
-36.35
-36.325
-36.3
-36.275
-36.25
-36.225
-36.2
-36.175
-36.15
-36.125
-36.1
-36.075
-36.05
-36.025
-36
-35.975
-35.95
-35.925
-35.9
-35.875
-35.85
-35.825
-35.8
-35.775
-35.75
-35.725
-35.7
-35.675
-35.65
-35.625
-35.6
-35.575
-35.55
-35.525
-35.5
-35.475
-35.45
-35.425
-35.4
-35.375
-35.35
-35.325
-35.3
-35.275
-35.25
-35.225
-35.2
-35.175
-35.15
-35.125
-35.1
-35.075
-35.05
-35.025
-35
-34.975
-34.95
-34.925
-34.9
-34.875
-34.85
-34.825
-34.8
-34.775
-34.75
-34.725
-34.7
-34.675
-34.65
-34.625
-34.6
-34.575
-34.55
-34.525
-34.5
-34.475
-34.45
-34.425
-34.4
-34.375
-34.35
-34.325
-34.3
-34.275
-34.25
-34.225
-34.2
-34.175
-34.15
-34.125
-34.1
-34.075
-34.05
-34.025
-34
-33.975
-33.95
-33.925
-33.9
-33.875
-33.85
-33.825
-33.8
-33.775
-33.75
-33.725
-33.7
-33.675
-33.65
-33.625
-33.6
-33.575
-33.55
-33.525
-33.5
-33.475
-33.45
-33.425
-33.4
-33.375
-33.35
-33.325
-33.3
-33.275
-33.25
-33.225
-33.2
-33.175
-33.15
-33.125
-33.1
-33.075
-33.05
-33.025
-33
-32.975
-32.95
-32.925
-32.9
-32.875
-32.85
-32.825
-32.8
-32.775
-32.75
-32.725
-32.7
-32.675
-32.65
-32.625
-32.6
-32.575
-32.55
-32.525
-32.5
-32.475
-32.45
-32.425
-32.4
-32.375
-32.35
-32.325
-32.3
-32.275
-32.25
-32.225
-32.2
-32.175
-32.15
-32.125
-32.1
-32.075
-32.05
-32.025
-32
-31.975
-31.95
-31.925
-31.9
-31.875
-31.85
-31.825
-31.8
-31.775
-31.75
-31.725
-31.7
-31.675
-31.65
-31.625
-31.6
-31.575
-31.55
-31.525
-31.5
-31.475
-31.45
-31.425
-31.4
-31.375
-31.35
-31.325
-31.3
-31.275
-31.25
-31.225
-31.2
-31.175
-31.15
-31.125
-31.1
-31.075
-31.05
-31.025
-31
-30.975
-30.95
-30.925
-30.9
-30.875
-30.85
-30.825
-30.8
-30.775
-30.75
-30.725
-30.7
-30.675
-30.65
-30.625
-30.6
-30.575
-30.55
-30.525
-30.5
-30.475
-30.45
-30.425
-30.4
-30.375
-30.35
-30.325
-30.3
-30.275
-30.25
-30.225
-30.2
-30.175
-30.15
-30.125
-30.1
-30.075
-30.05
-30.025
-30
-29.975
-29.95
-29.925
-29.9
-29.875
-29.85
-29.825
-29.8
-29.775
-29.75
-29.725
-29.7
-29.675
-29.65
-29.625
-29.6
-29.575
-29.55
-29.525
-29.5
-29.475
-29.45
-29.425
-29.4
-29.375
-29.35
-29.325
-29.3
-29.275
-29.25
-29.225
-29.2
-29.175
-29.15
-29.125
-29.1
-29.075
-29.05
-29.025
-29
-28.975
-28.95
-28.925
-28.9
-28.875
-28.85
-28.825
-28.8
-28.775
-28.75
-28.725
-28.7
-28.675
-28.65
-28.625
-28.6
-28.575
-28.55
-28.525
-28.5
-28.475
-28.45
-28.425
-28.4
-28.375
-28.35
-28.325
-28.3
-28.275
-28.25
-28.225
-28.2
-28.175
-28.15
-28.125
-28.1
-28.075
-28.05
-28.025
-28
-27.975
-27.95
-27.925
-27.9
-27.875
-27.85
-27.825
-27.8
-27.775
-27.75
-27.725
-27.7
-27.675
-27.65
-27.625
-27.6
-27.575
-27.55
-27.525
-27.5
-27.475
-27.45
-27.425
-27.4
-27.375
-27.35
-27.325
-27.3
-27.275
-27.25
-27.225
-27.2
-27.175
-27.15
-27.125
-27.1
-27.075
-27.05
-27.025
-27
-26.975
-26.95
-26.925
-26.9
-26.875
-26.85
-26.825
-26.8
-26.775
-26.75
-26.725
-26.7
-26.675
-26.65
-26.625
-26.6
-26.575
-26.55
-26.525
-26.5
-26.475
-26.45
-26.425
-26.4
-26.375
-26.35
-26.325
-26.3
-26.275
-26.25
-26.225
-26.2
-26.175
-26.15
-26.125
-26.1
-26.075
-26.05
-26.025
-26
-25.975
-25.95
-25.925
-25.9
-25.875
-25.85
-25.825
-25.8
-25.775
-25.75
-25.725
-25.7
-25.675
-25.65
-25.625
-25.6
-25.575
-25.55
-25.525
-25.5
-25.475
-25.45
-25.425
-25.4
-25.375
-25.35
-25.325
-25.3
-25.275
-25.25
-25.225
-25.2
-25.175
-25.15
-25.125
-25.1
-25.075
-25.05
-25.025
-25
-24.975
-24.95
-24.925
-24.9
-24.875
-24.85
-24.825
-24.8
-24.775
-24.75
-24.725
-24.7
-24.675
-24.65
-24.625
-24.6
-24.575
-24.55
-24.525
-24.5
-24.475
-24.45
-24.425
-24.4
-24.375
-24.35
-24.325
-24.3
-24.275
-24.25
-24.225
-24.2
-24.175
-24.15
-24.125
-24.1
-24.075
-24.05
-24.025
-24
-23.975
-23.95
-23.925
-23.9
-23.875
-23.85
-23.825
-23.8
-23.775
-23.75
-23.725
-23.7
-23.675
-23.65
-23.625
-23.6
-23.575
-23.55
-23.525
-23.5
-23.475
-23.45
-23.425
-23.4
-23.375
-23.35
-23.325
-23.3
-23.275
-23.25
-23.225
-23.2
-23.175
-23.15
-23.125
-23.1
-23.075
-23.05
-23.025
-23
-22.975
-22.95
-22.925
-22.9
-22.875
-22.85
-22.825
-22.8
-22.775
-22.75
-22.725
-22.7
-22.675
-22.65
-22.625
-22.6
-22.575
-22.55
-22.525
-22.5
-22.475
-22.45
-22.425
-22.4
-22.375
-22.35
-22.325
-22.3
-22.275
-22.25
-22.225
-22.2
-22.175
-22.15
-22.125
-22.1
-22.075
-22.05
-22.025
-22
-21.975
-21.95
-21.925
-21.9
-21.875
-21.85
-21.825
-21.8
-21.775
-21.75
-21.725
-21.7
-21.675
-21.65
-21.625
-21.6
-21.575
-21.55
-21.525
-21.5
-21.475
-21.45
-21.425
-21.4
-21.375
-21.35
-21.325
-21.3
-21.275
-21.25
-21.225
-21.2
-21.175
-21.15
-21.125
-21.1
-21.075
-21.05
-21.025
-21
-20.975
-20.95
-20.925
-20.9
-20.875
-20.85
-20.825
-20.8
-20.775
-20.75
-20.725
-20.7
-20.675
-20.65
-20.625
-20.6
-20.575
-20.55
-20.525
-20.5
-20.475
-20.45
-20.425
-20.4
-20.375
-20.35
-20.325
-20.3
-20.275
-20.25
-20.225
-20.2
-20.175
-20.15
-20.125
-20.1
-20.075
-20.05
-20.025
-20
VAR_LIST_END
BEGIN
-14.86969,-143.90613
-14.234644,-143.10222
-14.747865,-146.30762
-15.353321,-135.8792
-15.64151,-147.36002
-16.221699,-147.36053
-15.343169,-145.63292
-14.317484,-144.42171
-13.97759,-149.53294
-14.558725,-148.27808
-14.88404,-140.4048
-15.090986,-142.37601
-15.44148,-148.59914
-14.651222,-145.24391
-14.842798,-139.52382
-14.941988,-146.23018
-15.35927,-145.08882
-14.546677,-137.8744
-14.666181,-143.64726
-15.918447,-142.17134
-14.563193,-148.17465
-15.15828,-149.70993
-14.446047,-143.84749
-15.749156,-142.98253
-14.068602,-145.57011
-14.814195,-146.9214
-14.34766,-138.72096
-13.716151,-142.13283
-14.710711,-148.52774
-14.356786,-150.68262
-15.934972,-140.29279
-14.204464,-145.35074
-13.749327,-149.31311
-14.081429,-140.022
-14.043616,-142.85547
-14.886807,-137.51671
-14.209031,-144.42828
-14.816339,-139.68628
-14.433119,-145.82361
-14.791863,-147.24228
-13.852131,-143.70093
-14.74626,-146.22383
-14.792542,-145.79564
-14.047674,-142.15436
-14.65652,-144.46739
-14.505987,-137.41814
-15.434309,-145.01363
-14.368115,-146.91132
-14.9688,-141.1734
-15.013745,-145.58279
-14.222044,-145.4823
-13.536942,-143.86638
-14.855091,-133.12639
-15.518818,-140.13885
-14.266291,-139.43327
-14.197033,-143.10701
-15.062481,-145.44179
-14.882774,-141.85371
-14.831693,-141.73245
-14.907075,-140.84349
-13.824121,-141.86111
-14.527534,-144.45087
-14.287392,-144.85616
-14.905397,-146.59457
-15.504497,-149.00978
-14.649113,-146.49831
-14.002576,-142.06491
-14.138403,-148.44084
-14.130198,-149.23824
-14.659033,-145.0631
-13.939993,-148.59286
-15.414929,-143.48752
-13.772684,-145.33109
-14.379901,-143.42442
-14.947644,-142.04745
-14.947878,-145.81328
-14.528561,-143.82217
-14.766562,-142.64001
-14.534846,-149.37617
-15.116476,-143.81738
-14.054235,-143.19696
-14.448312,-148.4288
-14.166631,-145.46544
-14.767331,-145.44077
-14.729289,-144.99979
-14.096598,-145.88972
-15.018555,-142.95659
-14.792767,-145.83179
-13.744875,-149.79939
-14.57783,-146.27834
-14.758672,-149.94942
-15.111898,-142.21983
-15.125693,-145.5878
-14.768352,-144.99472
-14.700788,-146.67206
-14.699046,-148.30054
-15.580538,-145.34572
-14.43557,-146.57359
-14.698129,-144.59265
-14.941515,-142.14897
-13.56621,-150.23915
-14.312928,-145.08765
-15.029891,-144.91267
-14.473568,-139.3179
-16.049528,-140.813
-15.715411,-150.62511
-14.844411,-143.50443
-14.287966,-140.56168
-14.615426,-145.02286
-15.366342,-149.29492
-14.725811,-139.28699
-14.462593,-144.79723
-14.133605,-145.34525
-14.857995,-140.79471
-14.502762,-147.00198
-15.54323,-151.23535
-14.752568,-144.51627
-14.71384,-152.2744
-14.534096,-146.00536
-14.21712,-146.89864
-15.74854,-143.34305
-14.306808,-148.87566
-13.849704,-144.8237
-14.895525,-140.74622
-15.152178,-141.8663
-14.815975,-146.88077
-13.835424,-147.96092
-14.918248,-147.17224
-14.059155,-145.74522
-14.189927,-145.13023
-14.173965,-144.64082
-13.932684,-144.6787
-14.559757,-146.23479
-14.830862,-142.44218
-15.742978,-142.22826
-15.255798,-144.13295
-15.740647,-143.06299
-15.208124,-144.75491
-14.669562,-149.28258
-15.184664,-142.20468
-14.844326,-143.70544
-14.677825,-140.797
-14.531742,-142.24086
-14.250018,-144.09453
-13.806642,-144.93251
-14.860088,-147.62125
-14.997762,-138.88968
-14.531518,-145.3455
-14.060968,-146.37856
-14.477509,-144.91411
-15.108807,-144.59848
-13.802069,-144.94022
-15.03558,-140.98543
-14.026216,-143.78819
-14.378518,-145.23245
-14.623252,-141.32498
-14.263741,-144.38078
-14.908891,-143.1226
-14.934114,-142.14784
-14.151492,-145.71625
-14.410251,-147.55602
-14.882072,-148.10464
-14.116805,-142.81946
-14.285439,-149.41479
-15.090587,-146.62889
-15.583709,-146.95483
-14.504163,-144.36407
-14.397384,-145.22592
-15.22489,-145.37477
-14.684619,-147.78462
-15.062055,-143.998
-14.788033,-142.26523
-14.459912,-145.33293
-15.177323,-140.43819
-14.629295,-139.51398
-15.007185,-151.11603
-14.472424,-147.15576
-14.162177,-142.94395
-14.175639,-146.7225
-14.445273,-142.63338
-13.88345,-144.20889
-14.451099,-147.31927
-14.476599,-146.32602
-14.581865,-148.8687
-14.241188,-147.44774
-14.854101,-149.00584
-15.299567,-146.27797
-14.768848,-148.0882
-14.167367,-142.62996
-15.021584,-148.49323
-15.172298,-146.36304
-14.619374,-148.35341
-14.667104,-146.80031
-15.023624,-146.91345
-14.679845,-147.00197
-14.099361,-146.50323
-14.921968,-148.94191
-15.212253,-140.7829
-14.219372,-144.92091
-14.749717,-148.85262
-15.105942,-140.85355
-14.816049,-146.41959
-14.436173,-146.76529
-14.528146,-145.86786
-14.666559,-138.66455
-15.037827,-145.34538
-14.419474,-141.31926
-14.345555,-146.55565
-14.36209,-147.70168
-14.267257,-141.67389
-14.762287,-146.40646
-14.594662,-145.31731
-14.594883,-146.74156
-14.618987,-145.33318
-14.875525,-143.93948
-14.547304,-147.54158
-14.402864,-148.13388
-14.782115,-140.90874
-13.896388,-142.37619
-14.509659,-146.62967
-15.41324,-143.33917
-14.189219,-149.00159
-14.932001,-143.91875
-14.350795,-145.46619
-13.928357,-147.21913
-14.701141,-141.91521
-14.158106,-146.02225
-14.901463,-144.12575
-14.0471,-146.00641
-14.432789,-147.87291
-15.074337,-147.14543
-14.254801,-144.05293
-15.346163,-142.47839
-14.813531,-148.08551
-14.773437,-142.46826
-14.703786,-144.89101
-14.224721,-147.46935
-14.431265,-146.96045
-14.930168,-145.9796
-15.159447,-145.40009
-14.537905,-143.04295
-14.346558,-143.64043
-14.495087,-145.49471
-14.497087,-144.57506
-14.781389,-139.87669
-14.367544,-147.20868
-14.341918,-145.91225
-14.162289,-146.06834
-14.541062,-146.3185
-14.778827,-146.16483
-13.567387,-144.79143
-14.504075,-146.93732
-15.001056,-146.49878
-14.633042,-145.11278
-15.182028,-141.58705
-14.261571,-144.21042
-14.858302,-146.02573
-14.975633,-144.92511
-14.963963,-145.56094
-14.524558,-144.48393
-14.364328,-141.09875
-14.33941,-144.97862
-14.838945,-145.42891
-14.347997,-138.62811
-15.56814,-141.21574
-14.874056,-147.52327
-14.976761,-144.85999
-14.404836,-142.02177
-14.331562,-140.6945
-14.087767,-144.00851
-14.444435,-141.05186
-14.371103,-146.79483
-14.727166,-144.37151
-14.829244,-145.32126
-14.883533,-149.60463
-15.231171,-144.16298
-15.294596,-142.02144
-14.269442,-147.862
-14.927555,-143.99956
-14.888684,-142.30042
-15.15541,-147.3707
-14.835704,-147.59952
-14.231825,-145.18648
-14.454226,-143.52373
-14.097547,-146.98862
-15.056918,-143.98244
-14.616822,-143.1499
-14.434746,-140.55595
-14.766224,-148.12292
-14.887328,-147.79361
-14.807689,-147.18073
-14.640461,-144.61261
-14.419581,-143.87885
-14.439163,-143.66479
-14.846681,-148.54028
-14.373652,-149.37489
-14.53919,-146.94974
-14.220595,-144.6282
-14.714398,-144.93454
-14.934784,-145.77242
-14.516711,-143.67976
-14.513983,-146.13969
-15.156281,-144.16795
-14.393196,-143.52783
-14.704863,-144.33401
-14.694113,-143.25281
-14.442687,-144.8578
-14.242098,-145.3457
-14.598545,-145.61969
-15.000843,-145.01591
-14.435916,-143.22299
-14.620733,-144.22234
-14.474606,-144.99936
-14.599227,-142.85312
-14.761468,-142.9229
-14.393309,-145.20099
-14.009978,-145.89569
-14.740849,-145.31422
-14.723344,-147.49992
-14.37117,-145.0965
-14.411638,-150.23151
-14.566318,-142.19536
-14.273446,-146.42281
-14.660543,-146.44836
-14.500917,-144.44429
-14.144567,-144.66936
-14.388645,-143.10841
-14.764954,-146.95869
-14.357962,-145.3918
-14.617084,-146.89003
-14.67411,-144.73312
-14.317824,-144.97873
-14.266853,-147.10519
-14.445833,-146.39804
-15.194766,-144.60153
-14.613358,-145.6179
-14.306561,-144.50845
-14.227814,-144.73117
-14.882306,-144.33241
-14.436594,-145.5099
-14.251552,-141.37502
-14.608601,-147.08887
-14.65658,-145.59178
-14.648499,-146.06758
-14.743634,-144.17348
-14.637513,-146.1116
-14.941112,-145.68529
-14.335937,-144.05685
-14.578353,-145.95062
-14.48833,-140.92986
-14.636285,-146.65338
-15.055297,-144.38734
-14.510881,-144.88361
-14.565372,-146.84065
-14.364011,-144.8381
-14.699349,-143.25629
-14.453995,-145.7122
-15.014324,-146.52798
-14.993418,-146.31898
-14.46603,-142.82317
-14.797972,-146.44925
-14.877785,-146.83751
-14.552771,-144.29314
-14.547161,-143.21179
-14.526113,-140.77441
-14.843226,-143.3622
-14.376181,-142.83107
-14.384588,-144.12604
-14.913491,-147.8067
-14.540403,-147.43863
-14.611831,-143.73512
-14.560804,-145.44344
-14.396412,-146.07207
-14.903961,-145.47633
-14.529532,-143.57872
-15.029432,-146.36191
-14.748359,-145.22267
-14.817273,-146.26643
-14.787515,-145.61737
-14.675519,-143.64995
-14.746236,-146.59375
-14.718193,-145.27597
-14.523573,-143.35638
-14.433284,-143.03029
-14.577851,-144.41428
-14.633439,-145.82623
-14.57169,-147.39441
-14.595915,-142.86566
-15.214314,-142.50067
-14.619933,-144.70639
-14.514015,-147.12486
-14.364597,-143.32318
-14.609513,-141.43622
-14.544353,-145.94485
-14.664441,-147.58391
-14.91313,-145.3756
-14.60568,-142.00157
-14.761578,-143.42233
-14.563865,-142.73474
-14.547627,-146.39917
-14.634202,-145.55409
-14.859665,-145.2327
-14.453889,-144.67288
-14.514321,-143.60313
-14.598613,-143.90419
-14.858704,-144.11511
-14.724551,-147.51671
-14.934181,-144.95717
-14.375475,-143.5276
-14.136659,-147.48795
-14.770605,-146.16348
-14.430801,-145.36784
-14.341122,-146.2455
-14.890296,-145.20779
-14.717763,-143.86444
-14.62757,-143.09291
-14.568027,-143.32718
-14.885176,-146.53116
-14.636798,-144.12492
-14.515121,-146.39857
-14.660926,-142.50761
-14.682891,-146.64865
-14.708711,-144.74893
-14.564511,-145.72688
-14.902902,-146.32471
-14.801944,-144.67119
-14.47239,-145.29897
-14.340285,-145.97964
-14.456893,-146.56419
-14.541502,-145.66562
-14.671733,-144.22495
-14.645245,-144.46338
-14.602346,-142.54547
-14.482357,-144.28902
-14.399956,-144.38425
-14.338124,-142.93733
-14.491078,-144.14832
-14.936108,-144.82773
-14.716873,-144.38312
-14.61482,-145.69113
-14.91389,-143.61095
-15.020567,-143.56668
-14.550783,-144.63193
-14.710062,-143.39647
-14.779595,-143.68997
-14.722008,-142.57167
-14.352245,-144.44336
-14.989784,-146.95862
-14.413699,-145.47301
-14.884978,-142.38678
-14.853098,-145.48656
-14.412431,-143.8291
-14.264595,-144.20877
-14.649837,-148.12093
-14.125378,-142.82838
-14.506655,-143.57359
-14.255613,-143.7466
-14.732941,-143.85008
-14.565685,-143.81425
-15.278911,-147.13467
-14.754664,-145.1044
-14.675591,-144.65004
-14.584377,-145.83904
-14.601368,-144.3461
-14.643922,-144.49452
-14.430378,-143.2083
-14.74402,-147.69281
-14.534929,-143.31511
-14.528202,-143.26193
-14.486077,-145.54561
-14.925832,-144.08347
-14.452004,-142.70546
-14.691977,-146.23643
-14.517813,-144.10973
-14.498292,-146.20921
-14.814066,-144.37654
-14.49756,-143.72137
-14.508877,-142.37669
-14.571326,-145.05191
-14.583323,-142.94971
-14.502933,-144.7094
-14.721642,-144.64508
-14.512205,-144.88765
-14.641146,-144.07736
-14.751634,-144.45435
-14.66221,-144.44243
-14.868027,-146.0377
-14.583437,-143.86502
-14.737613,-143.82954
-15.005812,-145.98175
-14.872762,-143.61867
-14.918556,-147.00052
-14.6392,-146.93564
-14.450564,-146.76584
-14.325179,-143.34085
-14.765204,-147.78001
-14.568265,-145.79105
-14.553622,-146.32503
-14.737561,-145.73958
-14.710905,-143.31306
-14.255711,-145.48637
-14.298321,-143.84796
-14.550368,-143.72516
-14.464781,-145.71658
-14.707184,-142.50211
-14.777477,-144.07928
-14.572694,-144.57298
-14.724597,-142.25276
-14.39387,-145.9128
-15.015953,-144.21399
-14.592052,-145.94252
-14.914865,-143.77652
-14.370712,-145.68228
-14.777499,-143.39485
-14.620759,-146.22279
-14.828292,-146.84743
-14.703416,-144.62639
-14.481113,-143.88667
-14.501242,-141.3007
-14.474564,-146.25597
-14.873454,-143.748
-14.853769,-145.74115
-14.77237,-144.183
-14.820479,-143.77831
-14.759718,-144.06206
-14.990092,-146.11661
-14.704944,-142.96642
-14.522043,-144.85449
-14.490706,-144.69312
-14.633942,-144.15599
-14.61517,-144.20041
-14.829112,-145.30934
-14.596605,-144.7666
-14.415372,-144.47638
-14.757331,-144.2059
-14.564818,-144.12389
-14.580033,-146.53297
-14.618361,-145.4585
-14.805253,-144.68565
-14.645577,-144.63446
-14.838153,-144.65038
-14.417958,-146.21812
-14.814103,-144.55606
-14.570951,-145.57494
-14.875364,-146.0388
-14.495708,-145.00406
-14.627708,-143.34036
-14.494233,-144.94742
-14.444268,-143.7343
-14.564635,-143.28871
-14.770078,-146.50259
-14.586285,-146.20018
-14.606688,-143.55156
-14.63151,-144.86833
-14.663375,-144.66652
-14.372916,-144.53989
-14.716516,-145.09607
-14.741534,-145.97098
-14.550542,-146.20761
-14.850714,-144.54031
-14.594309,-145.21306
-14.622107,-144.82146
-14.732163,-145.86014
-14.507544,-143.95416
-14.762753,-143.90416
-14.505429,-142.54062
-14.613681,-143.16794
-14.756872,-144.90526
-14.533462,-144.34439
-14.684678,-143.71065
-14.729465,-145.68613
-14.324182,-145.62637
-14.607594,-144.97858
-14.733358,-144.03154
-14.647712,-145.2402
-14.772266,-144.72255
