CITIFILE A.01.01
!Agilent Technologies,N5230C,MY48100142,A.08.04.10
!Agilent N5230C: A.08.04.10
!Format: LogMag/Angle
!Date: Monday, September 14, 2020 10:29:14
NAME CH1_DATA
VAR Power MAG 801
DATA S11 DBANGLE
DATA S21 DBANGLE
DATA S12 DBANGLE
DATA S22 DBANGLE
VAR_LIST_BEGIN
-40
-39.975
-39.95
-39.925
-39.9
-39.875
-39.85
-39.825
-39.8
-39.775
-39.75
-39.725
-39.7
-39.675
-39.65
-39.625
-39.6
-39.575
-39.55
-39.525
-39.5
-39.475
-39.45
-39.425
-39.4
-39.375
-39.35
-39.325
-39.3
-39.275
-39.25
-39.225
-39.2
-39.175
-39.15
-39.125
-39.1
-39.075
-39.05
-39.025
-39
-38.975
-38.95
-38.925
-38.9
-38.875
-38.85
-38.825
-38.8
-38.775
-38.75
-38.725
-38.7
-38.675
-38.65
-38.625
-38.6
-38.575
-38.55
-38.525
-38.5
-38.475
-38.45
-38.425
-38.4
-38.375
-38.35
-38.325
-38.3
-38.275
-38.25
-38.225
-38.2
-38.175
-38.15
-38.125
-38.1
-38.075
-38.05
-38.025
-38
-37.975
-37.95
-37.925
-37.9
-37.875
-37.85
-37.825
-37.8
-37.775
-37.75
-37.725
-37.7
-37.675
-37.65
-37.625
-37.6
-37.575
-37.55
-37.525
-37.5
-37.475
-37.45
-37.425
-37.4
-37.375
-37.35
-37.325
-37.3
-37.275
-37.25
-37.225
-37.2
-37.175
-37.15
-37.125
-37.1
-37.075
-37.05
-37.025
-37
-36.975
-36.95
-36.925
-36.9
-36.875
-36.85
-36.825
-36.8
-36.775
-36.75
-36.725
-36.7
-36.675
-36.65
-36.625
-36.6
-36.575
-36.55
-36.525
-36.5
-36.475
-36.45
-36.425
-36.4
-36.375
-36.35
-36.325
-36.3
-36.275
-36.25
-36.225
-36.2
-36.175
-36.15
-36.125
-36.1
-36.075
-36.05
-36.025
-36
-35.975
-35.95
-35.925
-35.9
-35.875
-35.85
-35.825
-35.8
-35.775
-35.75
-35.725
-35.7
-35.675
-35.65
-35.625
-35.6
-35.575
-35.55
-35.525
-35.5
-35.475
-35.45
-35.425
-35.4
-35.375
-35.35
-35.325
-35.3
-35.275
-35.25
-35.225
-35.2
-35.175
-35.15
-35.125
-35.1
-35.075
-35.05
-35.025
-35
-34.975
-34.95
-34.925
-34.9
-34.875
-34.85
-34.825
-34.8
-34.775
-34.75
-34.725
-34.7
-34.675
-34.65
-34.625
-34.6
-34.575
-34.55
-34.525
-34.5
-34.475
-34.45
-34.425
-34.4
-34.375
-34.35
-34.325
-34.3
-34.275
-34.25
-34.225
-34.2
-34.175
-34.15
-34.125
-34.1
-34.075
-34.05
-34.025
-34
-33.975
-33.95
-33.925
-33.9
-33.875
-33.85
-33.825
-33.8
-33.775
-33.75
-33.725
-33.7
-33.675
-33.65
-33.625
-33.6
-33.575
-33.55
-33.525
-33.5
-33.475
-33.45
-33.425
-33.4
-33.375
-33.35
-33.325
-33.3
-33.275
-33.25
-33.225
-33.2
-33.175
-33.15
-33.125
-33.1
-33.075
-33.05
-33.025
-33
-32.975
-32.95
-32.925
-32.9
-32.875
-32.85
-32.825
-32.8
-32.775
-32.75
-32.725
-32.7
-32.675
-32.65
-32.625
-32.6
-32.575
-32.55
-32.525
-32.5
-32.475
-32.45
-32.425
-32.4
-32.375
-32.35
-32.325
-32.3
-32.275
-32.25
-32.225
-32.2
-32.175
-32.15
-32.125
-32.1
-32.075
-32.05
-32.025
-32
-31.975
-31.95
-31.925
-31.9
-31.875
-31.85
-31.825
-31.8
-31.775
-31.75
-31.725
-31.7
-31.675
-31.65
-31.625
-31.6
-31.575
-31.55
-31.525
-31.5
-31.475
-31.45
-31.425
-31.4
-31.375
-31.35
-31.325
-31.3
-31.275
-31.25
-31.225
-31.2
-31.175
-31.15
-31.125
-31.1
-31.075
-31.05
-31.025
-31
-30.975
-30.95
-30.925
-30.9
-30.875
-30.85
-30.825
-30.8
-30.775
-30.75
-30.725
-30.7
-30.675
-30.65
-30.625
-30.6
-30.575
-30.55
-30.525
-30.5
-30.475
-30.45
-30.425
-30.4
-30.375
-30.35
-30.325
-30.3
-30.275
-30.25
-30.225
-30.2
-30.175
-30.15
-30.125
-30.1
-30.075
-30.05
-30.025
-30
-29.975
-29.95
-29.925
-29.9
-29.875
-29.85
-29.825
-29.8
-29.775
-29.75
-29.725
-29.7
-29.675
-29.65
-29.625
-29.6
-29.575
-29.55
-29.525
-29.5
-29.475
-29.45
-29.425
-29.4
-29.375
-29.35
-29.325
-29.3
-29.275
-29.25
-29.225
-29.2
-29.175
-29.15
-29.125
-29.1
-29.075
-29.05
-29.025
-29
-28.975
-28.95
-28.925
-28.9
-28.875
-28.85
-28.825
-28.8
-28.775
-28.75
-28.725
-28.7
-28.675
-28.65
-28.625
-28.6
-28.575
-28.55
-28.525
-28.5
-28.475
-28.45
-28.425
-28.4
-28.375
-28.35
-28.325
-28.3
-28.275
-28.25
-28.225
-28.2
-28.175
-28.15
-28.125
-28.1
-28.075
-28.05
-28.025
-28
-27.975
-27.95
-27.925
-27.9
-27.875
-27.85
-27.825
-27.8
-27.775
-27.75
-27.725
-27.7
-27.675
-27.65
-27.625
-27.6
-27.575
-27.55
-27.525
-27.5
-27.475
-27.45
-27.425
-27.4
-27.375
-27.35
-27.325
-27.3
-27.275
-27.25
-27.225
-27.2
-27.175
-27.15
-27.125
-27.1
-27.075
-27.05
-27.025
-27
-26.975
-26.95
-26.925
-26.9
-26.875
-26.85
-26.825
-26.8
-26.775
-26.75
-26.725
-26.7
-26.675
-26.65
-26.625
-26.6
-26.575
-26.55
-26.525
-26.5
-26.475
-26.45
-26.425
-26.4
-26.375
-26.35
-26.325
-26.3
-26.275
-26.25
-26.225
-26.2
-26.175
-26.15
-26.125
-26.1
-26.075
-26.05
-26.025
-26
-25.975
-25.95
-25.925
-25.9
-25.875
-25.85
-25.825
-25.8
-25.775
-25.75
-25.725
-25.7
-25.675
-25.65
-25.625
-25.6
-25.575
-25.55
-25.525
-25.5
-25.475
-25.45
-25.425
-25.4
-25.375
-25.35
-25.325
-25.3
-25.275
-25.25
-25.225
-25.2
-25.175
-25.15
-25.125
-25.1
-25.075
-25.05
-25.025
-25
-24.975
-24.95
-24.925
-24.9
-24.875
-24.85
-24.825
-24.8
-24.775
-24.75
-24.725
-24.7
-24.675
-24.65
-24.625
-24.6
-24.575
-24.55
-24.525
-24.5
-24.475
-24.45
-24.425
-24.4
-24.375
-24.35
-24.325
-24.3
-24.275
-24.25
-24.225
-24.2
-24.175
-24.15
-24.125
-24.1
-24.075
-24.05
-24.025
-24
-23.975
-23.95
-23.925
-23.9
-23.875
-23.85
-23.825
-23.8
-23.775
-23.75
-23.725
-23.7
-23.675
-23.65
-23.625
-23.6
-23.575
-23.55
-23.525
-23.5
-23.475
-23.45
-23.425
-23.4
-23.375
-23.35
-23.325
-23.3
-23.275
-23.25
-23.225
-23.2
-23.175
-23.15
-23.125
-23.1
-23.075
-23.05
-23.025
-23
-22.975
-22.95
-22.925
-22.9
-22.875
-22.85
-22.825
-22.8
-22.775
-22.75
-22.725
-22.7
-22.675
-22.65
-22.625
-22.6
-22.575
-22.55
-22.525
-22.5
-22.475
-22.45
-22.425
-22.4
-22.375
-22.35
-22.325
-22.3
-22.275
-22.25
-22.225
-22.2
-22.175
-22.15
-22.125
-22.1
-22.075
-22.05
-22.025
-22
-21.975
-21.95
-21.925
-21.9
-21.875
-21.85
-21.825
-21.8
-21.775
-21.75
-21.725
-21.7
-21.675
-21.65
-21.625
-21.6
-21.575
-21.55
-21.525
-21.5
-21.475
-21.45
-21.425
-21.4
-21.375
-21.35
-21.325
-21.3
-21.275
-21.25
-21.225
-21.2
-21.175
-21.15
-21.125
-21.1
-21.075
-21.05
-21.025
-21
-20.975
-20.95
-20.925
-20.9
-20.875
-20.85
-20.825
-20.8
-20.775
-20.75
-20.725
-20.7
-20.675
-20.65
-20.625
-20.6
-20.575
-20.55
-20.525
-20.5
-20.475
-20.45
-20.425
-20.4
-20.375
-20.35
-20.325
-20.3
-20.275
-20.25
-20.225
-20.2
-20.175
-20.15
-20.125
-20.1
-20.075
-20.05
-20.025
-20
VAR_LIST_END
BEGIN
-15.292039,-162.79401
-14.243985,-164.70018
-14.964341,-153.33965
-15.119621,-162.28342
-15.425017,-158.25763
-14.85349,-164.92653
-15.364527,-159.96758
-14.938899,-162.13634
-15.78923,-160.33897
-14.960146,-159.63757
-14.822292,-162.37254
-15.437395,-164.6389
-15.282042,-154.66852
-14.773694,-160.65764
-15.460337,-163.42554
-15.410835,-164.7738
-15.060564,-155.7173
-14.737978,-164.4192
-15.285916,-156.91179
-15.011771,-164.37425
-14.050496,-161.38264
-14.551885,-154.90604
-15.079294,-158.08661
-15.166242,-164.07423
-14.949611,-165.32933
-15.477844,-163.87758
-15.297509,-158.67064
-15.368018,-157.12762
-15.562052,-163.11757
-15.281026,-156.35562
-15.537666,-162.25369
-15.175884,-165.76509
-15.372221,-162.42381
-15.677101,-165.76543
-14.156643,-162.43745
-15.787607,-158.37788
-15.012026,-166.03143
-15.184482,-158.58319
-14.577294,-161.37448
-15.208733,-160.93629
-15.084002,-163.6725
-15.380371,-161.48608
-15.044075,-161.17104
-14.586526,-166.86458
-14.883014,-162.59769
-14.999356,-159.44722
-15.707699,-160.01709
-16.219477,-160.52986
-15.469028,-155.69928
-15.53263,-163.30731
-15.207966,-161.36151
-14.504114,-162.69943
-14.625794,-161.01845
-15.382221,-157.41254
-15.290971,-161.44411
-14.524503,-158.80537
-15.789726,-165.56795
-14.943124,-157.15184
-14.620499,-156.66675
-14.661272,-160.60284
-14.78032,-166.87785
-14.613955,-161.86247
-14.898465,-158.1673
-15.383615,-161.08531
-14.542918,-166.40109
-14.917817,-157.67702
-15.002699,-161.07463
-15.741678,-165.4756
-15.086849,-162.33997
-15.044581,-157.98662
-14.938795,-163.90863
-15.084829,-160.2305
-15.682917,-164.59421
-14.970591,-163.15254
-15.402781,-157.79024
-15.339676,-155.92451
-14.645221,-163.84099
-15.160639,-161.55797
-14.917657,-166.33665
-15.279439,-161.46832
-14.721456,-162.43321
-15.579772,-160.6086
-15.148801,-166.45018
-15.343822,-158.71298
-14.952062,-158.63354
-15.181132,-156.48811
-14.905599,-160.00591
-14.886924,-160.2245
-15.579328,-165.18689
-15.430788,-163.11685
-14.706962,-162.88356
-14.268577,-162.79453
-14.935719,-160.5331
-15.651665,-159.94777
-14.736277,-159.39261
-15.394692,-162.34886
-14.780016,-161.76953
-15.782409,-154.01149
-15.659805,-167.02249
-15.310584,-163.28557
-14.882998,-158.71989
-14.653774,-159.95282
-14.526329,-165.76585
-14.632942,-163.57837
-14.854461,-159.25294
-15.580504,-159.14787
-14.561707,-162.93694
-14.77015,-156.44455
-15.196179,-158.04095
-15.391698,-160.61203
-15.432569,-168.67824
-14.819103,-166.53734
-16.131886,-157.82603
-15.201492,-160.59927
-15.196078,-163.57159
-15.103706,-165.09903
-14.561537,-157.93181
-15.097336,-162.96877
-14.838222,-161.52168
-14.275079,-160.12584
-15.487657,-159.77069
-14.896396,-163.23962
-14.391235,-160.1736
-14.740701,-158.95486
-15.513401,-160.01265
-15.171844,-162.40009
-14.660861,-162.56343
-14.565776,-160.74696
-15.515867,-164.134
-14.65684,-160.91217
-14.557282,-160.06677
-15.047652,-164.42393
-14.711849,-162.54562
-14.179447,-160.80351
-15.16067,-163.07819
-15.394369,-161.37021
-14.989039,-160.05324
-15.041551,-160.51181
-15.304945,-160.6212
-15.23607,-161.29092
-15.036941,-158.69312
-14.938399,-165.67096
-14.408689,-161.58386
-14.947552,-161.31816
-15.173518,-162.59798
-15.184464,-160.83839
-15.339444,-161.8904
-15.40752,-159.4565
-14.825021,-164.64043
-14.92397,-162.98547
-14.444352,-159.50888
-15.599228,-163.27542
-14.674726,-160.86032
-15.600058,-160.21947
-14.811033,-158.53709
-15.088823,-156.86458
-15.10377,-159.7579
-15.169553,-160.43234
-15.300661,-162.6678
-15.016762,-160.92926
-14.985214,-162.97885
-15.548881,-160.94066
-15.1047,-161.38345
-15.543208,-161.79718
-15.224482,-157.58076
-15.231177,-159.92055
-15.169556,-163.15071
-14.903146,-163.79948
-15.212249,-161.42262
-14.783961,-158.48395
-15.218584,-160.59242
-14.807342,-162.43719
-14.827599,-163.1409
-14.769266,-159.39513
-15.020078,-162.74284
-15.193146,-162.6544
-14.918932,-158.61452
-15.384731,-162.14539
-15.02705,-160.55673
-15.15791,-157.32921
-15.151453,-158.12233
-15.085853,-161.36914
-15.36826,-161.0984
-15.172595,-164.40979
-14.534387,-158.46945
-15.319908,-159.30505
-14.893356,-163.11827
-14.26829,-161.82356
-14.826883,-161.03168
-14.875957,-161.36545
-15.602473,-160.00558
-14.927559,-156.53165
-14.745961,-159.27136
-14.282409,-158.93733
-15.246467,-158.60133
-14.575247,-160.28677
-15.082428,-157.37181
-15.437448,-159.76814
-14.846431,-159.88455
-15.140414,-162.52162
-15.311101,-158.96461
-14.813232,-161.62204
-14.850683,-162.39857
-15.083345,-162.82123
-14.995766,-161.4292
-15.078867,-160.93634
-15.083297,-160.23315
-15.440004,-164.539
-15.382527,-158.33928
-14.59028,-160.67136
-15.191518,-160.78911
-14.931814,-163.47566
-15.54299,-162.22426
-15.59551,-159.64616
-15.167846,-159.38321
-14.971464,-161.10246
-15.662045,-160.56044
-15.075011,-161.01299
-14.961305,-161.33986
-15.194621,-156.63885
-15.038072,-164.55659
-15.275191,-161.38959
-15.141376,-159.45139
-14.972856,-163.49091
-15.473139,-158.30531
-14.713978,-162.95564
-14.9861,-164.43668
-15.052382,-158.56746
-14.897809,-163.35498
-15.46549,-160.8121
-14.682182,-162.72777
-14.488392,-160.41786
-14.57278,-159.21295
-14.907224,-159.8381
-15.008069,-164.2661
-14.597357,-163.43347
-15.229104,-162.54927
-15.158675,-158.56657
-15.124072,-157.58722
-14.83478,-159.94173
-14.885036,-159.32285
-14.915843,-161.02588
-15.027564,-161.86583
-15.470945,-159.81956
-14.908386,-161.36893
-14.781923,-162.70497
-15.24466,-163.65732
-15.174838,-163.08278
-14.544891,-163.31702
-14.761496,-160.42738
-15.624463,-161.04897
-15.164029,-163.75003
-14.87191,-163.37888
-14.818382,-163.68048
-15.35711,-163.3277
-15.192701,-161.89984
-15.236084,-156.66304
-14.895975,-160.68617
-15.273443,-161.55789
-15.073948,-160.61934
-15.197003,-159.87869
-14.745271,-161.05455
-15.108456,-160.22362
-15.004051,-157.92282
-14.925967,-163.93614
-15.03603,-160.84991
-15.048383,-160.86954
-15.071972,-159.42805
-15.205873,-162.37755
-15.324858,-161.70122
-14.671408,-163.80115
-15.461288,-160.65302
-15.372395,-159.69196
-15.403719,-161.0493
-15.04387,-159.07921
-15.129266,-159.86566
-14.742439,-164.10034
-15.348383,-161.88733
-14.884459,-159.97878
-14.594354,-160.7513
-14.913765,-161.06908
-14.79363,-160.06696
-15.447897,-161.83163
-15.012912,-162.7476
-14.893863,-159.37187
-15.114295,-162.31563
-14.959495,-162.17705
-15.519813,-162.8837
-14.863544,-160.11899
-15.001513,-160.87651
-14.995584,-162.53928
-15.352733,-161.19844
-15.394636,-162.22015
-14.722473,-164.1181
-15.356004,-160.28647
-15.384243,-160.70427
-14.965211,-158.38422
-14.976007,-162.29308
-14.875257,-161.05054
-15.024512,-159.59113
-14.796457,-162.58606
-14.656519,-162.87473
-15.01976,-163.98474
-15.389161,-159.1577
-15.489042,-160.97598
-15.339033,-163.54005
-14.896651,-159.94221
-14.690419,-162.18663
-15.47272,-160.90309
-15.204971,-161.92842
-14.84672,-161.9173
-15.324394,-162.26408
-14.958578,-161.9149
-14.720277,-160.49193
-14.973624,-160.93321
-14.790675,-159.32806
-14.727023,-160.51585
-14.723119,-158.12848
-15.189986,-163.53784
-14.854312,-159.98367
-15.192925,-159.73404
-15.164897,-158.1658
-15.15705,-158.60786
-15.048107,-162.12907
-15.076548,-161.81348
-15.22711,-160.54909
-15.152645,-160.11134
-14.849024,-160.97752
-14.851867,-159.19383
-15.318072,-160.89952
-14.936115,-163.04787
-15.412202,-161.05005
-15.149902,-162.95311
-15.372575,-160.3038
-15.402633,-160.17183
-15.436399,-160.66597
-15.200625,-160.89575
-14.718516,-159.20264
-15.24289,-161.88335
-14.79601,-161.60159
-15.526255,-164.16844
-14.781587,-161.60855
-14.855022,-161.34923
-14.650611,-162.17963
-14.816616,-161.31606
-15.391916,-160.43158
-15.157651,-161.05165
-15.284069,-162.59659
-15.3292,-159.90297
-15.171144,-161.64107
-15.442594,-160.15457
-14.663583,-160.0945
-15.289289,-158.29929
-15.309392,-160.459
-14.898268,-160.69464
-15.331568,-159.41756
-15.179554,-162.7795
-15.040381,-161.45341
-15.232171,-160.42863
-15.317155,-161.81886
-15.352827,-159.84633
-15.01618,-160.38922
-15.419755,-160.45782
-14.975861,-162.61757
-15.019219,-161.66087
-14.839837,-163.92499
-15.380563,-159.55066
-15.088958,-160.52187
-14.673082,-160.04225
-15.03616,-159.3154
-14.794067,-162.938
-14.921258,-162.64752
-14.969766,-162.69417
-15.202852,-160.96091
-14.750369,-161.99556
-14.988436,-159.88841
-14.926763,-159.17581
-15.279379,-161.30937
-15.447069,-163.24051
-15.082418,-161.42097
-14.838258,-160.35963
-14.629584,-159.81143
-14.762456,-162.61653
-15.310913,-160.13829
-15.0371,-160.12248
-15.348121,-163.17184
-14.809455,-161.47134
-14.716104,-161.32509
-15.064271,-159.44266
-14.977942,-161.83401
-14.954494,-158.23004
-15.062834,-161.58447
-15.037896,-161.72459
-15.082175,-159.53563
-15.239776,-162.82307
-15.119851,-160.52553
-15.461626,-161.06172
-14.974623,-160.17297
-15.012108,-160.98033
-14.982357,-160.81372
-14.648336,-162.17972
-15.243687,-158.56903
-15.114036,-161.76105
-14.899406,-163.12625
-15.423286,-160.75908
-15.319371,-159.13548
-14.794419,-159.34108
-15.165631,-160.37228
-14.921373,-159.03918
-15.208959,-160.03616
-15.193432,-161.80618
-14.949696,-160.13217
-14.752585,-161.85219
-15.069272,-162.6467
-15.096892,-160.91144
-15.091459,-161.95872
-15.341081,-160.95656
-14.989857,-161.21176
-14.982347,-160.31662
-14.928294,-159.91084
-15.026718,-161.43076
-15.1037,-160.1534
-15.022244,-159.41173
-15.11923,-161.4501
-15.212044,-159.83456
-15.032013,-163.40051
-15.023661,-161.35962
-15.168331,-161.10269
-15.124997,-163.19595
-14.8956,-163.96477
-14.964657,-160.23091
-14.86375,-159.92773
-15.257352,-161.02354
-15.209584,-161.78743
-15.298922,-160.77505
-14.927958,-159.28647
-14.759717,-160.59975
-15.227876,-162.17429
-14.949879,-159.62856
-15.257876,-162.93362
-14.941174,-162.27873
-15.32998,-161.15146
-14.850549,-160.13435
-14.996634,-160.72701
-14.991827,-162.24303
-14.910892,-161.43179
-15.121056,-161.56805
-14.874927,-160.74744
-15.167966,-161.09222
-15.241842,-158.68274
-15.0299,-160.8791
-15.338936,-161.4218
-14.535628,-162.55997
-14.872795,-160.07051
-15.159663,-160.0206
-15.016771,-160.43852
-14.890814,-160.02483
-15.071609,-160.13455
-15.33415,-162.52678
-15.16488,-161.08931
-14.829845,-162.06024
-15.002032,-160.26228
-14.96024,-161.21758
-14.743112,-161.32538
-15.06083,-163.47618
-14.974304,-159.97443
-15.240325,-160.84232
-15.321709,-162.46219
-14.775312,-160.45218
-15.193037,-160.83447
-15.300086,-161.36395
-15.17174,-161.47519
-15.096562,-162.0235
-15.194597,-161.29727
-14.965943,-161.70714
-15.142506,-160.12106
-15.077898,-162.2449
-15.053496,-162.65506
-14.929518,-159.75743
-14.923155,-162.14951
-14.808887,-162.06479
-14.932968,-161.02711
-14.951534,-160.84294
-14.934306,-158.90179
-15.017471,-160.63425
-14.720003,-160.64789
-15.041066,-162.10312
-14.997094,-161.32721
-15.022299,-160.00163
-14.926585,-162.19662
-15.021443,-160.16238
-15.093275,-161.77138
-15.052879,-161.23619
-15.144202,-158.76485
-15.187881,-161.01787
-15.020898,-160.69829
-14.972444,-161.76299
-15.21093,-161.33311
-15.226446,-162.86375
-14.971464,-160.00047
-15.002792,-161.54222
-15.279016,-160.97403
-15.169613,-160.16272
-14.997723,-161.07896
-15.032609,-160.93408
-15.166711,-161.8627
-15.008856,-160.90698
-15.047315,-160.9518
-14.979461,-161.39838
-14.946796,-160.75966
-15.09723,-162.2076
-15.178687,-161.17319
-15.04559,-161.70287
-15.041244,-161.13712
-15.13211,-159.76375
-14.873145,-160.56989
-14.795147,-161.37216
-14.959431,-160.16364
-15.067277,-160.69536
-15.16018,-160.67505
-15.040991,-160.57802
-14.777358,-160.92505
-15.193726,-161.6794
-15.057389,-161.85941
-15.118176,-160.72667
-15.153909,-161.78859
-14.90546,-159.81639
-15.002198,-161.99582
-14.842657,-161.75273
-15.000101,-160.71646
-15.292004,-161.03598
-15.101114,-160.61057
-15.194951,-160.24908
-14.951294,-161.68935
-14.945161,-160.26028
-15.165142,-160.53542
-15.153882,-160.70702
-14.90947,-161.32301
-15.067266,-160.81737
-14.868858,-161.15012
-14.874193,-162.21642
-14.84697,-161.13487
-14.877186,-159.89613
-15.095325,-162.01152
-15.073317,-161.38284
-14.989058,-162.66885
-14.885213,-162.50726
-15.082233,-162.79817
-14.889597,-161.42714
-15.193572,-161.39592
-14.869192,-161.32791
-15.003046,-159.90384
-15.016899,-161.67233
-15.03526,-161.37891
-15.127068,-161.55756
-14.9554,-162.51027
-14.891376,-161.13725
-15.095929,-160.27501
-15.083518,-161.35899
-15.106991,-161.70992
-15.066998,-160.82018
-15.132129,-161.37151
-15.102374,-161.07544
-15.104561,-160.28354
-15.046899,-160.08781
-14.965816,-160.69484
-14.993272,-160.95753
-14.88915,-160.97195
-14.80339,-161.71471
-14.972355,-161.93181
-15.071892,-160.49117
-14.911569,-161.72089
-15.26902,-162.50397
-15.113887,-160.77615
-14.992194,-160.61752
-15.060664,-160.60455
