CITIFILE A.01.01
!Agilent Technologies,N5230C,MY48100142,A.08.04.10
!Agilent N5230C: A.08.04.10
!Format: LogMag/Angle
!Date: Monday, September 14, 2020 10:26:42
NAME CH1_DATA
VAR Power MAG 801
DATA S11 DBANGLE
DATA S21 DBANGLE
DATA S12 DBANGLE
DATA S22 DBANGLE
VAR_LIST_BEGIN
-40
-39.975
-39.95
-39.925
-39.9
-39.875
-39.85
-39.825
-39.8
-39.775
-39.75
-39.725
-39.7
-39.675
-39.65
-39.625
-39.6
-39.575
-39.55
-39.525
-39.5
-39.475
-39.45
-39.425
-39.4
-39.375
-39.35
-39.325
-39.3
-39.275
-39.25
-39.225
-39.2
-39.175
-39.15
-39.125
-39.1
-39.075
-39.05
-39.025
-39
-38.975
-38.95
-38.925
-38.9
-38.875
-38.85
-38.825
-38.8
-38.775
-38.75
-38.725
-38.7
-38.675
-38.65
-38.625
-38.6
-38.575
-38.55
-38.525
-38.5
-38.475
-38.45
-38.425
-38.4
-38.375
-38.35
-38.325
-38.3
-38.275
-38.25
-38.225
-38.2
-38.175
-38.15
-38.125
-38.1
-38.075
-38.05
-38.025
-38
-37.975
-37.95
-37.925
-37.9
-37.875
-37.85
-37.825
-37.8
-37.775
-37.75
-37.725
-37.7
-37.675
-37.65
-37.625
-37.6
-37.575
-37.55
-37.525
-37.5
-37.475
-37.45
-37.425
-37.4
-37.375
-37.35
-37.325
-37.3
-37.275
-37.25
-37.225
-37.2
-37.175
-37.15
-37.125
-37.1
-37.075
-37.05
-37.025
-37
-36.975
-36.95
-36.925
-36.9
-36.875
-36.85
-36.825
-36.8
-36.775
-36.75
-36.725
-36.7
-36.675
-36.65
-36.625
-36.6
-36.575
-36.55
-36.525
-36.5
-36.475
-36.45
-36.425
-36.4
-36.375
-36.35
-36.325
-36.3
-36.275
-36.25
-36.225
-36.2
-36.175
-36.15
-36.125
-36.1
-36.075
-36.05
-36.025
-36
-35.975
-35.95
-35.925
-35.9
-35.875
-35.85
-35.825
-35.8
-35.775
-35.75
-35.725
-35.7
-35.675
-35.65
-35.625
-35.6
-35.575
-35.55
-35.525
-35.5
-35.475
-35.45
-35.425
-35.4
-35.375
-35.35
-35.325
-35.3
-35.275
-35.25
-35.225
-35.2
-35.175
-35.15
-35.125
-35.1
-35.075
-35.05
-35.025
-35
-34.975
-34.95
-34.925
-34.9
-34.875
-34.85
-34.825
-34.8
-34.775
-34.75
-34.725
-34.7
-34.675
-34.65
-34.625
-34.6
-34.575
-34.55
-34.525
-34.5
-34.475
-34.45
-34.425
-34.4
-34.375
-34.35
-34.325
-34.3
-34.275
-34.25
-34.225
-34.2
-34.175
-34.15
-34.125
-34.1
-34.075
-34.05
-34.025
-34
-33.975
-33.95
-33.925
-33.9
-33.875
-33.85
-33.825
-33.8
-33.775
-33.75
-33.725
-33.7
-33.675
-33.65
-33.625
-33.6
-33.575
-33.55
-33.525
-33.5
-33.475
-33.45
-33.425
-33.4
-33.375
-33.35
-33.325
-33.3
-33.275
-33.25
-33.225
-33.2
-33.175
-33.15
-33.125
-33.1
-33.075
-33.05
-33.025
-33
-32.975
-32.95
-32.925
-32.9
-32.875
-32.85
-32.825
-32.8
-32.775
-32.75
-32.725
-32.7
-32.675
-32.65
-32.625
-32.6
-32.575
-32.55
-32.525
-32.5
-32.475
-32.45
-32.425
-32.4
-32.375
-32.35
-32.325
-32.3
-32.275
-32.25
-32.225
-32.2
-32.175
-32.15
-32.125
-32.1
-32.075
-32.05
-32.025
-32
-31.975
-31.95
-31.925
-31.9
-31.875
-31.85
-31.825
-31.8
-31.775
-31.75
-31.725
-31.7
-31.675
-31.65
-31.625
-31.6
-31.575
-31.55
-31.525
-31.5
-31.475
-31.45
-31.425
-31.4
-31.375
-31.35
-31.325
-31.3
-31.275
-31.25
-31.225
-31.2
-31.175
-31.15
-31.125
-31.1
-31.075
-31.05
-31.025
-31
-30.975
-30.95
-30.925
-30.9
-30.875
-30.85
-30.825
-30.8
-30.775
-30.75
-30.725
-30.7
-30.675
-30.65
-30.625
-30.6
-30.575
-30.55
-30.525
-30.5
-30.475
-30.45
-30.425
-30.4
-30.375
-30.35
-30.325
-30.3
-30.275
-30.25
-30.225
-30.2
-30.175
-30.15
-30.125
-30.1
-30.075
-30.05
-30.025
-30
-29.975
-29.95
-29.925
-29.9
-29.875
-29.85
-29.825
-29.8
-29.775
-29.75
-29.725
-29.7
-29.675
-29.65
-29.625
-29.6
-29.575
-29.55
-29.525
-29.5
-29.475
-29.45
-29.425
-29.4
-29.375
-29.35
-29.325
-29.3
-29.275
-29.25
-29.225
-29.2
-29.175
-29.15
-29.125
-29.1
-29.075
-29.05
-29.025
-29
-28.975
-28.95
-28.925
-28.9
-28.875
-28.85
-28.825
-28.8
-28.775
-28.75
-28.725
-28.7
-28.675
-28.65
-28.625
-28.6
-28.575
-28.55
-28.525
-28.5
-28.475
-28.45
-28.425
-28.4
-28.375
-28.35
-28.325
-28.3
-28.275
-28.25
-28.225
-28.2
-28.175
-28.15
-28.125
-28.1
-28.075
-28.05
-28.025
-28
-27.975
-27.95
-27.925
-27.9
-27.875
-27.85
-27.825
-27.8
-27.775
-27.75
-27.725
-27.7
-27.675
-27.65
-27.625
-27.6
-27.575
-27.55
-27.525
-27.5
-27.475
-27.45
-27.425
-27.4
-27.375
-27.35
-27.325
-27.3
-27.275
-27.25
-27.225
-27.2
-27.175
-27.15
-27.125
-27.1
-27.075
-27.05
-27.025
-27
-26.975
-26.95
-26.925
-26.9
-26.875
-26.85
-26.825
-26.8
-26.775
-26.75
-26.725
-26.7
-26.675
-26.65
-26.625
-26.6
-26.575
-26.55
-26.525
-26.5
-26.475
-26.45
-26.425
-26.4
-26.375
-26.35
-26.325
-26.3
-26.275
-26.25
-26.225
-26.2
-26.175
-26.15
-26.125
-26.1
-26.075
-26.05
-26.025
-26
-25.975
-25.95
-25.925
-25.9
-25.875
-25.85
-25.825
-25.8
-25.775
-25.75
-25.725
-25.7
-25.675
-25.65
-25.625
-25.6
-25.575
-25.55
-25.525
-25.5
-25.475
-25.45
-25.425
-25.4
-25.375
-25.35
-25.325
-25.3
-25.275
-25.25
-25.225
-25.2
-25.175
-25.15
-25.125
-25.1
-25.075
-25.05
-25.025
-25
-24.975
-24.95
-24.925
-24.9
-24.875
-24.85
-24.825
-24.8
-24.775
-24.75
-24.725
-24.7
-24.675
-24.65
-24.625
-24.6
-24.575
-24.55
-24.525
-24.5
-24.475
-24.45
-24.425
-24.4
-24.375
-24.35
-24.325
-24.3
-24.275
-24.25
-24.225
-24.2
-24.175
-24.15
-24.125
-24.1
-24.075
-24.05
-24.025
-24
-23.975
-23.95
-23.925
-23.9
-23.875
-23.85
-23.825
-23.8
-23.775
-23.75
-23.725
-23.7
-23.675
-23.65
-23.625
-23.6
-23.575
-23.55
-23.525
-23.5
-23.475
-23.45
-23.425
-23.4
-23.375
-23.35
-23.325
-23.3
-23.275
-23.25
-23.225
-23.2
-23.175
-23.15
-23.125
-23.1
-23.075
-23.05
-23.025
-23
-22.975
-22.95
-22.925
-22.9
-22.875
-22.85
-22.825
-22.8
-22.775
-22.75
-22.725
-22.7
-22.675
-22.65
-22.625
-22.6
-22.575
-22.55
-22.525
-22.5
-22.475
-22.45
-22.425
-22.4
-22.375
-22.35
-22.325
-22.3
-22.275
-22.25
-22.225
-22.2
-22.175
-22.15
-22.125
-22.1
-22.075
-22.05
-22.025
-22
-21.975
-21.95
-21.925
-21.9
-21.875
-21.85
-21.825
-21.8
-21.775
-21.75
-21.725
-21.7
-21.675
-21.65
-21.625
-21.6
-21.575
-21.55
-21.525
-21.5
-21.475
-21.45
-21.425
-21.4
-21.375
-21.35
-21.325
-21.3
-21.275
-21.25
-21.225
-21.2
-21.175
-21.15
-21.125
-21.1
-21.075
-21.05
-21.025
-21
-20.975
-20.95
-20.925
-20.9
-20.875
-20.85
-20.825
-20.8
-20.775
-20.75
-20.725
-20.7
-20.675
-20.65
-20.625
-20.6
-20.575
-20.55
-20.525
-20.5
-20.475
-20.45
-20.425
-20.4
-20.375
-20.35
-20.325
-20.3
-20.275
-20.25
-20.225
-20.2
-20.175
-20.15
-20.125
-20.1
-20.075
-20.05
-20.025
-20
VAR_LIST_END
BEGIN
-17.440758,-159.09482
-17.353209,-164.91566
-16.594702,-164.58929
-16.576735,-154.02534
-16.016314,-156.64223
-14.019744,-168.936
-13.511351,-150.21486
-15.245033,-170.83691
-13.312214,-154.65318
-17.176638,-168.48372
-18.222836,-148.45306
-16.475489,-146.21909
-16.134516,-169.29892
-13.948054,-147.89909
-14.396265,-175.02811
-15.241836,-168.20747
-15.428217,-178.24583
-15.825275,-159.77536
-14.763618,-161.95337
-14.072877,-154.18422
-13.91006,-161.93779
-14.129478,-158.77084
-14.530488,-166.31165
-14.55866,-159.2057
-16.158199,-166.9216
-15.399383,-151.66623
-13.873066,-164.00513
-16.607592,-149.88467
-17.826405,-161.65346
-14.07115,-168.92322
-16.96674,-157.13493
-16.402054,-160.21576
-13.863801,-163.66328
-12.972253,-154.03978
-15.020849,-154.0047
-16.948227,-163.01248
-12.932927,-164.12596
-16.473045,-145.55357
-13.275435,-156.06081
-14.845816,-162.64618
-14.035879,-162.04416
-14.612176,-156.62059
-13.925406,-165.17783
-15.763023,-171.25078
-14.744033,-177.9057
-13.423657,-165.72525
-13.852835,-162.90062
-16.247339,-167.45345
-13.155562,-160.20772
-14.296857,-162.39032
-14.864844,-147.66646
-16.257528,-169.39001
-14.131583,-164.20258
-14.24959,-161.71373
-15.051258,-166.84883
-14.787061,-164.6003
-15.46746,-165.22292
-17.242718,-154.58432
-15.426855,-164.57355
-17.184574,-163.37946
-14.145844,-175.59052
-13.479904,-170.73792
-13.396963,-162.80652
-14.263547,-160.75394
-14.372545,-162.96037
-15.241028,-157.83582
-16.058743,-149.38405
-17.631941,-168.6395
-15.5593,-165.53156
-13.399595,-148.60873
-14.813591,-157.50044
-14.683058,-163.83362
-16.944893,-161.39886
-13.958284,-173.60092
-15.366153,-160.94516
-14.314963,-157.28139
-15.454217,-164.95596
-16.574469,-165.34964
-16.224375,-158.14912
-15.281135,-160.70389
-17.177177,-167.73257
-15.027845,-162.45909
-14.706919,-165.18878
-15.418901,-167.38812
-16.018238,-159.58905
-16.728594,-159.01535
-14.202013,-164.17986
-16.354889,-157.27313
-14.450027,-168.62463
-13.334416,-156.06969
-14.660434,-177.35135
-14.375369,-159.71495
-13.76333,-157.99196
-14.927117,-158.86763
-14.626325,-157.30821
-14.383008,-166.2695
-15.75376,-158.3533
-12.913722,-167.38066
-15.55096,-172.69318
-14.358932,-159.53337
-15.824047,-160.03685
-13.674526,-154.26035
-14.343897,-164.4268
-15.395063,-168.19119
-14.194114,-148.51974
-14.60445,-152.57666
-14.609349,-158.8886
-13.777853,-159.95799
-13.929056,-160.80763
-18.0147,-157.13757
-15.829649,-162.76259
-14.647157,-166.81253
-15.735202,-167.96649
-14.986829,-148.04926
-15.759254,-159.86609
-14.745206,-166.42676
-16.132359,-157.33998
-14.703646,-163.03163
-15.626131,-161.32878
-16.359499,-165.03941
-14.109801,-159.40056
-15.145759,-166.8315
-15.014504,-164.98621
-14.468533,-164.56735
-15.097784,-160.40598
-14.092774,-159.51497
-15.409245,-167.47852
-14.81953,-161.65891
-15.939218,-152.61171
-15.657348,-159.57672
-15.007771,-162.9937
-16.419271,-163.15779
-16.034048,-169.48343
-16.391228,-152.18613
-17.262329,-150.54474
-15.030292,-158.54652
-17.183722,-164.42429
-14.907083,-166.11543
-14.694303,-165.83893
-14.817718,-168.72287
-16.695429,-147.52887
-15.857471,-166.66895
-13.810379,-158.79277
-15.018415,-166.5793
-15.758945,-166.65334
-15.245723,-163.60353
-14.884646,-165.92355
-15.759058,-163.22643
-14.357466,-158.0639
-14.417142,-163.53011
-15.944941,-155.85732
-16.782429,-159.80643
-14.644649,-154.0694
-13.495328,-158.28409
-14.453493,-156.25349
-14.174308,-161.98526
-15.278823,-159.69592
-14.933991,-159.23402
-15.227041,-169.27301
-14.243808,-164.61133
-14.488151,-160.18962
-14.350962,-158.39168
-16.889912,-166.25705
-15.034292,-155.85219
-15.160013,-154.39854
-14.207151,-168.2341
-16.877453,-168.49501
-14.953877,-165.48839
-14.511616,-168.96196
-15.536031,-160.10239
-15.583828,-160.9863
-14.687208,-155.29103
-15.769351,-163.64346
-14.75804,-163.29097
-14.795814,-165.00102
-14.816093,-168.22957
-15.09653,-159.15736
-14.472579,-157.40314
-15.711228,-159.23705
-13.78686,-162.73415
-15.388377,-156.61952
-14.310535,-163.66612
-15.149756,-157.37712
-14.88523,-163.46021
-15.885028,-152.95888
-14.000543,-163.13615
-15.260148,-152.1125
-15.058781,-153.54407
-14.766393,-167.92903
-15.953468,-161.69115
-14.387675,-149.03636
-14.933873,-163.68881
-14.127821,-164.13782
-15.109955,-162.86488
-14.988371,-157.01076
-15.115244,-160.76884
-16.380629,-160.45421
-15.440051,-162.80115
-14.124046,-159.53104
-15.911444,-152.42657
-13.983958,-162.10052
-16.015678,-153.46446
-14.848279,-163.71106
-15.103114,-158.52287
-16.285545,-152.60504
-16.157724,-167.81967
-15.580357,-159.75758
-14.328141,-173.54407
-14.604008,-165.69574
-15.602384,-171.43904
-15.264808,-164.39951
-14.85921,-165.88298
-15.704678,-156.62299
-14.093351,-158.56947
-16.338011,-161.19174
-14.016811,-163.99074
-15.207688,-158.69337
-16.416527,-161.9054
-15.019647,-152.5141
-15.846116,-173.92235
-14.494809,-153.35391
-14.972898,-164.6646
-15.112198,-160.60551
-15.174326,-157.82291
-13.826253,-155.95345
-14.351629,-161.42099
-15.77793,-159.9442
-15.957928,-163.68124
-14.719557,-160.0878
-15.241358,-152.71825
-15.31096,-155.20157
-16.407843,-162.03477
-15.140282,-163.74564
-16.901243,-161.2235
-14.774789,-159.36809
-15.953456,-161.01822
-14.678779,-164.34032
-15.378099,-165.86107
-14.665436,-163.22723
-15.363538,-168.86349
-15.470002,-163.6149
-16.166124,-161.99423
-14.705569,-160.55989
-14.386649,-164.82182
-15.124595,-156.4223
-13.718086,-161.6366
-14.537935,-160.78242
-15.593329,-160.61426
-14.345954,-167.99773
-15.746947,-166.5372
-14.661549,-157.17578
-15.749118,-170.22533
-14.059185,-162.24834
-14.653646,-157.5974
-14.418791,-163.94853
-16.46216,-169.12186
-15.768052,-160.30249
-13.60826,-163.59378
-14.958419,-165.70421
-15.933658,-162.20291
-14.564649,-160.22644
-14.619419,-162.3885
-15.068365,-160.20906
-14.595092,-166.48206
-14.058105,-153.94843
-14.556964,-156.50648
-14.198596,-167.76495
-14.85936,-161.91003
-15.546074,-159.20035
-14.4902,-166.54668
-15.013995,-166.77275
-15.500767,-161.48772
-13.652174,-160.38484
-15.081273,-160.70113
-15.374993,-164.96837
-14.403628,-166.72157
-14.559915,-158.97791
-14.885023,-159.77635
-16.773819,-155.3672
-14.681664,-159.93082
-15.232138,-161.25995
-14.499976,-159.48004
-17.412357,-159.92192
-14.644496,-150.78267
-15.429976,-162.29353
-14.189858,-162.93971
-15.207334,-163.61736
-15.950989,-168.60516
-14.712318,-158.28743
-14.869002,-163.86986
-14.673338,-162.6718
-15.544337,-169.73863
-14.775408,-164.7598
-15.746715,-159.89766
-15.073655,-165.00787
-16.192978,-159.24565
-15.766811,-167.17261
-14.748597,-163.19734
-14.347234,-155.48943
-14.685776,-158.94781
-13.970181,-161.90808
-15.034832,-166.82104
-14.674671,-161.89854
-15.128409,-159.47568
-14.453477,-161.72946
-14.289145,-165.55426
-15.776399,-161.36786
-15.184034,-162.72455
-14.892941,-159.35834
-15.733144,-156.37444
-15.283909,-160.68539
-15.037622,-161.91199
-15.338754,-154.20563
-15.973786,-159.23486
-14.069127,-163.23051
-14.068451,-166.05994
-14.417242,-165.49315
-15.252895,-157.25876
-15.578053,-155.07405
-14.637596,-157.72609
-15.44999,-158.03836
-14.296274,-160.05923
-15.163841,-161.21951
-14.884764,-163.60556
-15.40637,-156.705
-14.298569,-161.26578
-14.907656,-165.22658
-14.85899,-164.14629
-15.631968,-160.29451
-15.831623,-164.51166
-15.635463,-156.27521
-15.016446,-160.04306
-15.025013,-156.22263
-14.423261,-162.54828
-14.947131,-156.80566
-15.266083,-161.1293
-15.729305,-163.90433
-14.862272,-163.11633
-15.17343,-156.64531
-15.6129,-160.90033
-14.669201,-161.60648
-14.606135,-166.20782
-14.554519,-160.7251
-14.994222,-160.89581
-15.579109,-156.64998
-14.969778,-156.06567
-14.274556,-165.66479
-15.72506,-159.0295
-15.199809,-163.62328
-15.15504,-157.68965
-15.628371,-156.64635
-16.269367,-163.27594
-15.67583,-160.15605
-14.141138,-162.84367
-15.374999,-157.36067
-14.479147,-162.51653
-14.774612,-165.4299
-14.056756,-157.67091
-15.140348,-160.91136
-15.110949,-160.9872
-15.708991,-166.02321
-14.670584,-160.82904
-15.205935,-159.25696
-15.325323,-160.62518
-14.787002,-164.99426
-15.408831,-154.59932
-14.633834,-165.19159
-15.756952,-162.33182
-14.824241,-158.17918
-14.971215,-163.87901
-15.189326,-159.76973
-14.686131,-158.52933
-14.828485,-160.50171
-15.170366,-159.52162
-16.170595,-158.87112
-14.85024,-157.97505
-15.487005,-163.48453
-15.151917,-161.43694
-15.192904,-161.88077
-14.604197,-164.48003
-14.284184,-160.70941
-13.991393,-158.50046
-15.089645,-161.4274
-15.184939,-166.35909
-15.47508,-160.26125
-14.972479,-157.78471
-15.002501,-161.33815
-14.378354,-163.10326
-15.878319,-157.91264
-14.854308,-163.20242
-14.741971,-162.33882
-15.129763,-163.00681
-15.803579,-159.3699
-14.391979,-162.41086
-14.837078,-164.74234
-14.919915,-161.19919
-14.628249,-158.9292
-15.707039,-158.29161
-15.008453,-161.83757
-15.489422,-160.85327
-15.021894,-160.32115
-14.915925,-156.0081
-14.247152,-160.64992
-14.563904,-161.73518
-15.206807,-155.8196
-15.205955,-159.87355
-14.732075,-161.7567
-15.35251,-160.70897
-14.887045,-163.34277
-15.052462,-159.82898
-15.015674,-166.11076
-14.971264,-158.58049
-15.010867,-162.0425
-15.062366,-160.44785
-14.583074,-158.33678
-15.29682,-159.15073
-15.490726,-164.75478
-14.977773,-167.85878
-14.338117,-162.93652
-14.676212,-161.77707
-15.557987,-160.46077
-15.671518,-164.41161
-14.29573,-162.57295
-15.188962,-161.17203
-14.619321,-158.64188
-14.762671,-162.95314
-15.04505,-158.84401
-15.783319,-157.73677
-14.48678,-163.24466
-15.026152,-159.95058
-14.963781,-162.54089
-15.081837,-158.40216
-14.444499,-160.6356
-15.104208,-162.65814
-14.76563,-156.83626
-15.31118,-162.69946
-14.820722,-160.93237
-15.39963,-164.26715
-14.509297,-162.87465
-14.904635,-159.88371
-14.497094,-164.50676
-15.718979,-161.87305
-14.962656,-163.58978
-15.264709,-162.22276
-14.472161,-158.49199
-14.632771,-160.82465
-15.601512,-159.09985
-14.667863,-164.57021
-14.878459,-158.97928
-15.177639,-163.28395
-15.171535,-162.77487
-14.77593,-158.63818
-15.229598,-163.34985
-15.402381,-157.20662
-14.546131,-163.5369
-14.899992,-159.69392
-15.165268,-160.66426
-16.340857,-164.83771
-15.434569,-160.53909
-15.201711,-162.07863
-15.494382,-165.43019
-15.027571,-164.10902
-14.766803,-162.02193
-15.729267,-160.76866
-15.260268,-161.15857
-16.003618,-162.8963
-14.942626,-162.06024
-14.748333,-164.22217
-15.024942,-159.42091
-14.945635,-160.24403
-14.65556,-154.44443
-14.67392,-159.91998
-15.224148,-158.38811
-14.770483,-163.51907
-14.990641,-164.46622
-15.126752,-155.17476
-14.738638,-159.62256
-15.159329,-161.3658
-15.587436,-159.43649
-14.933429,-158.4375
-15.319115,-161.41141
-15.377536,-161.06024
-14.98412,-162.68169
-15.415742,-162.63362
-15.163852,-160.88164
-14.662648,-160.86458
-15.250891,-160.45215
-15.209908,-161.18359
-15.21715,-158.72768
-15.278388,-161.88342
-15.03187,-161.87755
-15.03977,-157.41867
-15.323379,-160.91478
-15.010021,-160.153
-15.181434,-162.27289
-14.571251,-160.04388
-15.374721,-158.38977
-15.285653,-160.20667
-14.943419,-163.30946
-15.050168,-161.14317
-14.909324,-158.27843
-15.587587,-162.38431
-14.979745,-158.5826
-15.350131,-162.95993
-15.17717,-162.76186
-14.788148,-163.39348
-15.462396,-163.85701
-14.404477,-163.04932
-14.805285,-160.80705
-14.877906,-160.80115
-14.827381,-157.63632
-15.491933,-162.96664
-14.043697,-161.56357
-15.163404,-158.86118
-14.958022,-160.08188
-14.657225,-159.5993
-15.115367,-162.90089
-15.066337,-162.93533
-14.599876,-160.62111
-14.697509,-161.22572
-15.127115,-161.32489
-14.404371,-162.14337
-14.94171,-160.92693
-15.297597,-162.84615
-14.906575,-160.36684
-15.016603,-162.855
-14.959725,-166.24513
-15.594226,-162.59923
-15.313735,-158.81128
-14.858459,-161.4064
-14.942974,-161.9771
-15.582697,-164.59634
-14.868753,-163.50395
-15.587123,-163.73038
-15.110471,-159.95827
-14.96864,-160.6053
-14.909335,-159.8363
-15.075665,-158.77975
-15.015011,-159.5914
-15.105606,-158.89316
-15.096166,-157.81375
-14.859871,-160.2999
-15.289578,-160.55902
-15.456104,-160.59128
-14.848684,-164.94957
-14.644289,-160.36714
-15.088557,-160.83893
-14.826258,-161.23647
-15.34844,-158.51814
-15.42522,-159.88503
-14.915714,-160.96985
-14.663149,-162.14816
-14.985609,-163.61145
-14.9654,-161.1555
-15.428056,-163.06631
-15.079923,-165.61346
-14.997057,-159.9071
-14.946064,-163.83801
-14.750119,-160.92094
-15.235014,-159.02257
-15.160256,-160.9964
-15.106743,-162.49933
-14.701486,-162.10374
-15.341817,-156.64833
-15.692253,-162.58858
-15.118889,-159.06268
-15.112948,-161.13525
-15.02774,-159.85495
-15.329529,-161.15973
-14.863153,-159.92584
-14.903213,-161.92693
-15.268022,-161.95392
-15.319742,-159.49559
-14.859563,-161.80768
-14.829255,-160.56311
-14.810217,-163.23502
