CITIFILE A.01.01
!Agilent Technologies,N5230C,MY48100142,A.08.04.10
!Agilent N5230C: A.08.04.10
!Format: LogMag/Angle
!Date: Monday, September 14, 2020 11:30:40
NAME CH1_DATA
VAR Power MAG 801
DATA S11 DBANGLE
DATA S21 DBANGLE
DATA S12 DBANGLE
DATA S22 DBANGLE
VAR_LIST_BEGIN
-40
-39.975
-39.95
-39.925
-39.9
-39.875
-39.85
-39.825
-39.8
-39.775
-39.75
-39.725
-39.7
-39.675
-39.65
-39.625
-39.6
-39.575
-39.55
-39.525
-39.5
-39.475
-39.45
-39.425
-39.4
-39.375
-39.35
-39.325
-39.3
-39.275
-39.25
-39.225
-39.2
-39.175
-39.15
-39.125
-39.1
-39.075
-39.05
-39.025
-39
-38.975
-38.95
-38.925
-38.9
-38.875
-38.85
-38.825
-38.8
-38.775
-38.75
-38.725
-38.7
-38.675
-38.65
-38.625
-38.6
-38.575
-38.55
-38.525
-38.5
-38.475
-38.45
-38.425
-38.4
-38.375
-38.35
-38.325
-38.3
-38.275
-38.25
-38.225
-38.2
-38.175
-38.15
-38.125
-38.1
-38.075
-38.05
-38.025
-38
-37.975
-37.95
-37.925
-37.9
-37.875
-37.85
-37.825
-37.8
-37.775
-37.75
-37.725
-37.7
-37.675
-37.65
-37.625
-37.6
-37.575
-37.55
-37.525
-37.5
-37.475
-37.45
-37.425
-37.4
-37.375
-37.35
-37.325
-37.3
-37.275
-37.25
-37.225
-37.2
-37.175
-37.15
-37.125
-37.1
-37.075
-37.05
-37.025
-37
-36.975
-36.95
-36.925
-36.9
-36.875
-36.85
-36.825
-36.8
-36.775
-36.75
-36.725
-36.7
-36.675
-36.65
-36.625
-36.6
-36.575
-36.55
-36.525
-36.5
-36.475
-36.45
-36.425
-36.4
-36.375
-36.35
-36.325
-36.3
-36.275
-36.25
-36.225
-36.2
-36.175
-36.15
-36.125
-36.1
-36.075
-36.05
-36.025
-36
-35.975
-35.95
-35.925
-35.9
-35.875
-35.85
-35.825
-35.8
-35.775
-35.75
-35.725
-35.7
-35.675
-35.65
-35.625
-35.6
-35.575
-35.55
-35.525
-35.5
-35.475
-35.45
-35.425
-35.4
-35.375
-35.35
-35.325
-35.3
-35.275
-35.25
-35.225
-35.2
-35.175
-35.15
-35.125
-35.1
-35.075
-35.05
-35.025
-35
-34.975
-34.95
-34.925
-34.9
-34.875
-34.85
-34.825
-34.8
-34.775
-34.75
-34.725
-34.7
-34.675
-34.65
-34.625
-34.6
-34.575
-34.55
-34.525
-34.5
-34.475
-34.45
-34.425
-34.4
-34.375
-34.35
-34.325
-34.3
-34.275
-34.25
-34.225
-34.2
-34.175
-34.15
-34.125
-34.1
-34.075
-34.05
-34.025
-34
-33.975
-33.95
-33.925
-33.9
-33.875
-33.85
-33.825
-33.8
-33.775
-33.75
-33.725
-33.7
-33.675
-33.65
-33.625
-33.6
-33.575
-33.55
-33.525
-33.5
-33.475
-33.45
-33.425
-33.4
-33.375
-33.35
-33.325
-33.3
-33.275
-33.25
-33.225
-33.2
-33.175
-33.15
-33.125
-33.1
-33.075
-33.05
-33.025
-33
-32.975
-32.95
-32.925
-32.9
-32.875
-32.85
-32.825
-32.8
-32.775
-32.75
-32.725
-32.7
-32.675
-32.65
-32.625
-32.6
-32.575
-32.55
-32.525
-32.5
-32.475
-32.45
-32.425
-32.4
-32.375
-32.35
-32.325
-32.3
-32.275
-32.25
-32.225
-32.2
-32.175
-32.15
-32.125
-32.1
-32.075
-32.05
-32.025
-32
-31.975
-31.95
-31.925
-31.9
-31.875
-31.85
-31.825
-31.8
-31.775
-31.75
-31.725
-31.7
-31.675
-31.65
-31.625
-31.6
-31.575
-31.55
-31.525
-31.5
-31.475
-31.45
-31.425
-31.4
-31.375
-31.35
-31.325
-31.3
-31.275
-31.25
-31.225
-31.2
-31.175
-31.15
-31.125
-31.1
-31.075
-31.05
-31.025
-31
-30.975
-30.95
-30.925
-30.9
-30.875
-30.85
-30.825
-30.8
-30.775
-30.75
-30.725
-30.7
-30.675
-30.65
-30.625
-30.6
-30.575
-30.55
-30.525
-30.5
-30.475
-30.45
-30.425
-30.4
-30.375
-30.35
-30.325
-30.3
-30.275
-30.25
-30.225
-30.2
-30.175
-30.15
-30.125
-30.1
-30.075
-30.05
-30.025
-30
-29.975
-29.95
-29.925
-29.9
-29.875
-29.85
-29.825
-29.8
-29.775
-29.75
-29.725
-29.7
-29.675
-29.65
-29.625
-29.6
-29.575
-29.55
-29.525
-29.5
-29.475
-29.45
-29.425
-29.4
-29.375
-29.35
-29.325
-29.3
-29.275
-29.25
-29.225
-29.2
-29.175
-29.15
-29.125
-29.1
-29.075
-29.05
-29.025
-29
-28.975
-28.95
-28.925
-28.9
-28.875
-28.85
-28.825
-28.8
-28.775
-28.75
-28.725
-28.7
-28.675
-28.65
-28.625
-28.6
-28.575
-28.55
-28.525
-28.5
-28.475
-28.45
-28.425
-28.4
-28.375
-28.35
-28.325
-28.3
-28.275
-28.25
-28.225
-28.2
-28.175
-28.15
-28.125
-28.1
-28.075
-28.05
-28.025
-28
-27.975
-27.95
-27.925
-27.9
-27.875
-27.85
-27.825
-27.8
-27.775
-27.75
-27.725
-27.7
-27.675
-27.65
-27.625
-27.6
-27.575
-27.55
-27.525
-27.5
-27.475
-27.45
-27.425
-27.4
-27.375
-27.35
-27.325
-27.3
-27.275
-27.25
-27.225
-27.2
-27.175
-27.15
-27.125
-27.1
-27.075
-27.05
-27.025
-27
-26.975
-26.95
-26.925
-26.9
-26.875
-26.85
-26.825
-26.8
-26.775
-26.75
-26.725
-26.7
-26.675
-26.65
-26.625
-26.6
-26.575
-26.55
-26.525
-26.5
-26.475
-26.45
-26.425
-26.4
-26.375
-26.35
-26.325
-26.3
-26.275
-26.25
-26.225
-26.2
-26.175
-26.15
-26.125
-26.1
-26.075
-26.05
-26.025
-26
-25.975
-25.95
-25.925
-25.9
-25.875
-25.85
-25.825
-25.8
-25.775
-25.75
-25.725
-25.7
-25.675
-25.65
-25.625
-25.6
-25.575
-25.55
-25.525
-25.5
-25.475
-25.45
-25.425
-25.4
-25.375
-25.35
-25.325
-25.3
-25.275
-25.25
-25.225
-25.2
-25.175
-25.15
-25.125
-25.1
-25.075
-25.05
-25.025
-25
-24.975
-24.95
-24.925
-24.9
-24.875
-24.85
-24.825
-24.8
-24.775
-24.75
-24.725
-24.7
-24.675
-24.65
-24.625
-24.6
-24.575
-24.55
-24.525
-24.5
-24.475
-24.45
-24.425
-24.4
-24.375
-24.35
-24.325
-24.3
-24.275
-24.25
-24.225
-24.2
-24.175
-24.15
-24.125
-24.1
-24.075
-24.05
-24.025
-24
-23.975
-23.95
-23.925
-23.9
-23.875
-23.85
-23.825
-23.8
-23.775
-23.75
-23.725
-23.7
-23.675
-23.65
-23.625
-23.6
-23.575
-23.55
-23.525
-23.5
-23.475
-23.45
-23.425
-23.4
-23.375
-23.35
-23.325
-23.3
-23.275
-23.25
-23.225
-23.2
-23.175
-23.15
-23.125
-23.1
-23.075
-23.05
-23.025
-23
-22.975
-22.95
-22.925
-22.9
-22.875
-22.85
-22.825
-22.8
-22.775
-22.75
-22.725
-22.7
-22.675
-22.65
-22.625
-22.6
-22.575
-22.55
-22.525
-22.5
-22.475
-22.45
-22.425
-22.4
-22.375
-22.35
-22.325
-22.3
-22.275
-22.25
-22.225
-22.2
-22.175
-22.15
-22.125
-22.1
-22.075
-22.05
-22.025
-22
-21.975
-21.95
-21.925
-21.9
-21.875
-21.85
-21.825
-21.8
-21.775
-21.75
-21.725
-21.7
-21.675
-21.65
-21.625
-21.6
-21.575
-21.55
-21.525
-21.5
-21.475
-21.45
-21.425
-21.4
-21.375
-21.35
-21.325
-21.3
-21.275
-21.25
-21.225
-21.2
-21.175
-21.15
-21.125
-21.1
-21.075
-21.05
-21.025
-21
-20.975
-20.95
-20.925
-20.9
-20.875
-20.85
-20.825
-20.8
-20.775
-20.75
-20.725
-20.7
-20.675
-20.65
-20.625
-20.6
-20.575
-20.55
-20.525
-20.5
-20.475
-20.45
-20.425
-20.4
-20.375
-20.35
-20.325
-20.3
-20.275
-20.25
-20.225
-20.2
-20.175
-20.15
-20.125
-20.1
-20.075
-20.05
-20.025
-20
VAR_LIST_END
BEGIN
-15.735695,-159.69688
-14.603542,-164.13113
-14.773058,-152.82617
-15.412415,-162.02357
-14.87457,-159.91013
-14.510642,-164.51648
-14.861283,-155.21289
-15.616697,-158.99722
-15.388846,-160.13467
-14.638899,-163.89136
-14.419724,-160.4614
-15.214703,-159.90775
-15.586097,-159.12383
-15.870268,-162.27989
-14.63276,-164.23195
-15.447807,-160.21593
-14.871496,-164.52913
-15.31152,-160.89923
-14.799497,-161.23994
-14.94051,-157.98512
-15.588552,-159.01511
-14.712947,-161.15881
-15.15194,-163.03114
-14.410337,-160.30037
-14.539381,-162.15567
-14.806043,-160.69005
-15.297818,-162.67529
-14.387628,-159.29611
-15.059743,-158.52295
-15.198524,-159.98714
-14.949144,-160.69128
-15.014246,-156.80588
-14.851036,-160.17778
-15.618414,-161.76772
-15.181706,-160.17174
-15.186045,-160.54549
-15.59186,-159.1319
-14.78989,-159.19466
-14.790675,-165.14186
-15.408813,-164.33493
-15.491723,-164.7515
-15.055181,-160.86478
-15.781747,-161.18584
-15.378465,-160.14844
-14.772875,-161.5029
-15.204683,-163.72298
-14.715572,-163.05724
-14.861139,-158.65131
-14.515722,-160.25928
-15.767346,-159.52806
-15.127583,-159.57561
-14.933458,-161.7747
-15.11699,-160.76782
-15.192043,-158.58
-14.782725,-159.58176
-14.834184,-160.06683
-15.323421,-160.18054
-15.118049,-161.99759
-15.341923,-161.28777
-14.960888,-159.26515
-14.858158,-158.02264
-14.51404,-161.23332
-15.008192,-161.76552
-15.060449,-157.89171
-15.175792,-161.88678
-14.932516,-163.05283
-14.820198,-158.64037
-15.282941,-161.58701
-15.256567,-158.35382
-15.040647,-159.73042
-15.072476,-160.85161
-14.842779,-161.40909
-15.054582,-163.14723
-14.899451,-160.60049
-15.37254,-162.46404
-15.204626,-162.86856
-15.040071,-164.79568
-15.53674,-165.33598
-15.36095,-162.32343
-14.470374,-164.05272
-14.350821,-160.21169
-15.512344,-160.77376
-15.208738,-158.0083
-15.807526,-156.396
-15.5597,-162.55295
-15.287745,-159.63347
-15.325584,-160.78735
-15.00336,-157.66905
-15.300537,-165.22804
-14.595942,-160.19519
-15.125946,-156.18457
-14.750787,-162.18889
-15.046194,-160.30127
-15.611879,-161.42885
-15.200862,-160.38335
-15.100894,-162.8703
-14.474296,-162.86197
-14.755591,-155.15425
-14.423802,-160.22432
-15.039379,-159.84537
-14.498847,-158.4323
-15.09926,-163.259
-14.909894,-162.74603
-14.870835,-158.50676
-14.782419,-161.15587
-14.986203,-157.61673
-15.368363,-161.66661
-14.851434,-160.91557
-15.016655,-160.34288
-14.593575,-164.58026
-15.016581,-160.95221
-15.773189,-156.59552
-15.073847,-162.9086
-14.937336,-159.82805
-14.824429,-159.48276
-14.768437,-161.28261
-14.894855,-160.92094
-15.154706,-163.07106
-15.421113,-158.11072
-14.738379,-162.93475
-15.401284,-159.7496
-15.244181,-160.6465
-15.07003,-155.17369
-14.994964,-157.97644
-15.100059,-160.70529
-15.227058,-162.49449
-15.476207,-156.21434
-14.759931,-161.18788
-15.634907,-159.68332
-14.945158,-159.64615
-15.643624,-163.54532
-14.679217,-162.32559
-14.877257,-157.55536
-14.888466,-159.08795
-14.763921,-164.92413
-15.325145,-162.43694
-15.184879,-160.79988
-15.359209,-163.51071
-14.826152,-161.73009
-14.746172,-160.73965
-14.866513,-160.5202
-15.002162,-163.63104
-15.137943,-159.22443
-15.115932,-160.42674
-15.453334,-163.02075
-15.619544,-159.83235
-14.922544,-158.62082
-15.419216,-165.28255
-15.439199,-157.49036
-14.957472,-157.39615
-15.212976,-161.00046
-15.263058,-161.27539
-14.720448,-161.48244
-15.20122,-160.24754
-15.48211,-159.10432
-15.231853,-160.68184
-14.858549,-164.28165
-14.92623,-159.67758
-15.002311,-160.66
-15.002029,-161.35211
-15.655073,-161.483
-15.1489,-157.60713
-15.147278,-159.2713
-15.42983,-162.4852
-14.90377,-159.002
-14.738306,-159.45276
-15.153612,-158.64423
-14.966628,-162.54494
-14.902091,-158.0815
-15.306635,-162.20865
-15.165077,-160.83374
-15.082782,-159.51672
-14.751594,-161.23749
-14.986089,-158.91678
-14.937655,-159.02286
-15.162139,-160.5463
-15.316493,-162.62288
-14.974938,-163.26352
-15.303223,-161.46657
-15.097414,-161.28009
-15.060552,-160.06654
-15.140594,-163.05775
-14.934003,-159.8718
-14.57805,-160.64474
-14.86659,-157.89935
-15.79575,-158.82848
-14.979736,-161.2059
-15.032298,-160.3465
-15.150713,-162.44035
-14.840631,-159.12228
-14.574697,-159.84314
-15.194929,-161.47774
-15.279268,-158.99342
-14.796903,-159.81436
-15.031528,-160.89175
-15.092344,-161.29521
-15.138788,-160.29347
-15.197644,-159.00204
-15.085342,-157.88625
-15.156341,-159.34065
-14.95058,-161.5827
-14.904086,-160.83723
-15.186051,-161.03833
-14.843759,-161.46045
-14.835486,-158.60667
-14.960885,-159.72202
-14.690671,-161.58446
-15.460771,-162.5213
-14.445001,-159.71916
-14.909135,-160.54878
-15.150517,-160.9117
-15.110943,-157.82967
-15.188032,-159.98004
-14.922084,-160.46674
-15.629759,-158.89496
-15.453074,-162.32454
-15.152831,-161.89281
-15.306324,-160.45872
-14.879269,-161.66962
-15.265198,-160.30811
-15.190686,-162.67627
-14.773205,-160.4859
-14.867287,-162.20078
-14.947445,-162.37634
-15.170403,-161.0948
-14.860238,-161.30962
-15.020706,-161.84901
-15.209051,-161.04639
-14.980986,-160.53941
-15.118645,-162.92899
-15.143427,-161.44756
-14.853455,-161.91634
-15.087008,-161.3017
-15.12948,-160.10658
-15.264362,-159.88576
-14.996477,-159.92752
-14.977656,-159.10632
-14.632992,-160.74298
-15.171931,-159.95361
-14.7255,-162.64128
-14.999205,-163.38184
-15.046793,-160.24895
-15.275155,-160.8278
-14.907562,-160.43993
-14.703879,-158.99059
-15.262545,-160.07166
-14.9508,-158.64204
-15.063271,-162.05835
-14.926736,-159.76154
-14.693116,-160.5139
-14.938262,-158.70767
-14.791367,-160.26038
-15.417632,-160.2312
-14.754898,-161.84769
-15.160748,-159.62157
-15.082802,-159.96272
-14.712052,-158.97083
-15.139905,-161.11925
-15.288868,-159.57716
-14.705051,-159.93007
-15.337886,-160.69641
-14.965137,-160.70634
-14.999055,-157.7084
-15.086912,-159.62437
-15.33799,-161.63167
-15.328157,-162.2368
-15.191515,-160.0883
-14.921378,-162.26692
-15.132797,-162.15967
-15.335624,-161.53329
-15.050246,-160.13423
-14.916305,-161.73396
-14.829186,-160.84846
-14.81995,-160.87946
-15.258615,-160.33748
-15.129608,-159.46616
-14.913319,-161.67027
-15.147216,-159.32181
-15.238908,-159.01901
-15.094776,-162.61488
-15.164273,-160.29567
-14.860974,-160.11267
-14.941277,-161.73065
-15.094163,-161.5694
-15.164725,-161.12775
-15.218184,-160.0563
-14.591408,-157.99518
-15.217097,-159.63417
-15.254607,-157.33144
-15.624013,-158.82899
-14.803357,-160.32513
-15.03429,-159.68544
-15.284774,-162.07718
-14.991066,-159.99767
-14.880724,-161.14999
-15.027168,-161.23744
-15.292542,-158.92798
-15.08582,-162.68802
-15.035083,-161.43535
-15.294277,-159.15956
-15.19835,-159.16573
-14.919985,-158.06056
-14.804956,-159.55104
-15.09516,-160.33206
-14.866066,-162.14285
-15.066781,-162.95154
-14.954938,-160.57262
-14.859811,-160.33875
-15.169262,-158.86839
-14.745558,-159.78494
-15.322073,-161.07486
-15.11025,-160.32619
-15.04608,-160.56378
-15.014783,-160.81073
-15.336806,-159.43018
-15.190832,-160.00287
-15.057317,-160.95917
-14.937336,-160.66074
-14.912852,-161.23747
-15.117837,-160.74893
-15.064081,-158.10596
-15.138388,-159.37946
-15.21883,-161.88478
-15.031828,-161.18008
-14.982174,-159.98608
-15.000674,-162.28943
-15.207191,-160.46245
-14.815638,-159.94951
-14.995378,-161.02443
-15.150882,-159.34946
-15.193114,-160.73456
-15.090263,-160.22575
-15.217111,-160.28537
-15.207053,-159.88214
-15.00155,-158.42328
-15.070566,-161.70955
-15.2227,-160.16614
-15.195021,-162.42421
-14.960038,-162.0677
-15.033794,-160.04204
-15.017984,-160.04393
-15.335799,-160.93614
-14.751292,-159.46722
-14.876792,-159.13023
-15.12668,-161.17082
-15.045167,-159.86899
-14.746316,-160.58945
-14.82685,-160.10091
-15.146281,-159.81566
-14.958216,-160.1472
-14.95115,-161.31151
-15.188154,-160.28024
-14.765732,-159.13844
-15.245866,-160.63994
-14.986975,-160.63289
-15.29022,-159.37067
-15.095713,-162.04669
-15.008904,-160.65503
-15.174605,-160.91234
-15.338768,-162.4144
-15.061358,-159.72029
-14.966302,-159.6106
-14.80206,-161.23947
-15.288231,-161.2316
-15.193306,-160.94272
-14.861804,-159.05519
-15.300432,-159.21028
-14.780807,-161.27451
-14.787474,-158.42525
-15.061408,-158.78169
-14.845829,-159.75874
-14.861011,-161.44037
-14.960326,-160.02942
-14.904163,-160.91612
-15.103012,-159.77985
-15.001775,-160.92635
-15.170854,-159.99188
-14.749828,-159.53337
-15.032585,-160.49991
-15.076767,-160.52094
-14.930015,-162.1078
-15.102297,-161.77968
-15.139111,-161.39328
-15.055634,-160.39023
-14.956601,-161.83684
-15.033986,-158.81081
-14.962575,-160.7807
-15.146532,-159.83604
-15.20562,-161.13936
-15.152486,-160.95473
-14.866871,-161.60146
-14.989446,-159.34981
-15.078969,-161.99759
-15.104433,-161.04823
-14.940206,-159.8943
-15.159331,-161.16521
-15.092588,-160.77069
-14.895539,-159.51207
-15.268371,-160.58839
-15.031765,-160.76953
-15.103317,-160.98326
-15.073092,-160.14996
-14.826007,-159.79616
-14.964805,-159.66443
-14.882722,-161.11258
-15.060543,-160.21841
-15.239961,-160.77519
-15.267208,-159.63689
-14.973926,-162.00658
-14.953104,-161.19896
-15.139985,-159.93195
-15.262675,-161.75893
-15.142567,-160.14192
-14.891408,-161.0416
-15.345685,-160.18263
-14.791683,-159.87755
-15.185166,-161.03084
-14.801734,-160.72
-14.981812,-159.65247
-15.327389,-160.38387
-15.015547,-159.37019
-14.900989,-160.90506
-15.307702,-162.32886
-15.137939,-160.21799
-14.93369,-161.47865
-15.214971,-161.30379
-15.09711,-161.67717
-14.941051,-159.94328
-15.146246,-159.92067
-14.869431,-159.85529
-15.021555,-160.49623
-15.103076,-159.83084
-14.952353,-161.33473
-15.017454,-158.3591
-15.033478,-161.68117
-15.129542,-160.62955
-15.201398,-157.80016
-15.101651,-162.0338
-15.136844,-161.41702
-15.109543,-162.12982
-15.077032,-160.38705
-14.94856,-162.16745
-14.961641,-160.38176
-15.145826,-160.25378
-15.047191,-160.93071
-15.205262,-161.03593
-14.968778,-161.39143
-15.028704,-162.04059
-15.164104,-160.6515
-15.076081,-161.09283
-14.935679,-162.45576
-15.03671,-161.88908
-15.109008,-160.57077
-14.842938,-161.23248
-15.033763,-160.28372
-15.12436,-160.63582
-15.075043,-160.28159
-15.099357,-160.28435
-15.096215,-161.66838
-15.149688,-161.66881
-14.837452,-160.45293
-15.048245,-160.12337
-15.237191,-160.54791
-15.159545,-161.04416
-15.280252,-160.92827
-15.019585,-160.66345
-15.019881,-159.39656
-15.010348,-160.80124
-15.017101,-159.70125
-14.951441,-160.5524
-14.985905,-159.86873
-15.253229,-160.84177
-14.933298,-160.47961
-15.168656,-161.23744
-15.094295,-161.27309
-15.076168,-161.40944
-15.184076,-160.65683
-15.202878,-160.4369
-14.926901,-160.85921
-14.991964,-160.397
-15.042933,-162.02098
-15.075986,-160.5121
-14.962405,-160.72444
-14.940195,-161.77074
-15.066744,-160.81793
-14.927228,-160.22523
-15.124463,-160.18155
-15.087763,-159.66701
-15.007813,-159.31262
-14.994205,-160.81383
-14.997466,-160.21899
-15.016063,-160.60382
-15.04307,-161.25815
-14.862734,-161.6739
-14.87259,-161.27069
-15.106698,-160.45346
-15.012249,-160.78577
-15.250388,-160.86562
-15.055443,-158.27368
-15.00872,-161.08157
-15.230842,-160.33701
-15.058869,-161.14908
-15.127476,-161.09506
-15.054647,-160.97311
-15.047159,-161.05824
-14.969867,-161.19801
-15.221338,-160.99817
-15.056148,-161.00941
-15.268287,-159.54839
-14.936417,-159.39287
-15.089896,-161.00941
-15.045841,-160.93367
-15.020064,-161.68419
-15.05368,-160.22136
-14.962631,-161.90714
-15.151777,-160.77458
-15.07776,-160.65544
-14.93743,-160.8255
-15.240031,-160.93112
-15.13737,-159.83977
-15.095149,-160.44505
-15.033867,-160.13278
-15.068245,-159.03189
-15.182127,-160.37648
-15.236392,-160.34233
-15.07307,-160.64877
-15.167,-162.07283
-15.168277,-160.84637
-15.079097,-160.12346
-14.990137,-161.47731
-14.983954,-160.79788
-15.128755,-160.55894
-15.037756,-160.12038
-14.895793,-160.54819
-14.93679,-161.31296
-14.949719,-161.13235
-14.985181,-159.8333
-14.96741,-160.44112
-15.016198,-159.2655
-15.041315,-161.14815
-15.095943,-160.18394
-15.189857,-160.65689
-15.111574,-162.31601
-15.164115,-161.27809
-14.884619,-161.25594
-15.1116,-161.12425
-15.014558,-161.14331
-14.922698,-160.51219
-15.068653,-160.80847
-15.028662,-160.98431
-15.007619,-161.45515
-15.187987,-161.69565
-15.114322,-160.40854
-14.995329,-160.20639
-15.169148,-159.90704
-15.166265,-161.44206
-15.197686,-160.17206
-15.033023,-159.92001
-15.198519,-160.11928
-14.967543,-160.19064
-15.085663,-160.41496
-15.193852,-161.21523
-15.088989,-160.82114
-15.134705,-160.96469
-15.167154,-160.34227
-15.092156,-160.87384
-15.105975,-161.3241
-15.208692,-159.86829
-15.074106,-161.19392
-15.153127,-159.59427
-15.11889,-160.08168
-14.905062,-160.04686
-15.10766,-160.43875
-14.890224,-160.79907
-15.146544,-160.12158
-15.086793,-158.97191
-15.055387,-160.51215
