CITIFILE A.01.01
!Agilent Technologies,N5230C,MY48100142,A.08.04.10
!Agilent N5230C: A.08.04.10
!Format: LogMag/Angle
!Date: Thursday, July 30, 2020 16:36:44
NAME CH1_DATA
VAR Power MAG 801
DATA S11 DBANGLE
DATA S21 DBANGLE
DATA S12 DBANGLE
DATA S22 DBANGLE
VAR_LIST_BEGIN
-40
-39.975
-39.95
-39.925
-39.9
-39.875
-39.85
-39.825
-39.8
-39.775
-39.75
-39.725
-39.7
-39.675
-39.65
-39.625
-39.6
-39.575
-39.55
-39.525
-39.5
-39.475
-39.45
-39.425
-39.4
-39.375
-39.35
-39.325
-39.3
-39.275
-39.25
-39.225
-39.2
-39.175
-39.15
-39.125
-39.1
-39.075
-39.05
-39.025
-39
-38.975
-38.95
-38.925
-38.9
-38.875
-38.85
-38.825
-38.8
-38.775
-38.75
-38.725
-38.7
-38.675
-38.65
-38.625
-38.6
-38.575
-38.55
-38.525
-38.5
-38.475
-38.45
-38.425
-38.4
-38.375
-38.35
-38.325
-38.3
-38.275
-38.25
-38.225
-38.2
-38.175
-38.15
-38.125
-38.1
-38.075
-38.05
-38.025
-38
-37.975
-37.95
-37.925
-37.9
-37.875
-37.85
-37.825
-37.8
-37.775
-37.75
-37.725
-37.7
-37.675
-37.65
-37.625
-37.6
-37.575
-37.55
-37.525
-37.5
-37.475
-37.45
-37.425
-37.4
-37.375
-37.35
-37.325
-37.3
-37.275
-37.25
-37.225
-37.2
-37.175
-37.15
-37.125
-37.1
-37.075
-37.05
-37.025
-37
-36.975
-36.95
-36.925
-36.9
-36.875
-36.85
-36.825
-36.8
-36.775
-36.75
-36.725
-36.7
-36.675
-36.65
-36.625
-36.6
-36.575
-36.55
-36.525
-36.5
-36.475
-36.45
-36.425
-36.4
-36.375
-36.35
-36.325
-36.3
-36.275
-36.25
-36.225
-36.2
-36.175
-36.15
-36.125
-36.1
-36.075
-36.05
-36.025
-36
-35.975
-35.95
-35.925
-35.9
-35.875
-35.85
-35.825
-35.8
-35.775
-35.75
-35.725
-35.7
-35.675
-35.65
-35.625
-35.6
-35.575
-35.55
-35.525
-35.5
-35.475
-35.45
-35.425
-35.4
-35.375
-35.35
-35.325
-35.3
-35.275
-35.25
-35.225
-35.2
-35.175
-35.15
-35.125
-35.1
-35.075
-35.05
-35.025
-35
-34.975
-34.95
-34.925
-34.9
-34.875
-34.85
-34.825
-34.8
-34.775
-34.75
-34.725
-34.7
-34.675
-34.65
-34.625
-34.6
-34.575
-34.55
-34.525
-34.5
-34.475
-34.45
-34.425
-34.4
-34.375
-34.35
-34.325
-34.3
-34.275
-34.25
-34.225
-34.2
-34.175
-34.15
-34.125
-34.1
-34.075
-34.05
-34.025
-34
-33.975
-33.95
-33.925
-33.9
-33.875
-33.85
-33.825
-33.8
-33.775
-33.75
-33.725
-33.7
-33.675
-33.65
-33.625
-33.6
-33.575
-33.55
-33.525
-33.5
-33.475
-33.45
-33.425
-33.4
-33.375
-33.35
-33.325
-33.3
-33.275
-33.25
-33.225
-33.2
-33.175
-33.15
-33.125
-33.1
-33.075
-33.05
-33.025
-33
-32.975
-32.95
-32.925
-32.9
-32.875
-32.85
-32.825
-32.8
-32.775
-32.75
-32.725
-32.7
-32.675
-32.65
-32.625
-32.6
-32.575
-32.55
-32.525
-32.5
-32.475
-32.45
-32.425
-32.4
-32.375
-32.35
-32.325
-32.3
-32.275
-32.25
-32.225
-32.2
-32.175
-32.15
-32.125
-32.1
-32.075
-32.05
-32.025
-32
-31.975
-31.95
-31.925
-31.9
-31.875
-31.85
-31.825
-31.8
-31.775
-31.75
-31.725
-31.7
-31.675
-31.65
-31.625
-31.6
-31.575
-31.55
-31.525
-31.5
-31.475
-31.45
-31.425
-31.4
-31.375
-31.35
-31.325
-31.3
-31.275
-31.25
-31.225
-31.2
-31.175
-31.15
-31.125
-31.1
-31.075
-31.05
-31.025
-31
-30.975
-30.95
-30.925
-30.9
-30.875
-30.85
-30.825
-30.8
-30.775
-30.75
-30.725
-30.7
-30.675
-30.65
-30.625
-30.6
-30.575
-30.55
-30.525
-30.5
-30.475
-30.45
-30.425
-30.4
-30.375
-30.35
-30.325
-30.3
-30.275
-30.25
-30.225
-30.2
-30.175
-30.15
-30.125
-30.1
-30.075
-30.05
-30.025
-30
-29.975
-29.95
-29.925
-29.9
-29.875
-29.85
-29.825
-29.8
-29.775
-29.75
-29.725
-29.7
-29.675
-29.65
-29.625
-29.6
-29.575
-29.55
-29.525
-29.5
-29.475
-29.45
-29.425
-29.4
-29.375
-29.35
-29.325
-29.3
-29.275
-29.25
-29.225
-29.2
-29.175
-29.15
-29.125
-29.1
-29.075
-29.05
-29.025
-29
-28.975
-28.95
-28.925
-28.9
-28.875
-28.85
-28.825
-28.8
-28.775
-28.75
-28.725
-28.7
-28.675
-28.65
-28.625
-28.6
-28.575
-28.55
-28.525
-28.5
-28.475
-28.45
-28.425
-28.4
-28.375
-28.35
-28.325
-28.3
-28.275
-28.25
-28.225
-28.2
-28.175
-28.15
-28.125
-28.1
-28.075
-28.05
-28.025
-28
-27.975
-27.95
-27.925
-27.9
-27.875
-27.85
-27.825
-27.8
-27.775
-27.75
-27.725
-27.7
-27.675
-27.65
-27.625
-27.6
-27.575
-27.55
-27.525
-27.5
-27.475
-27.45
-27.425
-27.4
-27.375
-27.35
-27.325
-27.3
-27.275
-27.25
-27.225
-27.2
-27.175
-27.15
-27.125
-27.1
-27.075
-27.05
-27.025
-27
-26.975
-26.95
-26.925
-26.9
-26.875
-26.85
-26.825
-26.8
-26.775
-26.75
-26.725
-26.7
-26.675
-26.65
-26.625
-26.6
-26.575
-26.55
-26.525
-26.5
-26.475
-26.45
-26.425
-26.4
-26.375
-26.35
-26.325
-26.3
-26.275
-26.25
-26.225
-26.2
-26.175
-26.15
-26.125
-26.1
-26.075
-26.05
-26.025
-26
-25.975
-25.95
-25.925
-25.9
-25.875
-25.85
-25.825
-25.8
-25.775
-25.75
-25.725
-25.7
-25.675
-25.65
-25.625
-25.6
-25.575
-25.55
-25.525
-25.5
-25.475
-25.45
-25.425
-25.4
-25.375
-25.35
-25.325
-25.3
-25.275
-25.25
-25.225
-25.2
-25.175
-25.15
-25.125
-25.1
-25.075
-25.05
-25.025
-25
-24.975
-24.95
-24.925
-24.9
-24.875
-24.85
-24.825
-24.8
-24.775
-24.75
-24.725
-24.7
-24.675
-24.65
-24.625
-24.6
-24.575
-24.55
-24.525
-24.5
-24.475
-24.45
-24.425
-24.4
-24.375
-24.35
-24.325
-24.3
-24.275
-24.25
-24.225
-24.2
-24.175
-24.15
-24.125
-24.1
-24.075
-24.05
-24.025
-24
-23.975
-23.95
-23.925
-23.9
-23.875
-23.85
-23.825
-23.8
-23.775
-23.75
-23.725
-23.7
-23.675
-23.65
-23.625
-23.6
-23.575
-23.55
-23.525
-23.5
-23.475
-23.45
-23.425
-23.4
-23.375
-23.35
-23.325
-23.3
-23.275
-23.25
-23.225
-23.2
-23.175
-23.15
-23.125
-23.1
-23.075
-23.05
-23.025
-23
-22.975
-22.95
-22.925
-22.9
-22.875
-22.85
-22.825
-22.8
-22.775
-22.75
-22.725
-22.7
-22.675
-22.65
-22.625
-22.6
-22.575
-22.55
-22.525
-22.5
-22.475
-22.45
-22.425
-22.4
-22.375
-22.35
-22.325
-22.3
-22.275
-22.25
-22.225
-22.2
-22.175
-22.15
-22.125
-22.1
-22.075
-22.05
-22.025
-22
-21.975
-21.95
-21.925
-21.9
-21.875
-21.85
-21.825
-21.8
-21.775
-21.75
-21.725
-21.7
-21.675
-21.65
-21.625
-21.6
-21.575
-21.55
-21.525
-21.5
-21.475
-21.45
-21.425
-21.4
-21.375
-21.35
-21.325
-21.3
-21.275
-21.25
-21.225
-21.2
-21.175
-21.15
-21.125
-21.1
-21.075
-21.05
-21.025
-21
-20.975
-20.95
-20.925
-20.9
-20.875
-20.85
-20.825
-20.8
-20.775
-20.75
-20.725
-20.7
-20.675
-20.65
-20.625
-20.6
-20.575
-20.55
-20.525
-20.5
-20.475
-20.45
-20.425
-20.4
-20.375
-20.35
-20.325
-20.3
-20.275
-20.25
-20.225
-20.2
-20.175
-20.15
-20.125
-20.1
-20.075
-20.05
-20.025
-20
VAR_LIST_END
BEGIN
-15.458393,-162.79503
-15.031968,-160.06978
-14.731472,-156.83485
-14.983887,-162.87773
-15.201632,-160.04559
-16.210987,-157.05453
-15.971931,-156.36276
-15.009035,-160.39983
-15.237669,-158.28952
-14.429697,-159.14857
-15.28578,-159.89203
-15.478521,-164.02937
-15.177189,-158.98842
-15.291929,-158.84454
-14.768764,-158.78218
-14.975875,-162.14926
-14.647885,-161.75833
-14.975466,-159.2809
-15.170181,-155.75989
-15.071489,-157.10709
-15.337046,-160.28822
-15.298159,-159.20581
-15.56066,-163.57693
-14.951941,-159.94585
-14.780113,-158.66716
-15.393117,-159.61118
-14.753188,-157.14957
-14.811973,-159.12149
-14.726508,-158.37367
-15.512743,-157.56473
-15.364454,-162.62892
-14.658134,-161.4641
-14.897677,-159.92151
-15.315298,-156.47218
-14.895915,-161.49617
-14.934198,-158.29655
-15.31439,-159.67123
-15.366153,-159.97331
-14.955312,-157.30048
-15.3918,-157.64909
-14.878071,-157.28267
-15.580431,-157.62498
-14.735968,-159.94286
-15.647612,-157.20564
-15.239672,-156.06538
-15.38712,-156.18117
-15.493742,-157.82053
-14.658237,-157.7625
-15.184637,-162.48817
-15.095591,-160.54607
-15.028851,-156.75743
-15.269401,-158.50998
-15.439507,-162.42398
-15.339089,-158.77705
-15.651592,-159.02122
-14.747643,-159.9789
-15.178368,-157.7023
-15.136903,-154.76338
-14.765982,-159.63049
-15.173599,-157.99129
-14.912724,-161.62914
-15.553922,-158.5101
-15.666967,-157.55812
-15.219985,-157.67014
-15.382524,-156.89175
-15.386691,-161.81261
-15.617731,-160.67474
-15.05724,-161.24414
-15.131481,-159.21701
-15.493541,-158.05386
-14.884224,-158.60182
-15.065573,-160.2771
-14.869986,-159.9445
-14.963526,-160.49188
-14.995555,-158.73718
-15.053801,-159.96501
-14.691163,-158.27554
-14.976801,-154.11516
-14.909132,-160.02786
-14.826078,-155.81694
-15.602957,-160.71645
-15.867393,-161.84042
-15.003605,-163.32211
-15.355238,-160.41524
-15.346279,-158.65112
-15.593309,-157.90353
-14.702894,-160.12111
-15.175159,-161.34254
-14.481631,-158.90099
-15.002221,-160.49678
-15.124068,-158.16287
-15.164398,-159.16484
-15.377068,-157.49182
-15.81022,-164.62987
-14.889215,-159.64214
-15.047201,-157.45442
-14.857988,-158.45024
-15.35174,-159.73669
-14.805538,-157.40146
-15.306674,-161.34509
-15.400685,-156.7119
-15.19227,-158.45691
-15.380733,-162.11354
-15.240655,-159.44601
-15.550009,-158.95293
-15.459462,-158.0865
-14.819674,-162.80453
-15.186637,-156.52782
-15.73326,-154.71155
-15.533461,-158.26253
-15.566843,-156.21921
-15.092151,-156.74239
-14.935138,-159.08549
-14.983646,-158.49832
-15.036606,-157.16615
-14.885395,-157.88081
-14.988956,-161.51393
-15.270473,-159.06462
-14.825115,-155.28816
-15.366623,-158.94635
-14.698092,-157.64157
-15.378572,-157.46051
-14.907611,-158.32817
-15.161139,-157.16876
-15.016851,-158.84499
-14.932191,-162.01122
-15.443387,-159.01741
-14.639015,-157.76994
-15.038971,-158.28955
-15.241473,-159.78793
-15.436374,-159.71027
-14.965032,-157.64323
-15.249955,-159.58798
-14.971626,-157.55159
-15.259031,-159.78331
-15.031493,-158.80737
-14.976606,-159.7998
-15.027438,-158.0107
-15.135169,-156.31325
-14.924736,-161.83447
-15.309553,-160.80292
-15.216608,-157.37294
-15.422566,-159.61404
-14.808362,-159.08922
-15.488964,-161.4998
-15.477121,-157.39951
-15.291304,-159.82925
-14.555606,-157.5997
-14.967435,-158.20944
-15.068992,-156.33499
-15.016921,-161.09053
-14.98537,-159.42168
-15.149632,-154.67375
-15.408628,-158.19998
-15.207615,-161.90512
-15.282553,-158.81276
-14.824348,-158.98361
-15.292006,-160.70779
-15.239051,-159.93997
-14.912885,-162.20456
-14.782429,-157.33931
-15.354006,-159.24231
-15.16573,-157.17697
-15.052484,-158.76575
-15.374386,-159.2608
-15.03535,-157.5461
-15.517511,-160.51132
-15.117761,-157.96951
-15.388126,-158.13678
-14.814524,-157.90546
-14.920354,-159.21341
-15.225616,-157.87701
-15.580262,-158.77406
-15.295177,-159.25832
-15.403002,-158.1445
-15.35902,-161.39836
-15.232975,-155.4424
-15.303686,-156.43176
-15.000341,-158.78181
-15.157555,-160.5618
-14.888789,-158.36821
-15.261785,-157.92857
-15.121747,-157.67145
-15.127438,-159.08133
-15.400527,-159.2531
-15.003927,-161.12703
-15.015794,-159.75652
-15.219515,-156.7789
-15.01397,-160.68649
-15.09718,-158.24414
-15.158369,-157.35013
-15.37585,-158.79573
-15.267654,-157.51274
-15.374183,-158.231
-15.154244,-158.23592
-14.945042,-158.74579
-14.810926,-159.87375
-14.861602,-159.82706
-14.840553,-159.52554
-15.309357,-158.4259
-14.996519,-159.74666
-15.254338,-155.86108
-15.000913,-158.11858
-14.791492,-157.07306
-15.139496,-159.6927
-15.175926,-158.60545
-15.33231,-161.83836
-15.021626,-154.9162
-14.988683,-156.7251
-15.530427,-158.79128
-15.073355,-160.44005
-14.910044,-160.02573
-15.085264,-157.83388
-14.941019,-160.06824
-14.996729,-158.87979
-15.318368,-158.21962
-14.963933,-158.03105
-15.190279,-156.69708
-15.1845,-159.00462
-15.514071,-160.4769
-15.391755,-160.18663
-15.176382,-157.12047
-15.259215,-159.96754
-15.114267,-160.354
-15.205779,-160.47104
-15.448564,-159.48975
-15.14715,-159.07504
-14.934293,-158.13
-15.08,-157.44939
-15.134476,-158.61732
-15.264724,-158.01582
-15.017147,-158.61212
-14.9333,-159.3979
-15.211303,-157.68106
-15.389287,-160.01527
-14.807733,-157.87444
-15.411597,-159.60063
-15.037592,-158.19261
-15.017575,-157.88426
-15.093102,-158.51868
-15.033933,-159.82922
-15.081346,-155.43193
-15.340009,-158.62234
-15.232653,-158.08606
-15.002867,-158.1649
-15.443564,-157.86282
-15.177872,-157.06606
-15.194635,-159.81107
-15.308863,-160.22826
-15.420942,-158.02238
-15.104136,-159.63383
-14.733842,-158.10559
-15.118062,-158.74945
-15.061092,-160.94081
-14.899871,-158.99983
-15.134834,-159.71706
-14.9691,-159.94659
-15.503934,-159.95702
-15.23317,-160.28963
-15.067624,-156.4435
-15.183309,-158.73479
-15.283056,-157.18678
-15.163296,-160.81819
-15.045713,-157.83766
-15.372369,-158.89015
-15.231837,-160.76813
-14.886737,-158.91286
-15.053798,-158.13931
-14.968782,-159.89009
-15.562386,-158.46928
-15.181367,-159.87584
-15.103384,-160.76903
-15.274523,-159.46823
-14.880058,-158.09743
-14.897228,-160.29823
-15.268884,-159.55473
-15.286723,-158.20053
-15.06917,-159.00932
-14.909775,-154.79333
-15.104641,-158.50162
-15.040544,-157.69333
-14.999233,-157.61964
-15.0701,-159.59538
-15.257544,-157.47072
-15.254172,-157.61496
-15.240961,-157.88559
-15.322019,-157.73488
-15.433572,-158.50537
-15.034869,-158.81042
-15.262671,-157.56929
-15.118154,-159.85153
-15.163868,-160.20618
-15.100428,-157.51543
-15.151279,-158.23911
-15.11961,-157.25797
-15.246523,-159.02765
-15.189068,-157.98306
-14.931558,-159.00159
-14.998833,-158.495
-14.913766,-157.55183
-14.979719,-158.55988
-15.133854,-157.72672
-15.228448,-159.93684
-14.885393,-158.12732
-15.297742,-158.56566
-15.261003,-157.63341
-14.839962,-159.16891
-15.070059,-157.64288
-14.958752,-160.40897
-15.146987,-157.20691
-15.30658,-159.26312
-14.906941,-159.28442
-15.092902,-158.98628
-15.025205,-158.73801
-15.16268,-158.27882
-15.326674,-157.74612
-15.099272,-159.56374
-15.127945,-158.85612
-15.092036,-158.34416
-15.15152,-156.6844
-15.287775,-160.69092
-14.89627,-157.03593
-14.895967,-158.89304
-15.086378,-159.58827
-15.230251,-160.32552
-14.969901,-159.4043
-15.160611,-159.32414
-15.166712,-158.675
-14.930972,-158.46567
-15.030679,-159.47382
-15.247977,-157.18004
-15.184077,-159.41359
-15.051407,-157.79646
-14.997894,-159.72462
-15.3034,-159.29674
-15.090305,-157.4841
-14.918957,-158.36377
-14.893169,-159.41107
-15.007844,-157.45874
-14.997831,-158.30469
-15.160924,-157.43285
-14.824716,-158.62761
-15.044683,-159.54178
-15.244521,-159.29939
-15.148061,-158.46553
-15.002486,-159.30893
-15.163568,-158.34424
-14.972246,-159.33386
-15.045717,-157.62743
-15.079533,-157.86737
-15.074173,-159.01068
-15.043873,-158.13153
-14.971456,-157.44266
-14.95015,-159.93073
-15.144312,-159.71872
-15.163671,-159.29829
-15.024691,-159.01523
-15.027091,-159.38158
-15.23252,-159.62564
-15.253532,-157.6938
-15.011039,-158.34882
-15.192077,-157.70305
-15.119917,-159.92567
-15.035749,-157.92226
-15.138703,-160.32129
-15.270785,-157.42125
-14.892966,-158.58925
-15.047596,-158.89713
-15.127795,-159.11819
-15.035687,-158.9276
-14.94311,-158.30568
-15.199915,-158.83966
-14.928715,-158.61188
-15.158678,-158.6377
-15.285579,-158.46727
-15.293342,-157.68378
-14.864707,-157.88487
-15.106921,-158.80331
-15.357011,-158.99083
-15.129951,-158.88353
-15.087887,-158.82747
-15.168222,-159.47247
-15.015936,-156.92404
-15.242814,-158.97411
-14.974917,-159.27657
-15.195901,-159.09384
-15.264079,-159.97406
-15.055013,-158.62752
-15.16924,-157.97882
-15.426671,-158.08896
-15.167814,-158.55907
-15.143634,-159.96867
-15.042968,-157.10765
-15.213893,-159.95042
-15.27564,-157.48151
-15.115054,-159.5293
-15.256619,-158.87027
-14.983357,-158.04666
-15.226213,-158.61397
-15.092107,-158.06734
-14.990644,-159.36154
-15.029999,-158.94682
-15.234301,-158.86497
-15.096142,-158.39749
-15.055472,-158.36661
-15.01518,-157.96179
-14.978383,-158.67226
-14.882922,-159.52872
-15.033993,-159.35112
-15.00103,-158.59225
-14.927179,-158.66566
-15.042106,-159.22398
-15.301351,-158.7131
-15.113973,-157.69621
-15.119169,-159.3821
-14.949973,-158.15887
-15.21031,-157.96387
-15.082233,-160.16943
-15.3244,-158.35344
-15.105563,-158.73723
-14.827134,-158.74953
-15.037868,-158.21864
-15.072406,-158.13586
-14.995158,-158.10536
-15.085522,-159.39018
-15.232349,-159.31429
-14.880703,-158.53537
-15.03573,-158.62079
-15.296831,-158.86572
-15.078107,-157.60306
-15.015405,-159.63971
-15.027826,-158.13599
-14.977709,-158.42894
-15.067609,-157.60786
-15.193067,-159.55875
-14.977209,-159.17264
-15.074004,-157.87758
-14.861557,-159.66898
-14.993361,-158.94493
-15.297964,-160.90671
-15.165586,-158.43385
-15.104822,-159.84344
-15.146269,-157.81911
-14.999271,-158.49376
-15.191776,-158.84959
-15.008567,-156.59993
-15.18632,-159.57281
-15.066196,-157.65341
-15.152714,-158.90237
-15.090613,-158.50807
-14.974688,-158.57829
-15.18054,-158.20215
-15.287287,-159.10519
-15.172652,-158.82516
-14.994097,-159.43359
-15.049439,-160.21858
-15.019171,-159.41643
-15.156748,-159.73219
-15.056381,-157.847
-15.050766,-158.33244
-15.056164,-157.59135
-15.114232,-158.09032
-15.119863,-160.48752
-15.229691,-157.46768
-15.079915,-158.53612
-15.319347,-158.92459
-14.858868,-159.46666
-15.10557,-158.24858
-15.110545,-157.38466
-15.083366,-158.62245
-14.971841,-159.00253
-15.006935,-159.04361
-15.067328,-159.42058
-15.180465,-159.09003
-14.967439,-159.70131
-15.275807,-158.53725
-15.125837,-158.08836
-15.071609,-158.16521
-15.115546,-158.97552
-15.054463,-158.44339
-15.278207,-158.99341
-15.176312,-158.64592
-15.179862,-158.59479
-14.874538,-158.27872
-15.077582,-159.41586
-14.967136,-158.88721
-15.289241,-157.35864
-15.16879,-158.54457
-15.154918,-159.38196
-14.957134,-159.69388
-15.270558,-158.951
-15.220427,-159.15225
-15.21204,-158.77129
-14.965898,-158.91188
-15.097928,-158.77919
-15.052151,-157.73099
-15.122624,-158.10515
-15.216031,-159.55518
-15.017329,-158.72168
-15.03052,-158.20743
-15.195998,-159.25511
-15.171143,-159.39372
-15.061591,-157.8333
-15.128853,-158.87648
-14.997213,-158.94025
-15.25161,-158.53374
-15.174723,-158.8726
-15.068607,-157.69139
-15.263908,-158.87027
-15.245665,-158.67017
-15.046392,-159.30222
-15.119129,-159.26617
-15.127927,-158.79691
-15.126603,-158.33112
-15.036668,-160.73341
-15.026331,-159.19093
-15.10583,-158.4012
-15.228227,-158.43536
-14.957165,-159.23315
-15.054601,-157.992
-15.105446,-157.91855
-15.066445,-158.91728
-15.245605,-159.25208
-15.033503,-158.01962
-15.117274,-158.86513
-15.048937,-158.11653
-14.981382,-158.40698
-14.969895,-159.3019
-15.060286,-158.01697
-15.14914,-158.86002
-15.073005,-158.9037
-15.049745,-159.41769
-15.063071,-158.50958
-15.226352,-158.1797
-14.920736,-158.21016
-15.185886,-158.26997
-14.963469,-159.24707
-15.174372,-158.62918
-15.197064,-158.48508
-15.21256,-159.04495
-15.0862,-157.30916
-15.235808,-158.35201
-15.100939,-157.95222
-15.065001,-158.843
-15.207584,-158.37067
-15.177423,-158.32819
-15.120625,-157.98734
-15.209512,-158.08978
-15.231167,-158.29892
-15.103101,-158.65797
-15.193931,-158.20691
-15.19787,-159.32333
-15.032232,-158.58876
-15.051441,-158.96024
-15.169257,-158.46989
-15.072151,-158.79134
-15.147461,-158.33328
-15.148809,-158.82997
-15.199628,-157.65047
-15.000149,-158.43596
-15.066818,-157.95573
-15.055511,-158.92262
-15.22547,-158.93208
-15.266433,-158.63649
-15.146863,-158.81152
-15.166643,-158.72055
-15.148129,-158.31157
-15.138135,-158.39867
-15.123356,-158.70551
-15.05983,-159.02092
-15.146806,-158.47598
-15.001653,-159.11008
-15.120562,-157.53967
-15.013779,-158.54712
-15.155454,-158.09131
-15.105547,-158.25415
