CITIFILE A.01.01
!Agilent Technologies,N5230C,MY48100142,A.08.04.10
!Agilent N5230C: A.08.04.10
!Format: LogMag/Angle
!Date: Friday, September 11, 2020 16:21:08
NAME CH1_DATA
VAR Power MAG 801
DATA S11 DBANGLE
DATA S21 DBANGLE
DATA S12 DBANGLE
DATA S22 DBANGLE
VAR_LIST_BEGIN
-40
-39.975
-39.95
-39.925
-39.9
-39.875
-39.85
-39.825
-39.8
-39.775
-39.75
-39.725
-39.7
-39.675
-39.65
-39.625
-39.6
-39.575
-39.55
-39.525
-39.5
-39.475
-39.45
-39.425
-39.4
-39.375
-39.35
-39.325
-39.3
-39.275
-39.25
-39.225
-39.2
-39.175
-39.15
-39.125
-39.1
-39.075
-39.05
-39.025
-39
-38.975
-38.95
-38.925
-38.9
-38.875
-38.85
-38.825
-38.8
-38.775
-38.75
-38.725
-38.7
-38.675
-38.65
-38.625
-38.6
-38.575
-38.55
-38.525
-38.5
-38.475
-38.45
-38.425
-38.4
-38.375
-38.35
-38.325
-38.3
-38.275
-38.25
-38.225
-38.2
-38.175
-38.15
-38.125
-38.1
-38.075
-38.05
-38.025
-38
-37.975
-37.95
-37.925
-37.9
-37.875
-37.85
-37.825
-37.8
-37.775
-37.75
-37.725
-37.7
-37.675
-37.65
-37.625
-37.6
-37.575
-37.55
-37.525
-37.5
-37.475
-37.45
-37.425
-37.4
-37.375
-37.35
-37.325
-37.3
-37.275
-37.25
-37.225
-37.2
-37.175
-37.15
-37.125
-37.1
-37.075
-37.05
-37.025
-37
-36.975
-36.95
-36.925
-36.9
-36.875
-36.85
-36.825
-36.8
-36.775
-36.75
-36.725
-36.7
-36.675
-36.65
-36.625
-36.6
-36.575
-36.55
-36.525
-36.5
-36.475
-36.45
-36.425
-36.4
-36.375
-36.35
-36.325
-36.3
-36.275
-36.25
-36.225
-36.2
-36.175
-36.15
-36.125
-36.1
-36.075
-36.05
-36.025
-36
-35.975
-35.95
-35.925
-35.9
-35.875
-35.85
-35.825
-35.8
-35.775
-35.75
-35.725
-35.7
-35.675
-35.65
-35.625
-35.6
-35.575
-35.55
-35.525
-35.5
-35.475
-35.45
-35.425
-35.4
-35.375
-35.35
-35.325
-35.3
-35.275
-35.25
-35.225
-35.2
-35.175
-35.15
-35.125
-35.1
-35.075
-35.05
-35.025
-35
-34.975
-34.95
-34.925
-34.9
-34.875
-34.85
-34.825
-34.8
-34.775
-34.75
-34.725
-34.7
-34.675
-34.65
-34.625
-34.6
-34.575
-34.55
-34.525
-34.5
-34.475
-34.45
-34.425
-34.4
-34.375
-34.35
-34.325
-34.3
-34.275
-34.25
-34.225
-34.2
-34.175
-34.15
-34.125
-34.1
-34.075
-34.05
-34.025
-34
-33.975
-33.95
-33.925
-33.9
-33.875
-33.85
-33.825
-33.8
-33.775
-33.75
-33.725
-33.7
-33.675
-33.65
-33.625
-33.6
-33.575
-33.55
-33.525
-33.5
-33.475
-33.45
-33.425
-33.4
-33.375
-33.35
-33.325
-33.3
-33.275
-33.25
-33.225
-33.2
-33.175
-33.15
-33.125
-33.1
-33.075
-33.05
-33.025
-33
-32.975
-32.95
-32.925
-32.9
-32.875
-32.85
-32.825
-32.8
-32.775
-32.75
-32.725
-32.7
-32.675
-32.65
-32.625
-32.6
-32.575
-32.55
-32.525
-32.5
-32.475
-32.45
-32.425
-32.4
-32.375
-32.35
-32.325
-32.3
-32.275
-32.25
-32.225
-32.2
-32.175
-32.15
-32.125
-32.1
-32.075
-32.05
-32.025
-32
-31.975
-31.95
-31.925
-31.9
-31.875
-31.85
-31.825
-31.8
-31.775
-31.75
-31.725
-31.7
-31.675
-31.65
-31.625
-31.6
-31.575
-31.55
-31.525
-31.5
-31.475
-31.45
-31.425
-31.4
-31.375
-31.35
-31.325
-31.3
-31.275
-31.25
-31.225
-31.2
-31.175
-31.15
-31.125
-31.1
-31.075
-31.05
-31.025
-31
-30.975
-30.95
-30.925
-30.9
-30.875
-30.85
-30.825
-30.8
-30.775
-30.75
-30.725
-30.7
-30.675
-30.65
-30.625
-30.6
-30.575
-30.55
-30.525
-30.5
-30.475
-30.45
-30.425
-30.4
-30.375
-30.35
-30.325
-30.3
-30.275
-30.25
-30.225
-30.2
-30.175
-30.15
-30.125
-30.1
-30.075
-30.05
-30.025
-30
-29.975
-29.95
-29.925
-29.9
-29.875
-29.85
-29.825
-29.8
-29.775
-29.75
-29.725
-29.7
-29.675
-29.65
-29.625
-29.6
-29.575
-29.55
-29.525
-29.5
-29.475
-29.45
-29.425
-29.4
-29.375
-29.35
-29.325
-29.3
-29.275
-29.25
-29.225
-29.2
-29.175
-29.15
-29.125
-29.1
-29.075
-29.05
-29.025
-29
-28.975
-28.95
-28.925
-28.9
-28.875
-28.85
-28.825
-28.8
-28.775
-28.75
-28.725
-28.7
-28.675
-28.65
-28.625
-28.6
-28.575
-28.55
-28.525
-28.5
-28.475
-28.45
-28.425
-28.4
-28.375
-28.35
-28.325
-28.3
-28.275
-28.25
-28.225
-28.2
-28.175
-28.15
-28.125
-28.1
-28.075
-28.05
-28.025
-28
-27.975
-27.95
-27.925
-27.9
-27.875
-27.85
-27.825
-27.8
-27.775
-27.75
-27.725
-27.7
-27.675
-27.65
-27.625
-27.6
-27.575
-27.55
-27.525
-27.5
-27.475
-27.45
-27.425
-27.4
-27.375
-27.35
-27.325
-27.3
-27.275
-27.25
-27.225
-27.2
-27.175
-27.15
-27.125
-27.1
-27.075
-27.05
-27.025
-27
-26.975
-26.95
-26.925
-26.9
-26.875
-26.85
-26.825
-26.8
-26.775
-26.75
-26.725
-26.7
-26.675
-26.65
-26.625
-26.6
-26.575
-26.55
-26.525
-26.5
-26.475
-26.45
-26.425
-26.4
-26.375
-26.35
-26.325
-26.3
-26.275
-26.25
-26.225
-26.2
-26.175
-26.15
-26.125
-26.1
-26.075
-26.05
-26.025
-26
-25.975
-25.95
-25.925
-25.9
-25.875
-25.85
-25.825
-25.8
-25.775
-25.75
-25.725
-25.7
-25.675
-25.65
-25.625
-25.6
-25.575
-25.55
-25.525
-25.5
-25.475
-25.45
-25.425
-25.4
-25.375
-25.35
-25.325
-25.3
-25.275
-25.25
-25.225
-25.2
-25.175
-25.15
-25.125
-25.1
-25.075
-25.05
-25.025
-25
-24.975
-24.95
-24.925
-24.9
-24.875
-24.85
-24.825
-24.8
-24.775
-24.75
-24.725
-24.7
-24.675
-24.65
-24.625
-24.6
-24.575
-24.55
-24.525
-24.5
-24.475
-24.45
-24.425
-24.4
-24.375
-24.35
-24.325
-24.3
-24.275
-24.25
-24.225
-24.2
-24.175
-24.15
-24.125
-24.1
-24.075
-24.05
-24.025
-24
-23.975
-23.95
-23.925
-23.9
-23.875
-23.85
-23.825
-23.8
-23.775
-23.75
-23.725
-23.7
-23.675
-23.65
-23.625
-23.6
-23.575
-23.55
-23.525
-23.5
-23.475
-23.45
-23.425
-23.4
-23.375
-23.35
-23.325
-23.3
-23.275
-23.25
-23.225
-23.2
-23.175
-23.15
-23.125
-23.1
-23.075
-23.05
-23.025
-23
-22.975
-22.95
-22.925
-22.9
-22.875
-22.85
-22.825
-22.8
-22.775
-22.75
-22.725
-22.7
-22.675
-22.65
-22.625
-22.6
-22.575
-22.55
-22.525
-22.5
-22.475
-22.45
-22.425
-22.4
-22.375
-22.35
-22.325
-22.3
-22.275
-22.25
-22.225
-22.2
-22.175
-22.15
-22.125
-22.1
-22.075
-22.05
-22.025
-22
-21.975
-21.95
-21.925
-21.9
-21.875
-21.85
-21.825
-21.8
-21.775
-21.75
-21.725
-21.7
-21.675
-21.65
-21.625
-21.6
-21.575
-21.55
-21.525
-21.5
-21.475
-21.45
-21.425
-21.4
-21.375
-21.35
-21.325
-21.3
-21.275
-21.25
-21.225
-21.2
-21.175
-21.15
-21.125
-21.1
-21.075
-21.05
-21.025
-21
-20.975
-20.95
-20.925
-20.9
-20.875
-20.85
-20.825
-20.8
-20.775
-20.75
-20.725
-20.7
-20.675
-20.65
-20.625
-20.6
-20.575
-20.55
-20.525
-20.5
-20.475
-20.45
-20.425
-20.4
-20.375
-20.35
-20.325
-20.3
-20.275
-20.25
-20.225
-20.2
-20.175
-20.15
-20.125
-20.1
-20.075
-20.05
-20.025
-20
VAR_LIST_END
BEGIN
-14.958911,-166.12897
-16.192282,-168.44888
-15.460646,-158.41228
-14.294465,-161.59053
-13.694956,-174.4257
-14.1639,-160.94791
-14.040986,-155.99161
-14.413324,-152.48441
-14.825308,-154.23888
-17.016775,-155.92776
-14.865935,-168.48126
-18.95857,-168.30745
-14.688656,-153.62329
-15.944745,-150.22054
-14.117591,-154.20131
-13.757446,-153.94304
-14.593784,-170.3774
-14.503019,-146.91512
-16.074669,-158.09979
-15.364425,-151.2318
-15.260077,-164.88879
-14.091782,-161.01788
-17.550596,-165.4901
-14.210065,-162.97575
-14.636124,-168.48532
-14.4963,-158.868
-16.046906,-156.15106
-12.11511,-157.50482
-14.315213,-148.93549
-16.017641,-155.67661
-15.131785,-165.7169
-15.171898,-167.11411
-16.280342,-159.34024
-15.564734,-159.9201
-16.422485,-169.09529
-14.677095,-159.96324
-15.293468,-157.06317
-14.923221,-159.38036
-14.564234,-164.07573
-14.006798,-150.91594
-14.476364,-163.26299
-17.297501,-163.53711
-13.542023,-158.9147
-16.399897,-162.42583
-15.303101,-161.61766
-14.892955,-155.98718
-15.029694,-170.52943
-16.126949,-161.93628
-15.127441,-158.45505
-15.405536,-159.83926
-16.536547,-156.43918
-15.283632,-156.92688
-16.877958,-166.40411
-16.037546,-177.79559
-13.548583,-166.8289
-14.796609,-160.75974
-14.385603,-157.48218
-16.313757,-151.99947
-14.876728,-163.02583
-17.316854,-150.45499
-15.996563,-167.54988
-14.626441,-160.38234
-14.945947,-161.87624
-16.077841,-154.63327
-14.368915,-177.57227
-14.882546,-158.98332
-14.12272,-164.75771
-14.708414,-158.8719
-13.915524,-158.09225
-13.632698,-163.42369
-13.472034,-169.83585
-15.137505,-165.51718
-14.318193,-164.19852
-16.135691,-164.1059
-15.247515,-150.41115
-15.18393,-162.25427
-15.387684,-163.60074
-15.261649,-161.05916
-16.01457,-164.05544
-16.217773,-163.91475
-14.154248,-160.0822
-15.003316,-152.15831
-15.794459,-151.24454
-12.819466,-161.33113
-14.724049,-162.89697
-15.664408,-152.63998
-13.771051,-155.73918
-13.179423,-163.97621
-14.980209,-152.50998
-17.109373,-163.79698
-13.703372,-159.31213
-14.009783,-156.27167
-15.490732,-167.0575
-14.159839,-154.94116
-17.416454,-150.56317
-13.460718,-154.09499
-14.510907,-163.33437
-14.613311,-151.5986
-15.18996,-159.09001
-14.90573,-164.28177
-15.328889,-166.89095
-15.494687,-167.33508
-16.144539,-162.39738
-15.404248,-163.93559
-15.681006,-168.38016
-14.867301,-155.04568
-14.815886,-159.92612
-15.498813,-163.39441
-16.78998,-147.45134
-15.104163,-165.09735
-16.512533,-160.31894
-13.340897,-155.2146
-13.91754,-154.82327
-14.475858,-166.67505
-13.904494,-148.94174
-14.376326,-170.51495
-14.177925,-161.43481
-15.925691,-160.29709
-15.279302,-158.07341
-14.299001,-158.43912
-15.044727,-157.54218
-15.05206,-156.35414
-16.954689,-154.06335
-13.416808,-161.85114
-15.471338,-171.59639
-16.934784,-168.91745
-16.706861,-164.79855
-15.532251,-151.65526
-15.947798,-154.65997
-13.575039,-154.16154
-15.729582,-155.81662
-13.426744,-155.53288
-15.368002,-154.30156
-15.808017,-158.47078
-15.258081,-157.70258
-14.466665,-148.478
-15.212779,-168.76781
-14.674826,-163.95427
-14.727678,-158.82269
-14.666601,-155.9292
-15.881974,-151.00841
-14.776066,-162.28426
-14.673338,-162.37866
-13.750913,-158.63184
-15.83863,-145.27415
-15.110709,-165.1693
-14.920727,-168.25517
-15.763085,-152.35158
-14.567332,-153.99963
-15.038917,-149.07994
-15.569937,-168.24753
-15.782491,-160.55937
-15.478047,-164.53592
-14.357386,-154.7914
-14.766361,-151.15739
-15.683257,-155.67311
-14.8794,-152.0321
-14.573984,-148.26178
-15.432231,-160.2511
-13.954053,-164.23056
-15.838333,-147.48637
-14.945081,-160.87241
-15.945189,-156.83093
-17.195217,-153.4892
-14.263074,-166.10168
-14.080881,-154.47661
-16.243372,-157.68597
-15.847217,-159.54402
-14.52,-156.71471
-16.621595,-147.15948
-13.349382,-154.80174
-15.173738,-159.96397
-16.11285,-152.17867
-15.114313,-159.29625
-15.132969,-167.3436
-15.868385,-148.3396
-15.178921,-166.25737
-14.854451,-165.868
-15.642015,-159.63811
-16.363745,-159.89198
-15.019857,-161.66536
-15.357722,-155.1713
-15.250986,-156.36137
-15.557137,-155.451
-15.27153,-161.17786
-15.389191,-159.57256
-14.140957,-162.57684
-15.44523,-166.46523
-14.6652,-161.6803
-15.111904,-154.70387
-15.273028,-165.96899
-16.629868,-154.17766
-14.175725,-158.29367
-14.015512,-157.54921
-13.428922,-154.7623
-14.430126,-154.91267
-15.139847,-153.07925
-15.090152,-154.73616
-16.268187,-166.79411
-15.75396,-156.04344
-13.935004,-156.43556
-15.213304,-157.34129
-14.602308,-160.25456
-14.565382,-162.56934
-16.410305,-164.15532
-14.998158,-159.26758
-14.793262,-159.58661
-13.773027,-164.01837
-15.9457,-164.33694
-14.693983,-155.14458
-14.837144,-161.20639
-15.136606,-156.66803
-15.32259,-152.44118
-14.689943,-158.0248
-14.946576,-153.14064
-15.411787,-161.47145
-15.137766,-154.14592
-15.164236,-162.72615
-15.610114,-152.47963
-14.947792,-156.40791
-15.332571,-167.23926
-14.920829,-163.94298
-14.273472,-159.07805
-16.11467,-160.21942
-15.588791,-157.96025
-15.538474,-158.24722
-16.081091,-158.16345
-14.58388,-158.24475
-15.009657,-160.77873
-14.919514,-160.49455
-14.475411,-159.74861
-15.688376,-154.2803
-14.771763,-161.14276
-14.111997,-162.42215
-15.214859,-159.48558
-14.903191,-160.49232
-14.807266,-156.98401
-15.73841,-163.06143
-15.557384,-162.85385
-14.727394,-148.88309
-15.079017,-157.09087
-14.872126,-157.12474
-14.539003,-158.17284
-15.205836,-161.64371
-15.262888,-154.03308
-14.813352,-157.67851
-15.061687,-162.20673
-14.784377,-154.90106
-13.685649,-168.26923
-14.43108,-161.34296
-14.871408,-157.60457
-15.029189,-161.15709
-15.029719,-161.3002
-16.199886,-162.46898
-15.806368,-160.9153
-15.967095,-158.37851
-15.71464,-160.94012
-15.175332,-163.078
-15.1832,-154.97339
-15.241411,-154.44504
-15.340137,-160.61028
-14.101518,-158.22395
-15.154759,-160.3065
-15.854585,-154.75633
-14.865068,-155.86787
-15.060343,-152.41145
-15.55743,-149.87122
-14.033245,-154.04822
-15.408464,-162.50903
-14.431917,-158.7838
-15.405394,-160.23779
-16.174103,-161.97316
-15.932107,-157.11436
-14.841547,-161.74023
-15.12136,-151.78514
-15.165183,-160.09048
-15.402689,-159.58852
-15.724388,-160.81386
-15.137074,-156.45105
-15.251719,-154.42873
-14.59162,-155.60565
-15.174766,-160.8634
-15.554074,-158.19208
-14.688879,-160.18121
-14.625333,-158.47794
-14.912587,-161.2298
-15.073386,-149.19283
-15.309123,-151.35294
-14.866523,-165.69652
-14.120129,-160.98199
-14.624863,-158.24536
-15.671689,-152.04663
-15.802767,-162.57095
-15.20131,-156.6572
-15.299003,-158.61299
-14.575047,-159.42447
-13.860232,-160.94756
-14.373095,-158.13983
-14.027651,-156.94785
-15.026394,-160.81902
-15.888968,-163.98058
-14.761871,-160.2475
-15.091542,-156.16322
-15.100496,-154.8102
-15.286115,-164.49146
-14.284292,-161.36128
-15.208022,-156.40941
-15.420727,-157.50029
-15.154916,-158.36554
-15.0454,-158.34293
-15.340705,-154.15938
-15.227786,-157.4315
-14.345067,-161.6078
-14.81047,-160.97458
-15.585525,-162.15968
-15.109117,-160.05397
-14.874284,-160.54378
-15.748717,-165.50166
-14.468242,-157.27252
-14.885514,-153.79628
-14.631524,-161.99802
-14.275185,-162.50024
-15.118629,-156.38869
-14.234148,-160.24564
-15.377531,-159.2556
-14.972263,-156.19589
-14.810086,-155.2664
-14.922322,-152.25035
-15.282848,-161.60059
-15.403085,-163.88835
-15.725323,-162.96144
-15.124464,-162.2021
-14.586746,-158.26428
-14.788104,-156.86238
-15.098531,-156.56697
-14.819057,-158.04871
-16.06208,-164.49092
-14.411496,-164.82747
-15.022265,-158.63589
-14.720611,-158.77031
-15.249035,-159.44482
-15.467067,-158.14404
-14.917443,-158.09155
-14.674185,-164.41887
-15.169056,-160.36108
-15.181621,-156.62823
-14.51136,-159.59383
-14.682364,-161.43268
-14.588136,-161.30025
-15.336027,-160.07074
-14.844063,-152.78384
-15.045788,-155.95714
-15.35581,-156.50298
-14.357228,-152.23422
-15.509253,-156.09767
-15.648645,-162.92221
-15.340567,-159.24278
-14.07581,-156.14259
-14.574037,-155.89215
-15.005019,-161.69995
-14.7941,-153.5972
-15.353741,-153.19263
-14.932111,-156.70705
-14.779247,-159.00278
-15.301146,-158.23358
-15.456539,-158.28975
-14.312721,-160.15039
-15.487129,-154.61031
-14.945198,-157.78358
-14.627126,-156.16707
-14.848545,-160.8555
-14.956188,-155.21671
-14.367185,-156.50946
-15.386096,-156.42091
-15.107398,-159.81401
-14.666838,-158.44319
-14.941718,-153.68027
-15.795108,-154.75743
-14.659632,-159.13036
-14.640488,-157.84109
-14.554894,-155.29478
-16.099869,-155.82028
-15.439271,-160.11069
-14.921766,-155.23337
-14.725026,-156.13948
-15.397192,-160.48946
-14.938635,-162.8434
-15.340187,-161.26031
-15.096253,-157.5002
-14.343822,-162.7439
-14.873442,-155.76294
-14.485189,-163.99278
-15.389348,-154.61288
-14.664118,-160.87006
-14.969847,-158.33192
-14.382776,-158.60579
-15.06947,-163.0735
-14.857093,-155.86681
-14.684291,-155.75557
-14.981569,-155.78778
-14.552217,-161.10742
-15.371571,-155.56721
-14.939273,-160.28494
-15.010192,-160.32681
-14.928938,-161.68581
-15.082784,-158.83972
-14.628461,-156.92105
-15.320751,-157.00999
-14.923071,-161.60258
-15.674056,-158.36009
-14.995533,-156.39194
-14.939445,-158.7506
-15.093534,-159.44481
-14.938254,-153.15221
-15.03826,-158.38843
-15.158529,-158.32809
-14.617455,-160.35316
-16.00017,-160.68369
-14.597167,-159.66423
-14.508149,-158.21539
-15.033509,-155.3924
-15.336083,-160.94742
-14.988173,-161.23094
-16.037436,-160.11401
-15.349202,-165.28671
-15.519701,-158.1834
-14.634489,-157.50891
-15.233606,-157.82173
-15.149901,-164.77119
-15.047639,-160.72105
-15.366849,-160.83797
-14.633063,-156.92589
-14.768725,-158.69122
-14.929262,-161.55127
-14.85079,-161.10631
-14.942231,-158.68425
-15.484227,-156.41296
-15.102804,-163.07121
-15.90532,-158.83714
-15.533313,-156.15831
-15.389441,-158.77586
-15.29736,-158.88475
-15.040155,-158.46135
-15.127219,-156.53699
-15.399501,-156.48091
-15.224407,-156.51881
-15.835972,-156.29036
-15.026813,-155.62004
-15.35178,-160.87123
-14.723022,-160.3307
-14.765448,-162.2088
-14.472063,-156.61433
-14.61584,-160.77075
-15.160065,-157.65878
-16.155962,-157.1949
-15.022113,-157.6524
-14.57893,-159.21587
-15.302476,-158.38391
-15.07113,-157.25545
-15.156499,-158.51781
-15.439571,-158.2045
-14.483553,-157.66925
-15.159343,-156.97198
-14.993142,-160.82669
-14.549765,-155.84308
-14.388622,-159.26833
-14.329709,-160.55086
-15.209881,-159.99847
-15.282559,-163.78448
-15.626152,-159.56691
-15.266689,-155.85837
-14.602567,-160.2092
-15.285863,-157.70593
-15.608295,-156.56
-15.910047,-158.98079
-15.597337,-154.20605
-14.359165,-159.18654
-15.053598,-158.66589
-14.885564,-159.99615
-14.603158,-161.53413
-15.196291,-156.90555
-14.940021,-159.02092
-14.899355,-158.75832
-14.661561,-158.55319
-14.776402,-156.25732
-14.838122,-155.39961
-14.961735,-156.86427
-15.55781,-160.4808
-14.989309,-155.86781
-15.109303,-156.71777
-14.719893,-161.27097
-15.782784,-156.80188
-14.788443,-158.64922
-14.958151,-157.1208
-14.987124,-164.69756
-14.986677,-155.198
-15.098664,-158.31087
-14.817912,-162.02232
-15.221859,-157.51517
-14.863509,-160.33125
-15.132471,-158.67706
-15.56066,-158.85025
-14.624305,-160.28282
-14.650023,-157.28371
-15.547733,-161.23643
-15.46147,-157.44603
-15.291677,-158.51434
-14.525549,-162.14149
-15.31875,-162.72133
-14.903913,-162.50179
-14.77399,-159.97273
-14.717192,-158.01436
-15.342793,-159.75992
-14.764594,-157.5347
-15.248834,-155.0739
-14.967313,-159.81473
-14.847383,-159.33308
-14.915937,-160.92036
-14.513496,-160.6479
-14.676659,-160.02736
-14.908895,-156.81317
-15.100112,-158.01736
-15.301727,-157.12509
-15.093482,-157.98576
-14.887494,-155.28052
-15.35787,-157.27893
-15.128314,-159.50967
-15.110963,-160.34082
-15.117524,-157.46118
-15.260812,-157.38713
-15.086684,-157.23042
-15.201557,-158.26169
-14.745862,-157.06535
-15.11517,-159.57596
-15.070153,-157.93391
-14.783854,-158.94186
-14.969779,-163.66742
-15.163742,-162.15068
-15.164111,-160.74896
-15.293921,-160.60287
-14.985284,-159.79951
-14.491711,-157.53258
-15.516698,-158.20549
-15.211436,-158.54315
-15.347931,-156.01004
-14.916746,-155.60367
-15.302578,-159.39026
-14.543749,-160.27441
-15.224015,-158.4928
-14.988039,-161.27498
-15.212756,-159.82237
-15.103046,-154.72046
-14.687795,-154.70029
-14.779463,-157.99463
-15.068783,-161.33195
-14.586757,-158.6546
-15.391976,-158.97739
-14.719893,-158.62654
-15.254112,-159.83481
-15.392626,-159.04785
-14.734121,-159.0688
-14.792348,-158.71014
-15.06522,-157.06352
-14.862543,-157.95908
-15.122626,-162.17825
-14.694882,-155.77893
-15.011168,-161.13818
-15.214554,-157.66031
-14.920943,-158.2757
-14.948895,-158.40405
-14.836287,-159.90666
-15.356173,-156.97498
-15.258865,-157.12721
-15.321013,-160.79065
-14.944354,-156.60944
-14.6979,-160.56335
-14.642909,-158.61328
