CITIFILE A.01.01
!Agilent Technologies,N5230C,MY48100142,A.08.04.10
!Agilent N5230C: A.08.04.10
!Format: LogMag/Angle
!Date: Friday, September 11, 2020 16:23:10
NAME CH1_DATA
VAR Power MAG 801
DATA S11 DBANGLE
DATA S21 DBANGLE
DATA S12 DBANGLE
DATA S22 DBANGLE
VAR_LIST_BEGIN
-40
-39.975
-39.95
-39.925
-39.9
-39.875
-39.85
-39.825
-39.8
-39.775
-39.75
-39.725
-39.7
-39.675
-39.65
-39.625
-39.6
-39.575
-39.55
-39.525
-39.5
-39.475
-39.45
-39.425
-39.4
-39.375
-39.35
-39.325
-39.3
-39.275
-39.25
-39.225
-39.2
-39.175
-39.15
-39.125
-39.1
-39.075
-39.05
-39.025
-39
-38.975
-38.95
-38.925
-38.9
-38.875
-38.85
-38.825
-38.8
-38.775
-38.75
-38.725
-38.7
-38.675
-38.65
-38.625
-38.6
-38.575
-38.55
-38.525
-38.5
-38.475
-38.45
-38.425
-38.4
-38.375
-38.35
-38.325
-38.3
-38.275
-38.25
-38.225
-38.2
-38.175
-38.15
-38.125
-38.1
-38.075
-38.05
-38.025
-38
-37.975
-37.95
-37.925
-37.9
-37.875
-37.85
-37.825
-37.8
-37.775
-37.75
-37.725
-37.7
-37.675
-37.65
-37.625
-37.6
-37.575
-37.55
-37.525
-37.5
-37.475
-37.45
-37.425
-37.4
-37.375
-37.35
-37.325
-37.3
-37.275
-37.25
-37.225
-37.2
-37.175
-37.15
-37.125
-37.1
-37.075
-37.05
-37.025
-37
-36.975
-36.95
-36.925
-36.9
-36.875
-36.85
-36.825
-36.8
-36.775
-36.75
-36.725
-36.7
-36.675
-36.65
-36.625
-36.6
-36.575
-36.55
-36.525
-36.5
-36.475
-36.45
-36.425
-36.4
-36.375
-36.35
-36.325
-36.3
-36.275
-36.25
-36.225
-36.2
-36.175
-36.15
-36.125
-36.1
-36.075
-36.05
-36.025
-36
-35.975
-35.95
-35.925
-35.9
-35.875
-35.85
-35.825
-35.8
-35.775
-35.75
-35.725
-35.7
-35.675
-35.65
-35.625
-35.6
-35.575
-35.55
-35.525
-35.5
-35.475
-35.45
-35.425
-35.4
-35.375
-35.35
-35.325
-35.3
-35.275
-35.25
-35.225
-35.2
-35.175
-35.15
-35.125
-35.1
-35.075
-35.05
-35.025
-35
-34.975
-34.95
-34.925
-34.9
-34.875
-34.85
-34.825
-34.8
-34.775
-34.75
-34.725
-34.7
-34.675
-34.65
-34.625
-34.6
-34.575
-34.55
-34.525
-34.5
-34.475
-34.45
-34.425
-34.4
-34.375
-34.35
-34.325
-34.3
-34.275
-34.25
-34.225
-34.2
-34.175
-34.15
-34.125
-34.1
-34.075
-34.05
-34.025
-34
-33.975
-33.95
-33.925
-33.9
-33.875
-33.85
-33.825
-33.8
-33.775
-33.75
-33.725
-33.7
-33.675
-33.65
-33.625
-33.6
-33.575
-33.55
-33.525
-33.5
-33.475
-33.45
-33.425
-33.4
-33.375
-33.35
-33.325
-33.3
-33.275
-33.25
-33.225
-33.2
-33.175
-33.15
-33.125
-33.1
-33.075
-33.05
-33.025
-33
-32.975
-32.95
-32.925
-32.9
-32.875
-32.85
-32.825
-32.8
-32.775
-32.75
-32.725
-32.7
-32.675
-32.65
-32.625
-32.6
-32.575
-32.55
-32.525
-32.5
-32.475
-32.45
-32.425
-32.4
-32.375
-32.35
-32.325
-32.3
-32.275
-32.25
-32.225
-32.2
-32.175
-32.15
-32.125
-32.1
-32.075
-32.05
-32.025
-32
-31.975
-31.95
-31.925
-31.9
-31.875
-31.85
-31.825
-31.8
-31.775
-31.75
-31.725
-31.7
-31.675
-31.65
-31.625
-31.6
-31.575
-31.55
-31.525
-31.5
-31.475
-31.45
-31.425
-31.4
-31.375
-31.35
-31.325
-31.3
-31.275
-31.25
-31.225
-31.2
-31.175
-31.15
-31.125
-31.1
-31.075
-31.05
-31.025
-31
-30.975
-30.95
-30.925
-30.9
-30.875
-30.85
-30.825
-30.8
-30.775
-30.75
-30.725
-30.7
-30.675
-30.65
-30.625
-30.6
-30.575
-30.55
-30.525
-30.5
-30.475
-30.45
-30.425
-30.4
-30.375
-30.35
-30.325
-30.3
-30.275
-30.25
-30.225
-30.2
-30.175
-30.15
-30.125
-30.1
-30.075
-30.05
-30.025
-30
-29.975
-29.95
-29.925
-29.9
-29.875
-29.85
-29.825
-29.8
-29.775
-29.75
-29.725
-29.7
-29.675
-29.65
-29.625
-29.6
-29.575
-29.55
-29.525
-29.5
-29.475
-29.45
-29.425
-29.4
-29.375
-29.35
-29.325
-29.3
-29.275
-29.25
-29.225
-29.2
-29.175
-29.15
-29.125
-29.1
-29.075
-29.05
-29.025
-29
-28.975
-28.95
-28.925
-28.9
-28.875
-28.85
-28.825
-28.8
-28.775
-28.75
-28.725
-28.7
-28.675
-28.65
-28.625
-28.6
-28.575
-28.55
-28.525
-28.5
-28.475
-28.45
-28.425
-28.4
-28.375
-28.35
-28.325
-28.3
-28.275
-28.25
-28.225
-28.2
-28.175
-28.15
-28.125
-28.1
-28.075
-28.05
-28.025
-28
-27.975
-27.95
-27.925
-27.9
-27.875
-27.85
-27.825
-27.8
-27.775
-27.75
-27.725
-27.7
-27.675
-27.65
-27.625
-27.6
-27.575
-27.55
-27.525
-27.5
-27.475
-27.45
-27.425
-27.4
-27.375
-27.35
-27.325
-27.3
-27.275
-27.25
-27.225
-27.2
-27.175
-27.15
-27.125
-27.1
-27.075
-27.05
-27.025
-27
-26.975
-26.95
-26.925
-26.9
-26.875
-26.85
-26.825
-26.8
-26.775
-26.75
-26.725
-26.7
-26.675
-26.65
-26.625
-26.6
-26.575
-26.55
-26.525
-26.5
-26.475
-26.45
-26.425
-26.4
-26.375
-26.35
-26.325
-26.3
-26.275
-26.25
-26.225
-26.2
-26.175
-26.15
-26.125
-26.1
-26.075
-26.05
-26.025
-26
-25.975
-25.95
-25.925
-25.9
-25.875
-25.85
-25.825
-25.8
-25.775
-25.75
-25.725
-25.7
-25.675
-25.65
-25.625
-25.6
-25.575
-25.55
-25.525
-25.5
-25.475
-25.45
-25.425
-25.4
-25.375
-25.35
-25.325
-25.3
-25.275
-25.25
-25.225
-25.2
-25.175
-25.15
-25.125
-25.1
-25.075
-25.05
-25.025
-25
-24.975
-24.95
-24.925
-24.9
-24.875
-24.85
-24.825
-24.8
-24.775
-24.75
-24.725
-24.7
-24.675
-24.65
-24.625
-24.6
-24.575
-24.55
-24.525
-24.5
-24.475
-24.45
-24.425
-24.4
-24.375
-24.35
-24.325
-24.3
-24.275
-24.25
-24.225
-24.2
-24.175
-24.15
-24.125
-24.1
-24.075
-24.05
-24.025
-24
-23.975
-23.95
-23.925
-23.9
-23.875
-23.85
-23.825
-23.8
-23.775
-23.75
-23.725
-23.7
-23.675
-23.65
-23.625
-23.6
-23.575
-23.55
-23.525
-23.5
-23.475
-23.45
-23.425
-23.4
-23.375
-23.35
-23.325
-23.3
-23.275
-23.25
-23.225
-23.2
-23.175
-23.15
-23.125
-23.1
-23.075
-23.05
-23.025
-23
-22.975
-22.95
-22.925
-22.9
-22.875
-22.85
-22.825
-22.8
-22.775
-22.75
-22.725
-22.7
-22.675
-22.65
-22.625
-22.6
-22.575
-22.55
-22.525
-22.5
-22.475
-22.45
-22.425
-22.4
-22.375
-22.35
-22.325
-22.3
-22.275
-22.25
-22.225
-22.2
-22.175
-22.15
-22.125
-22.1
-22.075
-22.05
-22.025
-22
-21.975
-21.95
-21.925
-21.9
-21.875
-21.85
-21.825
-21.8
-21.775
-21.75
-21.725
-21.7
-21.675
-21.65
-21.625
-21.6
-21.575
-21.55
-21.525
-21.5
-21.475
-21.45
-21.425
-21.4
-21.375
-21.35
-21.325
-21.3
-21.275
-21.25
-21.225
-21.2
-21.175
-21.15
-21.125
-21.1
-21.075
-21.05
-21.025
-21
-20.975
-20.95
-20.925
-20.9
-20.875
-20.85
-20.825
-20.8
-20.775
-20.75
-20.725
-20.7
-20.675
-20.65
-20.625
-20.6
-20.575
-20.55
-20.525
-20.5
-20.475
-20.45
-20.425
-20.4
-20.375
-20.35
-20.325
-20.3
-20.275
-20.25
-20.225
-20.2
-20.175
-20.15
-20.125
-20.1
-20.075
-20.05
-20.025
-20
VAR_LIST_END
BEGIN
-15.417252,-156.27411
-14.85738,-165.84909
-14.616033,-154.33667
-14.82791,-156.65567
-14.873648,-158.92342
-14.574327,-155.3644
-15.295389,-157.86618
-15.588761,-156.72755
-15.372901,-158.46552
-14.753227,-154.68105
-14.441359,-159.72586
-14.525351,-154.42436
-15.308722,-156.23653
-15.265611,-162.08058
-15.43952,-161.02852
-15.699101,-159.69933
-14.87628,-158.95981
-14.811763,-161.20485
-14.486489,-157.41583
-14.217921,-156.93382
-15.05585,-159.50407
-15.1367,-154.07559
-14.551984,-153.83148
-15.410351,-159.27113
-15.232553,-157.98605
-15.512804,-158.46733
-15.040399,-155.79854
-15.608261,-164.86267
-14.826072,-156.65562
-15.843386,-162.44728
-14.643068,-166.20885
-15.10585,-156.71643
-14.671035,-159.92645
-14.817803,-153.38875
-14.627956,-155.56631
-15.33152,-160.43459
-14.489509,-156.17665
-15.224618,-162.853
-14.604994,-156.3024
-13.515854,-157.83258
-14.585523,-159.01135
-15.820186,-158.4012
-14.541224,-159.41425
-15.551251,-159.35704
-15.669529,-157.88533
-14.094233,-155.13319
-14.949742,-160.89397
-14.120607,-154.33102
-14.543868,-155.76999
-14.316204,-152.92883
-15.434114,-148.16553
-15.529082,-154.82713
-14.30491,-158.69916
-15.190145,-161.37125
-15.941216,-162.56906
-15.76822,-151.06189
-15.021804,-154.17812
-14.750129,-156.85692
-15.466898,-161.8221
-16.365959,-155.98082
-15.483147,-160.60902
-14.782779,-160.51974
-14.87577,-156.71069
-15.51126,-155.03459
-14.895468,-155.52246
-15.434788,-156.17384
-15.288882,-160.25658
-14.795294,-155.25859
-14.83493,-162.28822
-15.179533,-158.58566
-15.42202,-158.63554
-15.830426,-154.38942
-15.243223,-161.97092
-15.156605,-162.11925
-14.960299,-158.8951
-15.497564,-158.32457
-14.939015,-161.03299
-15.076484,-160.1562
-15.220111,-159.94728
-14.365099,-155.74831
-16.011929,-160.81635
-14.807185,-156.34155
-15.063879,-154.33267
-14.96008,-157.10535
-14.989219,-160.74538
-15.374558,-159.45299
-15.030115,-164.30402
-15.105526,-162.8503
-15.831026,-155.95401
-14.457083,-156.01735
-14.57306,-153.95576
-14.976323,-158.20952
-14.959414,-154.91608
-15.348799,-158.73103
-15.864431,-161.00812
-15.793158,-163.60361
-14.753416,-164.23703
-14.509183,-156.51704
-15.205596,-162.54854
-14.28535,-161.73537
-14.780525,-163.73433
-15.45581,-159.4985
-15.444406,-153.46977
-15.299811,-162.2771
-14.610566,-160.27391
-14.498169,-157.08035
-15.538492,-155.76939
-15.03915,-161.95428
-15.306861,-156.60924
-15.646097,-160.62596
-15.860464,-158.97862
-14.895112,-163.06219
-15.114351,-157.465
-15.476725,-155.90182
-14.616677,-158.96672
-15.15677,-156.55191
-15.199189,-157.76328
-15.24297,-158.04085
-14.500413,-163.48245
-15.225458,-159.22525
-14.881557,-155.64967
-14.966075,-158.15836
-14.290218,-156.42555
-15.886724,-161.80328
-15.620587,-162.53214
-15.587751,-158.03432
-15.168409,-157.16763
-15.727192,-157.06873
-14.72381,-157.92982
-15.285348,-156.8278
-14.846205,-158.12402
-15.727734,-157.25732
-14.8256,-161.52734
-14.793432,-163.38647
-15.10628,-156.94916
-15.094858,-160.25594
-14.467876,-159.78194
-14.904553,-162.88159
-14.220505,-162.58005
-15.131333,-159.17052
-14.847503,-161.37416
-15.223279,-157.66696
-14.322224,-158.25714
-14.994507,-158.51544
-14.515606,-157.56197
-15.237208,-159.31364
-15.041754,-159.7948
-14.919594,-161.39473
-15.304201,-157.02802
-15.344933,-160.22176
-15.192059,-159.93588
-14.797136,-159.9649
-14.848309,-162.01834
-15.281508,-157.36751
-15.442546,-158.30931
-15.565751,-163.0096
-15.580037,-157.62222
-15.14895,-160.41638
-15.79933,-158.56102
-15.535155,-157.30418
-14.988016,-158.84517
-14.782134,-158.46748
-15.19,-154.28474
-15.139461,-161.4131
-15.111261,-158.30122
-14.896882,-161.91972
-14.600285,-162.27913
-15.20182,-160.56218
-14.766706,-156.7596
-15.212774,-159.60071
-15.48321,-159.89995
-14.686193,-158.71954
-14.549369,-159.81833
-14.695831,-156.1264
-15.389559,-166.02122
-14.765682,-155.11292
-14.75053,-157.89224
-15.433825,-162.49051
-15.051406,-161.33878
-14.147744,-159.33492
-14.899292,-161.30492
-15.63253,-157.00288
-14.838284,-160.44073
-15.434908,-158.71036
-14.796017,-161.04138
-14.89833,-159.27861
-14.462981,-160.20665
-14.523251,-157.76741
-15.474339,-162.58986
-15.354484,-162.14189
-14.962524,-157.8168
-15.288875,-160.28081
-14.792853,-156.52592
-14.83814,-156.51305
-14.429351,-158.96059
-15.471683,-158.12251
-15.09832,-158.39182
-14.645329,-156.75859
-14.878531,-159.33688
-14.461576,-159.6256
-14.651013,-159.18135
-15.210446,-158.39149
-14.683173,-157.6422
-15.428213,-156.6633
-15.272125,-160.94366
-15.038328,-160.69359
-14.655828,-161.18129
-15.117762,-156.26596
-15.109505,-157.46729
-14.892221,-159.13158
-14.561875,-157.8544
-14.950115,-160.59415
-14.968943,-161.08887
-14.969531,-158.00793
-14.595232,-158.57487
-15.438142,-160.01469
-15.505582,-154.50685
-14.960021,-157.11275
-15.200571,-159.97354
-15.674396,-158.11964
-14.599234,-163.03001
-15.044878,-159.45793
-15.3137,-160.52896
-14.961592,-158.41991
-15.187606,-156.97861
-14.778715,-155.57281
-15.121647,-158.83759
-14.643175,-160.20793
-15.061842,-162.32356
-15.303763,-158.10652
-15.393831,-161.91388
-14.894179,-154.27928
-14.998713,-158.47682
-15.26456,-157.42198
-14.936684,-160.63672
-15.53416,-158.40599
-14.59986,-161.3562
-15.287486,-158.85852
-14.930423,-161.82817
-15.301636,-159.08806
-15.333955,-159.27847
-15.061457,-156.47366
-15.039682,-156.6898
-15.128166,-158.69908
-14.892352,-155.70886
-14.918601,-159.64929
-14.925028,-159.62859
-15.076692,-158.91859
-15.101202,-158.49286
-15.157379,-157.41574
-15.057784,-159.5164
-14.923949,-160.0062
-14.593347,-163.4192
-14.935896,-157.65619
-14.941638,-159.01794
-14.843678,-159.68593
-15.461349,-159.36792
-14.790666,-156.65804
-15.037764,-158.0343
-15.45235,-157.26105
-14.770406,-156.48018
-14.636282,-160.27515
-14.706193,-155.02521
-15.07178,-158.99202
-15.142884,-157.18082
-15.010283,-159.28896
-15.200799,-159.16386
-15.545407,-158.26068
-14.811472,-159.37494
-15.109023,-157.10106
-14.882361,-157.23384
-15.170881,-158.65997
-14.715497,-160.14557
-15.207003,-161.35306
-15.006956,-157.90952
-14.840034,-160.02214
-14.847541,-163.94127
-15.053384,-158.39354
-15.342031,-157.88429
-14.632289,-155.86375
-15.273008,-157.01704
-15.168123,-158.17657
-14.689737,-159.12379
-14.755355,-157.22905
-15.461513,-155.66988
-14.613814,-158.76654
-15.268488,-161.02179
-15.520261,-155.75496
-15.228802,-159.60081
-15.044398,-159.09633
-14.595276,-159.44917
-15.115183,-158.02391
-14.972584,-159.68469
-15.157453,-156.75438
-15.358365,-158.74831
-14.833525,-156.74796
-15.154889,-158.05728
-15.228895,-157.53294
-14.845093,-159.84859
-14.751377,-158.96999
-15.869048,-160.74655
-14.977321,-159.79984
-15.211832,-157.05907
-14.946949,-156.68813
-15.399864,-159.61369
-15.186361,-159.22115
-15.311048,-160.17392
-14.815269,-158.66571
-14.804318,-157.40965
-14.910777,-157.09146
-15.002143,-158.19208
-15.259481,-156.94191
-15.325625,-157.43719
-15.071942,-157.87366
-15.327208,-157.21819
-15.085131,-157.98599
-15.409217,-159.53481
-14.940372,-157.35306
-15.156748,-159.41222
-15.09493,-159.65338
-15.173129,-159.76924
-15.564948,-156.42642
-14.946567,-159.97826
-15.384662,-159.61789
-15.025973,-158.91498
-15.502475,-157.41173
-15.131932,-159.15149
-15.011562,-159.56383
-15.065606,-157.07376
-15.349787,-155.74455
-14.813791,-158.10316
-14.874704,-157.04045
-14.884467,-157.13469
-15.054547,-157.25937
-15.206178,-160.33575
-15.0188,-156.32019
-15.265039,-160.31784
-15.006356,-157.6553
-14.802984,-158.66611
-14.955288,-158.52029
-15.229941,-159.71497
-15.200834,-157.76254
-14.998635,-158.42409
-14.989029,-158.40872
-15.421331,-159.54027
-14.922819,-155.76064
-15.252641,-155.94199
-15.225733,-159.95628
-14.872372,-156.39391
-14.862629,-158.83443
-14.896854,-159.21436
-14.991222,-161.02959
-14.994537,-156.7578
-14.93177,-158.87199
-15.396161,-155.72626
-14.903599,-158.45387
-15.176652,-160.72998
-15.035336,-157.26744
-15.260005,-158.2542
-15.124096,-158.56259
-14.845756,-159.35037
-15.102774,-158.53979
-15.288857,-157.07173
-15.290722,-157.66797
-15.108869,-160.11839
-14.938768,-156.97903
-15.261005,-159.32843
-15.22547,-155.95914
-15.583095,-158.66428
-15.17522,-157.43771
-15.088698,-159.86241
-14.679505,-158.68129
-14.726073,-154.73833
-15.196144,-159.44821
-15.023578,-158.14403
-14.656278,-159.19017
-15.069391,-159.18668
-14.880415,-157.56316
-15.276258,-158.72191
-15.002894,-160.29237
-15.226648,-159.5881
-15.383577,-157.33908
-14.935705,-157.1003
-14.778297,-158.19223
-15.019017,-157.98431
-14.91335,-158.62686
-15.26731,-158.21706
-14.869894,-158.60347
-14.985841,-158.10553
-14.65904,-161.37494
-14.866143,-158.76904
-15.15152,-160.06218
-15.113777,-157.23941
-15.340351,-159.28494
-15.188719,-157.37939
-14.847548,-161.02901
-15.167393,-159.97662
-14.891226,-157.35516
-15.124457,-159.5527
-14.937878,-159.15579
-15.024795,-157.80624
-15.329632,-157.97047
-15.074329,-157.52075
-14.855947,-157.23361
-14.809527,-157.46236
-15.202001,-158.47481
-14.911918,-156.78569
-15.30127,-158.72154
-15.458032,-160.916
-15.092076,-160.1349
-15.135874,-159.31516
-14.969469,-158.67456
-15.280338,-157.20676
-15.064801,-157.73416
-14.923748,-157.73195
-15.230608,-158.10449
-15.212199,-157.53473
-15.219527,-158.25333
-14.650821,-160.04567
-14.606573,-159.19113
-15.016467,-159.29366
-15.212437,-159.2784
-14.969026,-158.7206
-15.02949,-159.42833
-15.136224,-158.36281
-15.070242,-158.27609
-14.977501,-158.20103
-14.904746,-159.77536
-15.004161,-158.82642
-15.125366,-159.27332
-15.001317,-159.16154
-14.985337,-158.84531
-14.974185,-157.76593
-15.369878,-158.20175
-15.032104,-158.67122
-14.907756,-156.58804
-15.125717,-160.83632
-14.770972,-160.57094
-15.096723,-158.48001
-14.784173,-159.25745
-14.915555,-158.87321
-15.044023,-157.40018
-15.243917,-157.17438
-14.931631,-159.36417
-15.070844,-158.01407
-15.219451,-157.78188
-15.198605,-157.92792
-14.719832,-159.89886
-15.253222,-160.23157
-15.158221,-161.43002
-14.940531,-160.58975
-14.651068,-158.37138
-14.995214,-159.15848
-15.002983,-157.48866
-15.069643,-158.1611
-14.914264,-159.33534
-15.001283,-159.2747
-15.403512,-157.65407
-15.038838,-160.67015
-15.080627,-158.50432
-14.895667,-159.71732
-15.06815,-159.48746
-15.143906,-158.08685
-14.949386,-160.25511
-15.467985,-158.4147
-15.207929,-158.38287
-15.108382,-159.43996
-15.017926,-160.63046
-15.177011,-158.65511
-14.898331,-160.19421
-14.98137,-158.13696
-15.33216,-159.04066
-14.935528,-157.86545
-14.914567,-159.11369
-15.154528,-158.80148
-14.748497,-160.1526
-15.045211,-158.74821
-15.019946,-159.10214
-15.413427,-160.01138
-15.1536,-158.46126
-14.980686,-159.30988
-15.095731,-158.42513
-14.949672,-160.42868
-15.009889,-158.12091
-15.114108,-159.65465
-14.900604,-159.67354
-14.819852,-159.65677
-14.99267,-159.94197
-15.303068,-158.25743
-15.035339,-157.61931
-15.383345,-157.36086
-14.976748,-159.62337
-15.070163,-158.13446
-15.007809,-157.30666
-15.052419,-156.30667
-15.057804,-157.82047
-14.958596,-158.95293
-15.042874,-158.43492
-14.936515,-159.48495
-15.236156,-159.35846
-14.947272,-159.35132
-14.840132,-160.45203
-14.980271,-158.10725
-14.737678,-159.51711
-15.059966,-157.63545
-15.274165,-159.03905
-15.192879,-157.81435
-14.811654,-158.87839
-14.94505,-159.65613
-15.109386,-157.61908
-15.030892,-158.36891
-14.756092,-158.14397
-15.014565,-158.79431
-15.479255,-159.94115
-15.275491,-157.3564
-15.078847,-158.97513
-15.20177,-157.54349
-14.919417,-156.99252
-14.946936,-159.1512
-15.108308,-157.59428
-15.01373,-159.44397
-15.189488,-160.14151
-15.308723,-156.96983
-15.295714,-158.00276
-14.976662,-158.33113
-14.851136,-158.30449
-15.045403,-159.46223
-15.248582,-157.00409
-15.193609,-159.77548
-14.919702,-157.27672
-15.217662,-158.65746
-15.040843,-159.53397
-14.920599,-160.11192
-15.15897,-158.99783
-15.185808,-159.25896
-15.180611,-158.11832
-15.262734,-160.51788
-15.096968,-158.89656
-14.890547,-158.50684
-15.375463,-159.30975
-15.082387,-158.80449
-15.034222,-159.53575
-15.15581,-160.00516
-15.329044,-159.2831
-15.103472,-159.76155
-15.015718,-159.04889
-15.033016,-159.276
-14.936974,-160.29654
-15.190034,-158.43179
-15.070967,-159.64012
-15.08093,-158.73183
-15.112698,-159.30603
-14.963254,-158.50426
-15.351878,-158.30782
-15.128798,-158.95497
-15.139466,-159.05426
-15.194209,-159.06729
-15.370313,-158.62766
-14.994603,-158.58398
-15.11552,-158.71632
-15.008782,-158.65903
-15.067495,-157.83194
-15.236105,-159.15181
-14.825384,-157.61488
-15.43698,-158.62346
-14.920766,-158.4915
-15.082391,-158.429
-14.943475,-160.08182
-15.056344,-159.07198
-15.098103,-157.69913
-15.201377,-158.31512
-15.074572,-158.7059
-14.949548,-158.00037
-15.007883,-158.75363
-15.011334,-158.62782
-14.786415,-157.91071
