CITIFILE A.01.01
!Agilent Technologies,N5230C,MY48100142,A.08.04.10
!Agilent N5230C: A.08.04.10
!Format: LogMag/Angle
!Date: Friday, August 14, 2020 16:46:30
NAME CH1_DATA
VAR Power MAG 801
DATA S11 DBANGLE
DATA S21 DBANGLE
DATA S12 DBANGLE
DATA S22 DBANGLE
VAR_LIST_BEGIN
-40
-39.975
-39.95
-39.925
-39.9
-39.875
-39.85
-39.825
-39.8
-39.775
-39.75
-39.725
-39.7
-39.675
-39.65
-39.625
-39.6
-39.575
-39.55
-39.525
-39.5
-39.475
-39.45
-39.425
-39.4
-39.375
-39.35
-39.325
-39.3
-39.275
-39.25
-39.225
-39.2
-39.175
-39.15
-39.125
-39.1
-39.075
-39.05
-39.025
-39
-38.975
-38.95
-38.925
-38.9
-38.875
-38.85
-38.825
-38.8
-38.775
-38.75
-38.725
-38.7
-38.675
-38.65
-38.625
-38.6
-38.575
-38.55
-38.525
-38.5
-38.475
-38.45
-38.425
-38.4
-38.375
-38.35
-38.325
-38.3
-38.275
-38.25
-38.225
-38.2
-38.175
-38.15
-38.125
-38.1
-38.075
-38.05
-38.025
-38
-37.975
-37.95
-37.925
-37.9
-37.875
-37.85
-37.825
-37.8
-37.775
-37.75
-37.725
-37.7
-37.675
-37.65
-37.625
-37.6
-37.575
-37.55
-37.525
-37.5
-37.475
-37.45
-37.425
-37.4
-37.375
-37.35
-37.325
-37.3
-37.275
-37.25
-37.225
-37.2
-37.175
-37.15
-37.125
-37.1
-37.075
-37.05
-37.025
-37
-36.975
-36.95
-36.925
-36.9
-36.875
-36.85
-36.825
-36.8
-36.775
-36.75
-36.725
-36.7
-36.675
-36.65
-36.625
-36.6
-36.575
-36.55
-36.525
-36.5
-36.475
-36.45
-36.425
-36.4
-36.375
-36.35
-36.325
-36.3
-36.275
-36.25
-36.225
-36.2
-36.175
-36.15
-36.125
-36.1
-36.075
-36.05
-36.025
-36
-35.975
-35.95
-35.925
-35.9
-35.875
-35.85
-35.825
-35.8
-35.775
-35.75
-35.725
-35.7
-35.675
-35.65
-35.625
-35.6
-35.575
-35.55
-35.525
-35.5
-35.475
-35.45
-35.425
-35.4
-35.375
-35.35
-35.325
-35.3
-35.275
-35.25
-35.225
-35.2
-35.175
-35.15
-35.125
-35.1
-35.075
-35.05
-35.025
-35
-34.975
-34.95
-34.925
-34.9
-34.875
-34.85
-34.825
-34.8
-34.775
-34.75
-34.725
-34.7
-34.675
-34.65
-34.625
-34.6
-34.575
-34.55
-34.525
-34.5
-34.475
-34.45
-34.425
-34.4
-34.375
-34.35
-34.325
-34.3
-34.275
-34.25
-34.225
-34.2
-34.175
-34.15
-34.125
-34.1
-34.075
-34.05
-34.025
-34
-33.975
-33.95
-33.925
-33.9
-33.875
-33.85
-33.825
-33.8
-33.775
-33.75
-33.725
-33.7
-33.675
-33.65
-33.625
-33.6
-33.575
-33.55
-33.525
-33.5
-33.475
-33.45
-33.425
-33.4
-33.375
-33.35
-33.325
-33.3
-33.275
-33.25
-33.225
-33.2
-33.175
-33.15
-33.125
-33.1
-33.075
-33.05
-33.025
-33
-32.975
-32.95
-32.925
-32.9
-32.875
-32.85
-32.825
-32.8
-32.775
-32.75
-32.725
-32.7
-32.675
-32.65
-32.625
-32.6
-32.575
-32.55
-32.525
-32.5
-32.475
-32.45
-32.425
-32.4
-32.375
-32.35
-32.325
-32.3
-32.275
-32.25
-32.225
-32.2
-32.175
-32.15
-32.125
-32.1
-32.075
-32.05
-32.025
-32
-31.975
-31.95
-31.925
-31.9
-31.875
-31.85
-31.825
-31.8
-31.775
-31.75
-31.725
-31.7
-31.675
-31.65
-31.625
-31.6
-31.575
-31.55
-31.525
-31.5
-31.475
-31.45
-31.425
-31.4
-31.375
-31.35
-31.325
-31.3
-31.275
-31.25
-31.225
-31.2
-31.175
-31.15
-31.125
-31.1
-31.075
-31.05
-31.025
-31
-30.975
-30.95
-30.925
-30.9
-30.875
-30.85
-30.825
-30.8
-30.775
-30.75
-30.725
-30.7
-30.675
-30.65
-30.625
-30.6
-30.575
-30.55
-30.525
-30.5
-30.475
-30.45
-30.425
-30.4
-30.375
-30.35
-30.325
-30.3
-30.275
-30.25
-30.225
-30.2
-30.175
-30.15
-30.125
-30.1
-30.075
-30.05
-30.025
-30
-29.975
-29.95
-29.925
-29.9
-29.875
-29.85
-29.825
-29.8
-29.775
-29.75
-29.725
-29.7
-29.675
-29.65
-29.625
-29.6
-29.575
-29.55
-29.525
-29.5
-29.475
-29.45
-29.425
-29.4
-29.375
-29.35
-29.325
-29.3
-29.275
-29.25
-29.225
-29.2
-29.175
-29.15
-29.125
-29.1
-29.075
-29.05
-29.025
-29
-28.975
-28.95
-28.925
-28.9
-28.875
-28.85
-28.825
-28.8
-28.775
-28.75
-28.725
-28.7
-28.675
-28.65
-28.625
-28.6
-28.575
-28.55
-28.525
-28.5
-28.475
-28.45
-28.425
-28.4
-28.375
-28.35
-28.325
-28.3
-28.275
-28.25
-28.225
-28.2
-28.175
-28.15
-28.125
-28.1
-28.075
-28.05
-28.025
-28
-27.975
-27.95
-27.925
-27.9
-27.875
-27.85
-27.825
-27.8
-27.775
-27.75
-27.725
-27.7
-27.675
-27.65
-27.625
-27.6
-27.575
-27.55
-27.525
-27.5
-27.475
-27.45
-27.425
-27.4
-27.375
-27.35
-27.325
-27.3
-27.275
-27.25
-27.225
-27.2
-27.175
-27.15
-27.125
-27.1
-27.075
-27.05
-27.025
-27
-26.975
-26.95
-26.925
-26.9
-26.875
-26.85
-26.825
-26.8
-26.775
-26.75
-26.725
-26.7
-26.675
-26.65
-26.625
-26.6
-26.575
-26.55
-26.525
-26.5
-26.475
-26.45
-26.425
-26.4
-26.375
-26.35
-26.325
-26.3
-26.275
-26.25
-26.225
-26.2
-26.175
-26.15
-26.125
-26.1
-26.075
-26.05
-26.025
-26
-25.975
-25.95
-25.925
-25.9
-25.875
-25.85
-25.825
-25.8
-25.775
-25.75
-25.725
-25.7
-25.675
-25.65
-25.625
-25.6
-25.575
-25.55
-25.525
-25.5
-25.475
-25.45
-25.425
-25.4
-25.375
-25.35
-25.325
-25.3
-25.275
-25.25
-25.225
-25.2
-25.175
-25.15
-25.125
-25.1
-25.075
-25.05
-25.025
-25
-24.975
-24.95
-24.925
-24.9
-24.875
-24.85
-24.825
-24.8
-24.775
-24.75
-24.725
-24.7
-24.675
-24.65
-24.625
-24.6
-24.575
-24.55
-24.525
-24.5
-24.475
-24.45
-24.425
-24.4
-24.375
-24.35
-24.325
-24.3
-24.275
-24.25
-24.225
-24.2
-24.175
-24.15
-24.125
-24.1
-24.075
-24.05
-24.025
-24
-23.975
-23.95
-23.925
-23.9
-23.875
-23.85
-23.825
-23.8
-23.775
-23.75
-23.725
-23.7
-23.675
-23.65
-23.625
-23.6
-23.575
-23.55
-23.525
-23.5
-23.475
-23.45
-23.425
-23.4
-23.375
-23.35
-23.325
-23.3
-23.275
-23.25
-23.225
-23.2
-23.175
-23.15
-23.125
-23.1
-23.075
-23.05
-23.025
-23
-22.975
-22.95
-22.925
-22.9
-22.875
-22.85
-22.825
-22.8
-22.775
-22.75
-22.725
-22.7
-22.675
-22.65
-22.625
-22.6
-22.575
-22.55
-22.525
-22.5
-22.475
-22.45
-22.425
-22.4
-22.375
-22.35
-22.325
-22.3
-22.275
-22.25
-22.225
-22.2
-22.175
-22.15
-22.125
-22.1
-22.075
-22.05
-22.025
-22
-21.975
-21.95
-21.925
-21.9
-21.875
-21.85
-21.825
-21.8
-21.775
-21.75
-21.725
-21.7
-21.675
-21.65
-21.625
-21.6
-21.575
-21.55
-21.525
-21.5
-21.475
-21.45
-21.425
-21.4
-21.375
-21.35
-21.325
-21.3
-21.275
-21.25
-21.225
-21.2
-21.175
-21.15
-21.125
-21.1
-21.075
-21.05
-21.025
-21
-20.975
-20.95
-20.925
-20.9
-20.875
-20.85
-20.825
-20.8
-20.775
-20.75
-20.725
-20.7
-20.675
-20.65
-20.625
-20.6
-20.575
-20.55
-20.525
-20.5
-20.475
-20.45
-20.425
-20.4
-20.375
-20.35
-20.325
-20.3
-20.275
-20.25
-20.225
-20.2
-20.175
-20.15
-20.125
-20.1
-20.075
-20.05
-20.025
-20
VAR_LIST_END
BEGIN
-15.308271,-154.46222
-14.914908,-159.36809
-14.249349,-157.65907
-15.856588,-154.17276
-15.229428,-161.5519
-15.353372,-155.0127
-14.426004,-156.18973
-15.008845,-153.77029
-14.597494,-158.33379
-15.725411,-157.83444
-14.583441,-156.34587
-15.549457,-158.55263
-15.151801,-159.64832
-15.286202,-159.66412
-14.499606,-160.65761
-14.960872,-156.11685
-14.784763,-164.28447
-14.596116,-154.116
-15.134714,-153.07684
-15.628264,-159.11174
-14.693089,-157.65379
-14.709291,-157.20491
-15.188931,-153.35022
-15.838066,-161.79764
-15.013625,-160.4682
-15.551038,-158.65359
-15.319323,-161.10098
-14.706366,-157.58936
-15.396799,-157.30472
-15.586809,-159.68987
-15.845257,-153.95461
-14.448738,-155.40758
-15.171412,-156.98636
-14.844378,-155.67065
-15.838656,-160.51428
-15.09587,-154.26337
-14.834939,-156.75085
-14.612751,-157.45264
-15.56063,-154.7907
-15.08011,-153.4799
-14.871657,-154.23917
-15.322069,-158.84911
-14.99479,-153.21948
-14.114608,-155.51622
-15.436051,-157.66634
-14.891096,-159.09854
-14.368316,-165.06799
-15.194023,-156.20889
-15.136799,-160.54918
-15.826796,-153.80026
-14.865923,-160.98088
-15.519134,-155.69041
-15.035371,-161.36446
-14.890175,-161.14888
-15.006967,-155.11671
-15.179126,-166.05299
-14.93352,-159.19025
-15.407938,-165.58925
-14.811679,-157.18007
-14.949379,-156.11053
-15.06293,-158.55489
-15.472746,-158.22334
-15.190122,-156.95903
-15.090914,-159.94881
-14.558256,-159.32083
-14.995329,-157.81789
-14.987199,-156.61356
-14.80574,-157.89169
-15.191801,-155.34044
-14.887094,-157.74814
-15.031174,-157.87143
-14.584356,-155.56032
-15.427377,-158.714
-14.684208,-156.57341
-15.035878,-156.8665
-15.252913,-158.34363
-14.555489,-158.98412
-15.235053,-154.34236
-14.496189,-159.21864
-15.388507,-162.09761
-14.978508,-159.77853
-15.637065,-158.06432
-15.71523,-158.12831
-14.783964,-160.44002
-15.610846,-163.09149
-15.42885,-161.92929
-14.778087,-159.06343
-14.98669,-158.50035
-15.016487,-158.34489
-15.479041,-154.30763
-14.721551,-158.96129
-14.820393,-162.30043
-14.756695,-157.72948
-15.344137,-160.34203
-15.054795,-153.2079
-14.243176,-158.14842
-15.037861,-160.7327
-14.977381,-159.45569
-14.33853,-160.41957
-14.795788,-157.96115
-15.514492,-163.19827
-15.00524,-160.67757
-15.559055,-157.7075
-14.601008,-156.03909
-14.464501,-159.60402
-14.830983,-158.50587
-14.397122,-158.60735
-15.004149,-157.88045
-15.204626,-155.23143
-15.239958,-156.86041
-14.6139,-157.62793
-15.363207,-163.36522
-15.230855,-157.87404
-15.542665,-156.94662
-14.705819,-156.74573
-15.146149,-157.37006
-14.740359,-154.66678
-15.099791,-157.45613
-15.155336,-157.78105
-15.652557,-158.70882
-14.804858,-158.11516
-15.807699,-154.08354
-15.409098,-155.1709
-14.757848,-155.26837
-15.306952,-160.16711
-14.869221,-159.60425
-14.753483,-155.24756
-14.926453,-153.30347
-15.5325,-159.67583
-14.687186,-161.02153
-14.640079,-156.65607
-14.593565,-159.15895
-14.497394,-157.67741
-14.834525,-159.42697
-14.724855,-157.37094
-14.848263,-159.16197
-14.837548,-157.55019
-15.247808,-159.42508
-14.566396,-160.02217
-15.703594,-156.4489
-14.389715,-162.23544
-15.23216,-160.04073
-15.110763,-161.68053
-15.732656,-158.38644
-14.72747,-158.1248
-15.059179,-161.68942
-15.434394,-155.47557
-14.817421,-156.71385
-15.145769,-159.24829
-14.930074,-155.39021
-14.473393,-159.11807
-14.97416,-160.0069
-14.62467,-159.54642
-14.692498,-154.65862
-14.310507,-157.13866
-14.789296,-153.71519
-14.732416,-159.62268
-15.011572,-158.14063
-15.595611,-156.11147
-14.483645,-160.47028
-14.78511,-158.84227
-14.642777,-160.0195
-15.035262,-162.67043
-14.878287,-158.45592
-15.511029,-159.03401
-15.062242,-155.51784
-14.602034,-161.12189
-15.170596,-157.54216
-15.4951,-156.55405
-15.112213,-161.5463
-14.371534,-157.75514
-14.173705,-159.72615
-15.073977,-163.13676
-14.866633,-155.89934
-14.525698,-159.55775
-14.657717,-160.59108
-15.452536,-158.63603
-15.32005,-161.45473
-14.787011,-157.38164
-15.494436,-157.73692
-15.143559,-159.73825
-15.248312,-162.87125
-15.758718,-158.95847
-15.414439,-155.75595
-14.486706,-154.60579
-15.146745,-156.28139
-15.572153,-156.24124
-15.013358,-156.96027
-14.8547,-161.52188
-14.995787,-163.14444
-15.367621,-157.67773
-15.502499,-153.39618
-15.08248,-160.06441
-15.879209,-160.74712
-14.874624,-162.31665
-15.415203,-156.96924
-14.966089,-158.46848
-15.253038,-157.39555
-15.141337,-156.94196
-14.703311,-161.06467
-14.797923,-154.94463
-14.577508,-154.54446
-15.043628,-156.24289
-14.645226,-158.22983
-15.749647,-157.05481
-14.833349,-160.02937
-14.849154,-158.33987
-14.679602,-157.40198
-14.683137,-160.18559
-15.46768,-155.18193
-14.962773,-152.97144
-15.669668,-155.90288
-15.357599,-157.64584
-14.828647,-158.80907
-14.574573,-156.36108
-15.149597,-158.00276
-15.139038,-156.83281
-15.351885,-155.63156
-14.722342,-158.39651
-15.514822,-157.37897
-15.392532,-158.11514
-14.847041,-158.57523
-15.106346,-158.55403
-15.114342,-158.04199
-15.165455,-159.91888
-14.948629,-154.84761
-15.212094,-156.72078
-15.399738,-157.85361
-15.383381,-156.5786
-14.937178,-155.23381
-15.01664,-157.72395
-14.759703,-159.89946
-14.928901,-158.5473
-14.988978,-162.88206
-14.776836,-159.73538
-15.594834,-157.62141
-15.188501,-159.00017
-15.210307,-158.18573
-15.106555,-157.42461
-14.802638,-159.47559
-14.811361,-159.16466
-14.714536,-158.95511
-15.185265,-156.40565
-14.875477,-157.04704
-15.230909,-162.34198
-15.511769,-158.67122
-15.033899,-155.36084
-14.636705,-157.0824
-15.402618,-157.26091
-15.342746,-159.12871
-15.251293,-158.78871
-15.606134,-155.76837
-15.049369,-155.51697
-15.58127,-156.64613
-14.907688,-158.1277
-15.370772,-158.34296
-14.815988,-158.64761
-15.35223,-156.51869
-15.624469,-159.74898
-14.829327,-158.63914
-15.1613,-158.38968
-15.103909,-160.22214
-15.251222,-159.75853
-15.122471,-157.70341
-15.153966,-156.16873
-14.969937,-156.8476
-14.715073,-157.55206
-14.989372,-155.46002
-14.950619,-161.09947
-14.891273,-159.3802
-15.103985,-159.62627
-14.966882,-155.77649
-15.322458,-157.22607
-14.983096,-157.03061
-15.239125,-158.70163
-15.283577,-156.89363
-14.715589,-159.57523
-15.082458,-156.94841
-15.06081,-156.75793
-14.885502,-156.01581
-14.746512,-161.04451
-15.082795,-159.17151
-15.278316,-158.703
-14.761655,-155.88684
-15.221425,-159.42065
-14.69698,-156.46205
-14.8933,-159.59865
-15.024984,-158.59879
-14.827695,-158.18306
-15.56405,-159.25893
-15.417531,-156.71416
-15.181395,-160.90926
-15.051308,-158.95711
-14.751969,-160.18939
-15.314263,-159.91887
-15.178879,-158.72498
-15.373663,-159.27412
-14.953635,-158.98785
-15.122675,-158.39847
-14.839058,-158.30852
-14.768017,-158.17789
-15.036496,-161.35956
-15.275515,-157.87878
-15.130019,-158.92838
-15.101975,-157.94861
-14.791365,-159.24719
-15.020554,-156.21011
-15.035165,-157.20627
-14.792223,-158.11227
-15.160501,-157.95097
-14.962852,-158.59906
-14.716402,-159.07365
-15.609324,-156.91386
-15.297254,-158.30107
-15.363372,-156.64633
-15.07473,-158.1777
-15.036299,-160.3584
-14.991062,-155.95735
-15.040161,-159.25104
-14.993551,-158.93242
-14.841119,-157.15733
-15.116931,-160.71332
-15.320283,-157.19664
-15.191879,-157.9079
-14.64646,-158.50194
-15.190234,-158.65868
-15.326988,-158.94
-15.330575,-159.95493
-14.963639,-157.95215
-14.748081,-159.9213
-14.87452,-158.18037
-14.789254,-157.7635
-15.056635,-156.74052
-14.907303,-158.79993
-15.247143,-158.63626
-14.938474,-155.68253
-14.996946,-158.51239
-15.130338,-157.16461
-15.161973,-157.78281
-14.988998,-157.05432
-14.876882,-158.35938
-15.069053,-155.79793
-14.90776,-158.74164
-15.072181,-160.18649
-15.020324,-158.60402
-14.741546,-160.44463
-14.968565,-155.53246
-14.832417,-154.92819
-15.0179,-157.81313
-15.141577,-158.18274
-15.111783,-159.13055
-14.990207,-160.60315
-14.92366,-158.51831
-14.953283,-156.15027
-15.608053,-160.51456
-15.267403,-158.27467
-14.995169,-156.71635
-15.122135,-159.58493
-15.642834,-160.85965
-15.252688,-158.35396
-15.18055,-158.23064
-15.05687,-158.5177
-15.402402,-158.03848
-14.966879,-160.59659
-15.42823,-158.85033
-14.812751,-160.90479
-15.050117,-157.07309
-15.260005,-158.05653
-14.93611,-157.96352
-15.031178,-158.0674
-14.833883,-157.20358
-15.279569,-159.40195
-14.862823,-158.19223
-14.660746,-156.68597
-15.120157,-159.29617
-15.046058,-158.07983
-15.149088,-159.6674
-15.009284,-156.41829
-14.91859,-157.43594
-15.291254,-156.56509
-14.923766,-156.28891
-14.756105,-161.24593
-15.18142,-159.00117
-14.882668,-158.42558
-14.948069,-159.15067
-14.790215,-159.53212
-15.300128,-158.15193
-14.900636,-158.45007
-15.030717,-159.0923
-14.931469,-160.30414
-15.081181,-160.20892
-15.002608,-158.47177
-14.928278,-158.2114
-15.174453,-157.89511
-14.625791,-158.93387
-15.047859,-155.7233
-15.117631,-159.3553
-14.774326,-156.52327
-15.264534,-159.9359
-15.052492,-159.66399
-15.325274,-159.4985
-15.17041,-158.72383
-15.149914,-160.09462
-14.969258,-158.25551
-15.159386,-156.14107
-14.997835,-157.67982
-15.205362,-158.0251
-14.834428,-160.2202
-14.973372,-159.17473
-14.916481,-157.57735
-15.059826,-157.6284
-14.980221,-159.34148
-15.04311,-158.39996
-15.225215,-156.83784
-15.226353,-157.30971
-14.832891,-160.64381
-15.056733,-158.57172
-14.943196,-158.28976
-15.181066,-159.72449
-14.931866,-160.90877
-15.021485,-159.65735
-15.55683,-157.21031
-15.313859,-158.04404
-15.129033,-158.21631
-14.793632,-158.06868
-14.96838,-160.22404
-15.217673,-158.75742
-15.279369,-157.66092
-15.350366,-157.85895
-15.15832,-158.06705
-15.11233,-157.43752
-15.030777,-160.41173
-14.876093,-158.36742
-15.022451,-158.80391
-15.095188,-158.5641
-14.858882,-157.2903
-15.280612,-158.46828
-15.347678,-158.6918
-14.964035,-157.23381
-14.98113,-157.50363
-15.092617,-157.37759
-15.094043,-158.53204
-15.1438,-157.84894
-14.683724,-158.41141
-14.880156,-158.90138
-14.940834,-159.44591
-15.102016,-159.20012
-15.090789,-157.27707
-15.028678,-158.46736
-14.844958,-158.64322
-14.833923,-156.30392
-14.96587,-157.88258
-15.322214,-159.88469
-15.193504,-158.50839
-15.200646,-159.01631
-14.979536,-157.37225
-15.078106,-157.61725
-14.945668,-159.5976
-14.983266,-159.03726
-14.828086,-158.39542
-14.879375,-157.98668
-15.138414,-158.95076
-15.032233,-158.55656
-14.813705,-158.33879
-14.916168,-157.62184
-15.102689,-157.47005
-15.01212,-157.75644
-15.059575,-158.67017
-15.038862,-159.28311
-15.154505,-159.41687
-15.105137,-158.737
-15.073548,-158.13368
-14.834777,-158.39273
-15.157806,-156.83981
-15.0439,-158.77232
-15.11072,-158.60054
-14.91219,-159.739
-15.168582,-157.93361
-15.157989,-158.18623
-15.016119,-158.84061
-15.224796,-157.40642
-15.102185,-158.97061
-14.822952,-159.61296
-14.977294,-158.36539
-14.990305,-158.00444
-15.262882,-157.29791
-15.260925,-156.77731
-15.188177,-159.74075
-14.778092,-158.73589
-14.895294,-159.05879
-15.18496,-158.00357
-14.881741,-158.16061
-14.874861,-158.38448
-14.982427,-159.36667
-15.264648,-157.95895
-15.071457,-158.1524
-14.981323,-158.46013
-15.168406,-156.82281
-14.986286,-158.342
-15.248827,-157.07036
-14.911009,-157.72849
-14.960837,-158.11919
-15.108488,-157.47986
-14.889454,-156.63373
-15.191756,-158.10329
-15.095446,-157.07988
-15.15492,-158.23714
-14.92704,-158.47824
-14.877585,-159.20999
-14.927542,-156.87358
-15.004588,-159.53125
-15.473082,-159.34145
-14.859832,-157.01877
-15.111635,-158.26445
-15.104265,-157.71625
-15.088525,-158.21062
-15.13561,-156.78256
-15.225329,-156.94777
-15.108731,-156.58138
-15.102091,-157.16327
-15.077467,-157.57503
-15.07872,-159.62025
-15.196917,-159.29001
-15.075846,-157.25165
-15.046529,-157.85764
-15.19582,-158.71545
-15.121738,-157.2841
-14.932655,-158.00458
-14.901858,-159.40749
-15.243085,-158.82718
-14.797836,-158.911
-14.856861,-158.56662
-15.012043,-156.86531
-15.363949,-158.05083
-15.328667,-158.55005
-15.195953,-158.61916
-14.941476,-157.65729
-14.989343,-158.52388
-14.865533,-157.71301
-15.04893,-159.33052
-15.342267,-158.09709
-14.73763,-158.54257
-14.788854,-157.62009
-15.136755,-159.12181
-15.085959,-158.54625
-15.072961,-158.91051
-15.030444,-158.05754
-15.001201,-157.06554
-14.965657,-158.47508
-15.107403,-159.29594
-15.04679,-158.82527
-14.999569,-158.05493
-15.099183,-158.79065
-14.879896,-158.02939
-15.269098,-158.39337
-14.918141,-157.8058
-14.954369,-157.19028
-15.193456,-158.14418
-15.033278,-158.03738
-15.045174,-158.66678
-15.27659,-158.83159
-14.937645,-157.98647
-14.93169,-159.00119
-15.213929,-156.85545
-15.175085,-159.8896
-14.934521,-158.50534
-15.064978,-158.82964
-15.073819,-158.3934
-15.001103,-156.9093
-15.143476,-156.55064
-15.115938,-157.68652
-15.167048,-157.82281
-15.11049,-158.93314
-14.873072,-159.36275
-15.051659,-159.18312
-14.947157,-157.36264
-14.914213,-158.52193
