CITIFILE A.01.01
!Agilent Technologies,N5230C,MY48100142,A.08.04.10
!Agilent N5230C: A.08.04.10
!Format: LogMag/Angle
!Date: Thursday, September 03, 2020 12:00:11
NAME CH1_DATA
VAR Power MAG 801
DATA S11 DBANGLE
DATA S21 DBANGLE
DATA S12 DBANGLE
DATA S22 DBANGLE
VAR_LIST_BEGIN
-40
-39.975
-39.95
-39.925
-39.9
-39.875
-39.85
-39.825
-39.8
-39.775
-39.75
-39.725
-39.7
-39.675
-39.65
-39.625
-39.6
-39.575
-39.55
-39.525
-39.5
-39.475
-39.45
-39.425
-39.4
-39.375
-39.35
-39.325
-39.3
-39.275
-39.25
-39.225
-39.2
-39.175
-39.15
-39.125
-39.1
-39.075
-39.05
-39.025
-39
-38.975
-38.95
-38.925
-38.9
-38.875
-38.85
-38.825
-38.8
-38.775
-38.75
-38.725
-38.7
-38.675
-38.65
-38.625
-38.6
-38.575
-38.55
-38.525
-38.5
-38.475
-38.45
-38.425
-38.4
-38.375
-38.35
-38.325
-38.3
-38.275
-38.25
-38.225
-38.2
-38.175
-38.15
-38.125
-38.1
-38.075
-38.05
-38.025
-38
-37.975
-37.95
-37.925
-37.9
-37.875
-37.85
-37.825
-37.8
-37.775
-37.75
-37.725
-37.7
-37.675
-37.65
-37.625
-37.6
-37.575
-37.55
-37.525
-37.5
-37.475
-37.45
-37.425
-37.4
-37.375
-37.35
-37.325
-37.3
-37.275
-37.25
-37.225
-37.2
-37.175
-37.15
-37.125
-37.1
-37.075
-37.05
-37.025
-37
-36.975
-36.95
-36.925
-36.9
-36.875
-36.85
-36.825
-36.8
-36.775
-36.75
-36.725
-36.7
-36.675
-36.65
-36.625
-36.6
-36.575
-36.55
-36.525
-36.5
-36.475
-36.45
-36.425
-36.4
-36.375
-36.35
-36.325
-36.3
-36.275
-36.25
-36.225
-36.2
-36.175
-36.15
-36.125
-36.1
-36.075
-36.05
-36.025
-36
-35.975
-35.95
-35.925
-35.9
-35.875
-35.85
-35.825
-35.8
-35.775
-35.75
-35.725
-35.7
-35.675
-35.65
-35.625
-35.6
-35.575
-35.55
-35.525
-35.5
-35.475
-35.45
-35.425
-35.4
-35.375
-35.35
-35.325
-35.3
-35.275
-35.25
-35.225
-35.2
-35.175
-35.15
-35.125
-35.1
-35.075
-35.05
-35.025
-35
-34.975
-34.95
-34.925
-34.9
-34.875
-34.85
-34.825
-34.8
-34.775
-34.75
-34.725
-34.7
-34.675
-34.65
-34.625
-34.6
-34.575
-34.55
-34.525
-34.5
-34.475
-34.45
-34.425
-34.4
-34.375
-34.35
-34.325
-34.3
-34.275
-34.25
-34.225
-34.2
-34.175
-34.15
-34.125
-34.1
-34.075
-34.05
-34.025
-34
-33.975
-33.95
-33.925
-33.9
-33.875
-33.85
-33.825
-33.8
-33.775
-33.75
-33.725
-33.7
-33.675
-33.65
-33.625
-33.6
-33.575
-33.55
-33.525
-33.5
-33.475
-33.45
-33.425
-33.4
-33.375
-33.35
-33.325
-33.3
-33.275
-33.25
-33.225
-33.2
-33.175
-33.15
-33.125
-33.1
-33.075
-33.05
-33.025
-33
-32.975
-32.95
-32.925
-32.9
-32.875
-32.85
-32.825
-32.8
-32.775
-32.75
-32.725
-32.7
-32.675
-32.65
-32.625
-32.6
-32.575
-32.55
-32.525
-32.5
-32.475
-32.45
-32.425
-32.4
-32.375
-32.35
-32.325
-32.3
-32.275
-32.25
-32.225
-32.2
-32.175
-32.15
-32.125
-32.1
-32.075
-32.05
-32.025
-32
-31.975
-31.95
-31.925
-31.9
-31.875
-31.85
-31.825
-31.8
-31.775
-31.75
-31.725
-31.7
-31.675
-31.65
-31.625
-31.6
-31.575
-31.55
-31.525
-31.5
-31.475
-31.45
-31.425
-31.4
-31.375
-31.35
-31.325
-31.3
-31.275
-31.25
-31.225
-31.2
-31.175
-31.15
-31.125
-31.1
-31.075
-31.05
-31.025
-31
-30.975
-30.95
-30.925
-30.9
-30.875
-30.85
-30.825
-30.8
-30.775
-30.75
-30.725
-30.7
-30.675
-30.65
-30.625
-30.6
-30.575
-30.55
-30.525
-30.5
-30.475
-30.45
-30.425
-30.4
-30.375
-30.35
-30.325
-30.3
-30.275
-30.25
-30.225
-30.2
-30.175
-30.15
-30.125
-30.1
-30.075
-30.05
-30.025
-30
-29.975
-29.95
-29.925
-29.9
-29.875
-29.85
-29.825
-29.8
-29.775
-29.75
-29.725
-29.7
-29.675
-29.65
-29.625
-29.6
-29.575
-29.55
-29.525
-29.5
-29.475
-29.45
-29.425
-29.4
-29.375
-29.35
-29.325
-29.3
-29.275
-29.25
-29.225
-29.2
-29.175
-29.15
-29.125
-29.1
-29.075
-29.05
-29.025
-29
-28.975
-28.95
-28.925
-28.9
-28.875
-28.85
-28.825
-28.8
-28.775
-28.75
-28.725
-28.7
-28.675
-28.65
-28.625
-28.6
-28.575
-28.55
-28.525
-28.5
-28.475
-28.45
-28.425
-28.4
-28.375
-28.35
-28.325
-28.3
-28.275
-28.25
-28.225
-28.2
-28.175
-28.15
-28.125
-28.1
-28.075
-28.05
-28.025
-28
-27.975
-27.95
-27.925
-27.9
-27.875
-27.85
-27.825
-27.8
-27.775
-27.75
-27.725
-27.7
-27.675
-27.65
-27.625
-27.6
-27.575
-27.55
-27.525
-27.5
-27.475
-27.45
-27.425
-27.4
-27.375
-27.35
-27.325
-27.3
-27.275
-27.25
-27.225
-27.2
-27.175
-27.15
-27.125
-27.1
-27.075
-27.05
-27.025
-27
-26.975
-26.95
-26.925
-26.9
-26.875
-26.85
-26.825
-26.8
-26.775
-26.75
-26.725
-26.7
-26.675
-26.65
-26.625
-26.6
-26.575
-26.55
-26.525
-26.5
-26.475
-26.45
-26.425
-26.4
-26.375
-26.35
-26.325
-26.3
-26.275
-26.25
-26.225
-26.2
-26.175
-26.15
-26.125
-26.1
-26.075
-26.05
-26.025
-26
-25.975
-25.95
-25.925
-25.9
-25.875
-25.85
-25.825
-25.8
-25.775
-25.75
-25.725
-25.7
-25.675
-25.65
-25.625
-25.6
-25.575
-25.55
-25.525
-25.5
-25.475
-25.45
-25.425
-25.4
-25.375
-25.35
-25.325
-25.3
-25.275
-25.25
-25.225
-25.2
-25.175
-25.15
-25.125
-25.1
-25.075
-25.05
-25.025
-25
-24.975
-24.95
-24.925
-24.9
-24.875
-24.85
-24.825
-24.8
-24.775
-24.75
-24.725
-24.7
-24.675
-24.65
-24.625
-24.6
-24.575
-24.55
-24.525
-24.5
-24.475
-24.45
-24.425
-24.4
-24.375
-24.35
-24.325
-24.3
-24.275
-24.25
-24.225
-24.2
-24.175
-24.15
-24.125
-24.1
-24.075
-24.05
-24.025
-24
-23.975
-23.95
-23.925
-23.9
-23.875
-23.85
-23.825
-23.8
-23.775
-23.75
-23.725
-23.7
-23.675
-23.65
-23.625
-23.6
-23.575
-23.55
-23.525
-23.5
-23.475
-23.45
-23.425
-23.4
-23.375
-23.35
-23.325
-23.3
-23.275
-23.25
-23.225
-23.2
-23.175
-23.15
-23.125
-23.1
-23.075
-23.05
-23.025
-23
-22.975
-22.95
-22.925
-22.9
-22.875
-22.85
-22.825
-22.8
-22.775
-22.75
-22.725
-22.7
-22.675
-22.65
-22.625
-22.6
-22.575
-22.55
-22.525
-22.5
-22.475
-22.45
-22.425
-22.4
-22.375
-22.35
-22.325
-22.3
-22.275
-22.25
-22.225
-22.2
-22.175
-22.15
-22.125
-22.1
-22.075
-22.05
-22.025
-22
-21.975
-21.95
-21.925
-21.9
-21.875
-21.85
-21.825
-21.8
-21.775
-21.75
-21.725
-21.7
-21.675
-21.65
-21.625
-21.6
-21.575
-21.55
-21.525
-21.5
-21.475
-21.45
-21.425
-21.4
-21.375
-21.35
-21.325
-21.3
-21.275
-21.25
-21.225
-21.2
-21.175
-21.15
-21.125
-21.1
-21.075
-21.05
-21.025
-21
-20.975
-20.95
-20.925
-20.9
-20.875
-20.85
-20.825
-20.8
-20.775
-20.75
-20.725
-20.7
-20.675
-20.65
-20.625
-20.6
-20.575
-20.55
-20.525
-20.5
-20.475
-20.45
-20.425
-20.4
-20.375
-20.35
-20.325
-20.3
-20.275
-20.25
-20.225
-20.2
-20.175
-20.15
-20.125
-20.1
-20.075
-20.05
-20.025
-20
VAR_LIST_END
BEGIN
-14.868388,-157.55498
-15.993077,-154.4753
-14.780796,-156.76706
-14.698963,-160.35938
-15.061056,-159.29105
-14.61769,-159.01807
-14.778541,-159.83282
-14.520498,-155.31497
-15.113388,-156.87553
-14.450257,-160.99525
-14.117567,-163.2341
-14.4882,-152.34694
-14.754449,-160.9745
-14.780481,-159.26463
-15.443359,-159.63986
-14.82639,-152.74847
-14.478107,-161.8653
-14.950742,-156.84755
-14.604225,-156.5979
-15.294904,-165.01483
-15.291571,-160.44365
-14.866001,-160.31767
-15.01071,-156.29005
-15.071444,-157.83203
-15.019463,-157.35855
-15.105274,-158.38963
-15.401286,-162.57021
-14.88984,-157.24652
-14.55107,-158.71532
-15.107914,-161.57954
-14.54154,-158.09938
-15.254415,-155.3331
-15.623971,-154.03197
-14.990412,-163.47992
-15.213386,-157.52776
-15.284437,-157.16924
-14.408733,-158.64046
-14.900733,-160.31883
-14.86832,-153.84987
-15.232697,-161.59236
-15.773121,-157.76732
-15.137567,-158.55302
-15.48781,-159.23839
-15.995728,-156.47621
-14.406118,-154.74255
-14.360669,-157.01961
-14.358622,-153.8201
-14.915263,-162.34639
-14.811454,-159.41307
-14.730045,-161.49059
-15.406801,-159.47327
-14.088259,-158.9369
-14.473134,-161.49353
-15.025874,-159.32701
-14.905264,-158.79063
-14.480792,-160.51097
-14.996361,-156.80092
-14.933388,-162.24287
-16.036074,-159.91034
-15.735801,-163.61487
-15.277433,-155.10803
-15.564715,-158.11415
-15.767456,-158.08391
-15.872332,-159.16418
-14.875091,-158.40436
-15.426105,-156.76933
-15.017928,-158.02803
-15.329122,-159.46344
-14.883821,-159.06209
-15.583497,-157.18291
-14.280824,-159.03419
-14.738915,-163.03477
-16.137123,-155.95145
-14.877415,-162.42479
-15.067096,-156.99583
-15.692705,-162.73613
-14.771572,-160.16644
-15.073674,-154.9599
-14.407795,-157.42384
-14.954973,-157.89642
-15.893419,-162.29724
-14.902122,-156.51456
-15.446198,-160.07111
-14.733158,-162.1073
-14.881423,-164.43541
-14.561357,-157.17572
-15.564143,-160.52307
-15.170035,-159.35893
-15.314424,-152.51843
-15.478353,-159.25876
-15.527024,-160.88203
-14.95645,-162.82294
-14.94724,-156.48303
-14.645085,-164.27296
-15.394267,-160.77438
-14.984497,-156.88895
-15.136847,-158.11685
-14.37196,-160.54843
-14.597502,-159.31311
-15.151361,-156.73155
-14.676819,-160.5946
-15.198771,-159.32779
-14.852589,-158.46161
-16.020458,-159.2747
-15.08005,-159.69693
-15.450303,-158.62332
-15.013254,-158.65439
-15.54083,-162.37303
-14.662774,-159.04672
-15.625749,-160.02066
-15.302707,-157.77533
-14.613824,-155.5634
-15.685921,-161.51631
-15.74821,-162.7953
-14.68136,-158.41664
-15.101846,-158.58972
-15.334826,-158.44269
-15.423098,-160.62003
-15.228791,-159.53043
-14.148761,-159.77548
-14.791071,-157.80284
-15.005931,-156.24104
-15.285935,-159.33205
-15.522955,-159.11003
-15.964181,-157.41901
-14.809734,-158.82762
-14.835774,-157.41956
-14.977924,-162.29655
-15.270137,-158.63327
-15.135543,-162.37772
-14.570148,-159.61522
-15.223475,-164.52852
-15.465676,-159.99162
-14.800372,-161.12503
-15.279817,-161.11626
-15.633891,-161.33853
-15.097346,-158.36656
-15.053216,-161.70987
-15.294252,-158.25771
-14.390044,-154.9928
-15.027058,-160.59743
-14.735898,-157.60567
-15.131376,-160.26572
-15.238007,-161.27814
-15.779533,-154.75507
-14.411826,-158.286
-15.240218,-160.92834
-15.538475,-158.06288
-15.445614,-161.0193
-14.605163,-159.24394
-15.020818,-156.71986
-15.071811,-158.65378
-15.147645,-160.75877
-15.400928,-163.64691
-15.063694,-154.13219
-14.942812,-160.97482
-15.053403,-157.0827
-15.138133,-155.60875
-15.33372,-157.58609
-15.714007,-158.34677
-14.549368,-157.06682
-15.131633,-156.48653
-14.280045,-161.05659
-15.379955,-159.524
-14.583774,-160.09396
-15.540772,-156.78329
-14.972152,-157.26331
-14.963475,-158.50212
-15.536995,-160.32391
-15.048963,-157.13083
-14.926125,-157.28174
-14.807652,-156.655
-15.410343,-160.1337
-15.263987,-157.39163
-14.870168,-159.53525
-15.020425,-155.72914
-15.199721,-161.18642
-14.908573,-159.32555
-15.245491,-160.47859
-15.30162,-160.27043
-15.393604,-158.8896
-15.633462,-160.28926
-14.787044,-160.92249
-15.122865,-156.96722
-15.28186,-156.81158
-15.066267,-157.26414
-14.964849,-158.61798
-14.385852,-160.58592
-14.771082,-158.57294
-15.094184,-158.69127
-15.309293,-160.21501
-15.559937,-158.54054
-14.615971,-157.79985
-14.840335,-162.80826
-15.093842,-157.28084
-14.936569,-155.05269
-15.646544,-156.96933
-14.725183,-159.46172
-15.298363,-157.36687
-14.79117,-160.30377
-15.081427,-153.86932
-15.18977,-161.76715
-15.402006,-163.02684
-14.966853,-158.60367
-15.062667,-156.94441
-14.596588,-158.05502
-15.08922,-159.3493
-15.262979,-159.36804
-15.559767,-156.36688
-15.077343,-164.76201
-15.385571,-159.47946
-14.770391,-161.54846
-15.10342,-163.1823
-14.964142,-157.8015
-15.252623,-160.32956
-15.347705,-159.43924
-15.066225,-156.73978
-15.086856,-155.24448
-14.919497,-161.67714
-15.251007,-156.04745
-15.237839,-160.48291
-14.739445,-159.48311
-15.389372,-158.27924
-15.060705,-159.31145
-14.909352,-159.99274
-14.605371,-159.60648
-15.536347,-161.83327
-14.566341,-158.81178
-15.376143,-160.52235
-14.348105,-158.63867
-15.097598,-157.77811
-15.064564,-158.0412
-15.242875,-158.6261
-15.672967,-157.3105
-15.601942,-156.10297
-15.469904,-161.72452
-15.494177,-159.32393
-14.961591,-157.20523
-14.891852,-158.93027
-14.7844,-156.33838
-15.168709,-156.60989
-15.365431,-158.10696
-14.95847,-158.10623
-15.431323,-159.73047
-15.101041,-157.61473
-14.582944,-157.42421
-15.524076,-162.23949
-14.952687,-158.14877
-15.248758,-157.37483
-14.882294,-155.75356
-14.949384,-160.02733
-14.628451,-157.69923
-14.789625,-157.09505
-15.553128,-159.14691
-15.720441,-157.58037
-15.059323,-157.66618
-15.066323,-161.48456
-14.959794,-155.78033
-14.764679,-162.58244
-14.84832,-154.90601
-15.358989,-156.90135
-14.815954,-159.88847
-15.048423,-157.77339
-15.105867,-157.43401
-14.752174,-155.15395
-14.970016,-159.40115
-15.175901,-162.21234
-14.870008,-157.3371
-15.175152,-160.66783
-15.118633,-160.14703
-15.502616,-160.12358
-15.19907,-157.74556
-15.176047,-160.96059
-14.880635,-158.68593
-14.664788,-159.62787
-15.162936,-158.75034
-15.261515,-158.34102
-15.381533,-160.85838
-14.86949,-157.25195
-15.288414,-159.319
-14.869584,-156.8934
-15.177529,-160.03838
-15.023539,-160.6541
-14.740895,-157.28888
-14.873293,-156.59764
-14.883873,-156.1308
-14.938334,-155.07401
-14.99452,-158.1508
-15.287017,-159.25604
-14.880985,-159.29037
-15.178241,-157.43922
-15.113873,-160.73907
-15.293808,-159.18956
-14.921374,-159.43912
-14.980372,-157.45291
-15.167651,-159.29327
-15.315906,-162.18845
-15.857734,-158.54745
-15.101118,-159.70297
-15.178056,-159.1449
-15.024258,-158.3714
-14.942602,-158.2793
-15.206367,-162.50648
-14.716605,-159.96758
-15.237937,-159.82008
-14.508621,-157.00124
-14.924689,-155.60213
-14.995701,-158.31163
-15.045835,-158.75793
-15.351806,-158.06488
-14.843544,-159.83688
-14.876777,-157.8293
-14.98667,-158.52457
-15.153918,-157.7597
-15.160624,-160.10779
-15.257693,-158.91518
-15.179788,-158.37175
-15.376552,-161.19508
-15.219996,-158.14154
-14.562329,-158.67119
-15.3134,-156.23572
-15.183083,-157.86778
-14.771294,-160.37959
-15.430215,-159.56062
-15.058895,-158.75111
-15.321209,-162.23199
-14.963565,-158.99254
-15.247585,-158.9807
-15.522828,-159.81071
-14.94101,-158.36551
-14.953373,-160.37236
-15.171379,-156.68832
-15.024381,-158.2133
-15.201172,-159.91707
-15.079518,-158.79294
-14.666768,-160.17798
-14.979506,-158.65228
-15.086016,-160.84776
-15.041132,-157.73387
-15.310199,-158.92065
-15.208256,-160.90329
-15.333278,-158.09166
-15.163152,-158.29732
-14.763585,-159.92311
-14.865162,-158.82318
-14.835496,-156.53296
-15.104793,-157.68089
-14.974662,-156.9696
-15.151903,-161.08737
-15.112954,-158.48122
-15.282497,-159.29237
-14.736836,-158.08888
-14.98024,-157.79755
-14.968906,-157.53178
-14.836648,-159.0674
-14.668335,-162.60732
-14.875717,-158.74518
-14.544597,-159.06384
-15.143155,-157.59286
-15.127704,-156.82707
-14.901765,-160.35712
-14.674887,-159.785
-15.088237,-159.46767
-15.005482,-159.37044
-15.060459,-156.94823
-14.736887,-159.10681
-15.23554,-156.82996
-14.92089,-156.24463
-14.990352,-158.05171
-15.063071,-158.1591
-15.047723,-157.82124
-15.069507,-157.87645
-15.002151,-158.82974
-15.358057,-157.22116
-15.423373,-155.9984
-15.039556,-158.86221
-15.321792,-158.29367
-14.961501,-158.31839
-14.865713,-157.78557
-14.952428,-159.05779
-14.88228,-157.96809
-14.892583,-158.4958
-14.740017,-159.46951
-14.916825,-159.55626
-15.12342,-159.3963
-15.06474,-160.21088
-14.97772,-157.22174
-15.276114,-158.31363
-15.165739,-158.26938
-15.23286,-158.20366
-15.076096,-157.88448
-15.141156,-155.60838
-15.169026,-157.17084
-15.06125,-160.04462
-14.867275,-158.8746
-15.181695,-158.46895
-15.151993,-157.09422
-15.23484,-159.07443
-15.226935,-159.22774
-14.709081,-157.3833
-15.008326,-159.88785
-15.057337,-159.77402
-15.24551,-160.92163
-15.185451,-159.96924
-14.725003,-158.76833
-15.405411,-160.22514
-15.123873,-158.22197
-15.055668,-160.51723
-15.177336,-157.70699
-15.036481,-159.12752
-14.988387,-160.7018
-15.160077,-157.54498
-14.972962,-157.50203
-15.058741,-157.64212
-15.004302,-159.25479
-14.942306,-157.84216
-15.045434,-160.89815
-15.13874,-158.51048
-15.395954,-158.597
-15.105864,-160.50829
-14.896645,-162.85701
-15.009678,-159.94557
-14.935366,-159.1709
-15.072376,-159.99408
-14.926535,-159.57841
-14.855206,-160.45148
-14.87601,-158.16966
-14.998984,-157.6479
-15.039918,-160.4501
-15.163417,-155.97804
-15.209913,-160.06554
-15.023544,-156.02704
-15.158477,-160.38431
-15.155536,-159.34834
-15.111047,-157.42429
-14.877111,-159.30185
-14.71745,-157.23592
-15.011883,-159.10703
-15.249444,-159.39502
-14.913775,-159.04613
-15.069288,-157.99301
-15.139879,-159.25143
-15.16022,-158.34525
-14.984574,-160.9099
-14.851003,-160.38618
-15.150432,-158.99597
-15.040559,-160.72534
-14.99615,-158.45615
-14.973317,-157.05884
-15.18296,-159.02246
-15.093146,-158.59616
-15.087245,-159.70428
-14.988924,-158.34441
-14.966634,-159.356
-15.230227,-160.96869
-14.720866,-158.99396
-14.943581,-158.93282
-15.250006,-159.0645
-15.134917,-158.1312
-15.05741,-158.31071
-14.9249,-157.31618
-14.989171,-158.96948
-15.237104,-158.39511
-14.99082,-158.5462
-14.857049,-157.81892
-15.328039,-159.8922
-15.125646,-159.86273
-15.208763,-159.70323
-14.833478,-159.42242
-15.06899,-158.3215
-15.32058,-160.13316
-15.287572,-159.99858
-15.026123,-159.17503
-15.191762,-158.38683
-15.14326,-159.59038
-15.019991,-160.05925
-15.113002,-159.23941
-15.149005,-160.22835
-15.067661,-157.99416
-15.324594,-157.24706
-14.880568,-159.43503
-15.2244,-158.51447
-15.307985,-158.78453
-15.171756,-158.58017
-14.97079,-159.40907
-15.291259,-160.23372
-14.837996,-157.49632
-14.994166,-158.77357
-15.177358,-158.44
-14.890063,-159.88333
-15.157994,-159.56439
-15.182358,-158.79109
-15.172934,-158.63428
-14.629866,-160.99113
-14.818518,-156.72949
-14.798249,-158.05544
-14.919538,-157.6736
-15.085587,-159.95773
-14.812535,-160.54164
-14.866089,-159.29465
-15.075963,-160.099
-14.931643,-158.54962
-14.78895,-157.4507
-15.186085,-159.62778
-15.102519,-160.82123
-15.046449,-158.5909
-15.10969,-158.60008
-15.051322,-158.45767
-14.934394,-158.48787
-14.950422,-160.18085
-15.060386,-159.01942
-14.9921,-157.03334
-14.880589,-159.52374
-15.093164,-157.85657
-15.095698,-158.70663
-15.043767,-158.24049
-14.923765,-159.26759
-15.003728,-158.29446
-14.933035,-159.17989
-15.141885,-158.72295
-15.187002,-157.49182
-15.080608,-156.51463
-14.844839,-158.55022
-15.04089,-158.42818
-15.096865,-157.20103
-14.957092,-159.5829
-15.012216,-159.03354
-14.954098,-158.41013
-14.946411,-158.71771
-15.127269,-157.78169
-15.131891,-160.27246
-14.982759,-159.47542
-15.024604,-158.57202
-15.140604,-158.74849
-15.163065,-159.42238
-15.216157,-159.36919
-15.256677,-157.79297
-15.128693,-157.82008
-15.234108,-159.53281
-15.209109,-157.63728
-15.111423,-159.21472
-15.048826,-159.34402
-15.071966,-157.59663
-14.862775,-159.46016
-15.127081,-159.80287
-15.094299,-157.91702
-14.998404,-159.69815
-14.965695,-159.78557
-14.76483,-159.83351
-14.977778,-158.22722
-14.94652,-160.25772
-15.10315,-158.65077
-14.970126,-159.98329
-15.130056,-159.33311
-14.883562,-158.04588
-14.969995,-159.32948
-15.134607,-160.42216
-14.858817,-159.1221
-14.843498,-158.4323
-14.880147,-158.49849
-14.954737,-158.38181
-14.987069,-159.11879
-15.041186,-158.47954
-15.03898,-158.35657
-14.882435,-158.67523
-14.908693,-158.82159
-15.03933,-158.45992
-14.977323,-158.97391
-15.0049,-158.77979
-15.117777,-157.28873
-15.049765,-159.38194
-15.041327,-158.96788
-15.138078,-159.52484
-15.003389,-159.92508
-15.078065,-158.64326
-15.112567,-159.55978
-14.910028,-159.55782
