CITIFILE A.01.01
!Agilent Technologies,N5230C,MY48100142,A.08.04.10
!Agilent N5230C: A.08.04.10
!Format: LogMag/Angle
!Date: Thursday, September 03, 2020 11:58:07
NAME CH1_DATA
VAR Power MAG 801
DATA S11 DBANGLE
DATA S21 DBANGLE
DATA S12 DBANGLE
DATA S22 DBANGLE
VAR_LIST_BEGIN
-40
-39.975
-39.95
-39.925
-39.9
-39.875
-39.85
-39.825
-39.8
-39.775
-39.75
-39.725
-39.7
-39.675
-39.65
-39.625
-39.6
-39.575
-39.55
-39.525
-39.5
-39.475
-39.45
-39.425
-39.4
-39.375
-39.35
-39.325
-39.3
-39.275
-39.25
-39.225
-39.2
-39.175
-39.15
-39.125
-39.1
-39.075
-39.05
-39.025
-39
-38.975
-38.95
-38.925
-38.9
-38.875
-38.85
-38.825
-38.8
-38.775
-38.75
-38.725
-38.7
-38.675
-38.65
-38.625
-38.6
-38.575
-38.55
-38.525
-38.5
-38.475
-38.45
-38.425
-38.4
-38.375
-38.35
-38.325
-38.3
-38.275
-38.25
-38.225
-38.2
-38.175
-38.15
-38.125
-38.1
-38.075
-38.05
-38.025
-38
-37.975
-37.95
-37.925
-37.9
-37.875
-37.85
-37.825
-37.8
-37.775
-37.75
-37.725
-37.7
-37.675
-37.65
-37.625
-37.6
-37.575
-37.55
-37.525
-37.5
-37.475
-37.45
-37.425
-37.4
-37.375
-37.35
-37.325
-37.3
-37.275
-37.25
-37.225
-37.2
-37.175
-37.15
-37.125
-37.1
-37.075
-37.05
-37.025
-37
-36.975
-36.95
-36.925
-36.9
-36.875
-36.85
-36.825
-36.8
-36.775
-36.75
-36.725
-36.7
-36.675
-36.65
-36.625
-36.6
-36.575
-36.55
-36.525
-36.5
-36.475
-36.45
-36.425
-36.4
-36.375
-36.35
-36.325
-36.3
-36.275
-36.25
-36.225
-36.2
-36.175
-36.15
-36.125
-36.1
-36.075
-36.05
-36.025
-36
-35.975
-35.95
-35.925
-35.9
-35.875
-35.85
-35.825
-35.8
-35.775
-35.75
-35.725
-35.7
-35.675
-35.65
-35.625
-35.6
-35.575
-35.55
-35.525
-35.5
-35.475
-35.45
-35.425
-35.4
-35.375
-35.35
-35.325
-35.3
-35.275
-35.25
-35.225
-35.2
-35.175
-35.15
-35.125
-35.1
-35.075
-35.05
-35.025
-35
-34.975
-34.95
-34.925
-34.9
-34.875
-34.85
-34.825
-34.8
-34.775
-34.75
-34.725
-34.7
-34.675
-34.65
-34.625
-34.6
-34.575
-34.55
-34.525
-34.5
-34.475
-34.45
-34.425
-34.4
-34.375
-34.35
-34.325
-34.3
-34.275
-34.25
-34.225
-34.2
-34.175
-34.15
-34.125
-34.1
-34.075
-34.05
-34.025
-34
-33.975
-33.95
-33.925
-33.9
-33.875
-33.85
-33.825
-33.8
-33.775
-33.75
-33.725
-33.7
-33.675
-33.65
-33.625
-33.6
-33.575
-33.55
-33.525
-33.5
-33.475
-33.45
-33.425
-33.4
-33.375
-33.35
-33.325
-33.3
-33.275
-33.25
-33.225
-33.2
-33.175
-33.15
-33.125
-33.1
-33.075
-33.05
-33.025
-33
-32.975
-32.95
-32.925
-32.9
-32.875
-32.85
-32.825
-32.8
-32.775
-32.75
-32.725
-32.7
-32.675
-32.65
-32.625
-32.6
-32.575
-32.55
-32.525
-32.5
-32.475
-32.45
-32.425
-32.4
-32.375
-32.35
-32.325
-32.3
-32.275
-32.25
-32.225
-32.2
-32.175
-32.15
-32.125
-32.1
-32.075
-32.05
-32.025
-32
-31.975
-31.95
-31.925
-31.9
-31.875
-31.85
-31.825
-31.8
-31.775
-31.75
-31.725
-31.7
-31.675
-31.65
-31.625
-31.6
-31.575
-31.55
-31.525
-31.5
-31.475
-31.45
-31.425
-31.4
-31.375
-31.35
-31.325
-31.3
-31.275
-31.25
-31.225
-31.2
-31.175
-31.15
-31.125
-31.1
-31.075
-31.05
-31.025
-31
-30.975
-30.95
-30.925
-30.9
-30.875
-30.85
-30.825
-30.8
-30.775
-30.75
-30.725
-30.7
-30.675
-30.65
-30.625
-30.6
-30.575
-30.55
-30.525
-30.5
-30.475
-30.45
-30.425
-30.4
-30.375
-30.35
-30.325
-30.3
-30.275
-30.25
-30.225
-30.2
-30.175
-30.15
-30.125
-30.1
-30.075
-30.05
-30.025
-30
-29.975
-29.95
-29.925
-29.9
-29.875
-29.85
-29.825
-29.8
-29.775
-29.75
-29.725
-29.7
-29.675
-29.65
-29.625
-29.6
-29.575
-29.55
-29.525
-29.5
-29.475
-29.45
-29.425
-29.4
-29.375
-29.35
-29.325
-29.3
-29.275
-29.25
-29.225
-29.2
-29.175
-29.15
-29.125
-29.1
-29.075
-29.05
-29.025
-29
-28.975
-28.95
-28.925
-28.9
-28.875
-28.85
-28.825
-28.8
-28.775
-28.75
-28.725
-28.7
-28.675
-28.65
-28.625
-28.6
-28.575
-28.55
-28.525
-28.5
-28.475
-28.45
-28.425
-28.4
-28.375
-28.35
-28.325
-28.3
-28.275
-28.25
-28.225
-28.2
-28.175
-28.15
-28.125
-28.1
-28.075
-28.05
-28.025
-28
-27.975
-27.95
-27.925
-27.9
-27.875
-27.85
-27.825
-27.8
-27.775
-27.75
-27.725
-27.7
-27.675
-27.65
-27.625
-27.6
-27.575
-27.55
-27.525
-27.5
-27.475
-27.45
-27.425
-27.4
-27.375
-27.35
-27.325
-27.3
-27.275
-27.25
-27.225
-27.2
-27.175
-27.15
-27.125
-27.1
-27.075
-27.05
-27.025
-27
-26.975
-26.95
-26.925
-26.9
-26.875
-26.85
-26.825
-26.8
-26.775
-26.75
-26.725
-26.7
-26.675
-26.65
-26.625
-26.6
-26.575
-26.55
-26.525
-26.5
-26.475
-26.45
-26.425
-26.4
-26.375
-26.35
-26.325
-26.3
-26.275
-26.25
-26.225
-26.2
-26.175
-26.15
-26.125
-26.1
-26.075
-26.05
-26.025
-26
-25.975
-25.95
-25.925
-25.9
-25.875
-25.85
-25.825
-25.8
-25.775
-25.75
-25.725
-25.7
-25.675
-25.65
-25.625
-25.6
-25.575
-25.55
-25.525
-25.5
-25.475
-25.45
-25.425
-25.4
-25.375
-25.35
-25.325
-25.3
-25.275
-25.25
-25.225
-25.2
-25.175
-25.15
-25.125
-25.1
-25.075
-25.05
-25.025
-25
-24.975
-24.95
-24.925
-24.9
-24.875
-24.85
-24.825
-24.8
-24.775
-24.75
-24.725
-24.7
-24.675
-24.65
-24.625
-24.6
-24.575
-24.55
-24.525
-24.5
-24.475
-24.45
-24.425
-24.4
-24.375
-24.35
-24.325
-24.3
-24.275
-24.25
-24.225
-24.2
-24.175
-24.15
-24.125
-24.1
-24.075
-24.05
-24.025
-24
-23.975
-23.95
-23.925
-23.9
-23.875
-23.85
-23.825
-23.8
-23.775
-23.75
-23.725
-23.7
-23.675
-23.65
-23.625
-23.6
-23.575
-23.55
-23.525
-23.5
-23.475
-23.45
-23.425
-23.4
-23.375
-23.35
-23.325
-23.3
-23.275
-23.25
-23.225
-23.2
-23.175
-23.15
-23.125
-23.1
-23.075
-23.05
-23.025
-23
-22.975
-22.95
-22.925
-22.9
-22.875
-22.85
-22.825
-22.8
-22.775
-22.75
-22.725
-22.7
-22.675
-22.65
-22.625
-22.6
-22.575
-22.55
-22.525
-22.5
-22.475
-22.45
-22.425
-22.4
-22.375
-22.35
-22.325
-22.3
-22.275
-22.25
-22.225
-22.2
-22.175
-22.15
-22.125
-22.1
-22.075
-22.05
-22.025
-22
-21.975
-21.95
-21.925
-21.9
-21.875
-21.85
-21.825
-21.8
-21.775
-21.75
-21.725
-21.7
-21.675
-21.65
-21.625
-21.6
-21.575
-21.55
-21.525
-21.5
-21.475
-21.45
-21.425
-21.4
-21.375
-21.35
-21.325
-21.3
-21.275
-21.25
-21.225
-21.2
-21.175
-21.15
-21.125
-21.1
-21.075
-21.05
-21.025
-21
-20.975
-20.95
-20.925
-20.9
-20.875
-20.85
-20.825
-20.8
-20.775
-20.75
-20.725
-20.7
-20.675
-20.65
-20.625
-20.6
-20.575
-20.55
-20.525
-20.5
-20.475
-20.45
-20.425
-20.4
-20.375
-20.35
-20.325
-20.3
-20.275
-20.25
-20.225
-20.2
-20.175
-20.15
-20.125
-20.1
-20.075
-20.05
-20.025
-20
VAR_LIST_END
BEGIN
-15.14649,-158.25601
-14.854449,-153.22404
-15.027876,-156.21637
-15.366606,-161.83665
-15.960039,-162.40704
-14.732686,-157.13446
-15.493789,-154.22708
-15.276994,-158.34235
-15.543518,-153.19864
-14.749988,-157.26955
-14.786784,-158.37589
-15.667242,-158.16869
-14.820734,-159.74158
-15.004087,-154.86267
-15.23014,-162.14687
-15.835782,-154.44421
-15.169885,-158.8427
-15.185472,-156.27513
-15.225342,-158.22731
-14.577754,-157.6696
-15.849401,-156.80878
-15.162345,-158.63647
-15.134813,-154.95998
-14.426562,-159.43216
-15.155203,-159.91797
-14.774142,-162.3311
-14.918481,-160.50285
-15.125253,-163.64297
-15.854854,-164.54024
-15.103741,-157.42685
-15.083646,-161.58823
-14.692119,-155.94543
-15.174292,-160.86084
-15.204704,-158.2545
-15.207086,-159.5632
-15.082607,-161.04176
-14.79501,-161.57297
-14.696752,-158.34355
-15.387948,-159.43074
-15.250757,-155.23276
-15.188911,-157.8597
-14.734561,-161.14429
-15.063511,-158.14046
-15.412703,-159.86472
-14.783644,-157.57086
-14.905258,-158.10474
-14.482863,-154.77953
-14.994486,-154.68076
-14.785865,-162.14015
-15.45137,-157.5947
-15.958031,-159.39252
-15.384217,-155.00732
-15.568968,-159.47424
-15.168471,-161.08705
-15.169192,-156.89505
-14.846503,-157.51558
-14.840552,-156.21579
-14.985931,-157.27219
-15.104006,-153.93527
-15.05479,-162.72078
-15.474911,-159.78156
-15.084091,-158.86314
-15.194262,-154.43112
-15.641573,-156.33142
-15.275986,-155.97855
-15.700631,-159.42673
-15.433981,-157.7272
-14.853922,-159.70038
-14.382401,-157.10753
-15.134212,-156.95409
-14.639382,-160.03172
-15.110935,-156.37985
-14.931746,-157.32629
-14.737489,-161.65208
-16.260139,-158.38696
-15.008856,-157.64258
-15.272643,-159.29625
-14.373278,-159.55287
-15.59507,-158.53163
-15.279757,-153.98962
-15.265107,-159.87898
-14.843693,-163.57845
-15.335997,-157.59933
-15.121248,-160.3726
-15.360356,-154.34641
-14.591668,-156.1925
-15.400441,-158.26984
-14.667138,-161.27167
-14.921916,-160.98729
-15.289717,-158.30611
-15.081984,-157.38785
-15.262931,-156.93651
-14.542205,-160.83929
-14.959449,-158.72299
-14.732682,-156.43593
-15.176673,-161.62149
-14.844222,-158.60019
-14.967351,-155.16843
-14.769973,-155.37085
-15.268097,-160.32832
-15.391778,-159.82785
-14.841935,-159.79939
-15.394328,-160.27092
-14.707232,-158.63327
-15.750787,-162.44655
-15.114247,-157.41641
-14.475945,-161.77121
-15.265398,-164.15134
-14.91609,-161.13107
-14.959826,-157.59734
-15.150734,-156.28598
-14.91317,-159.54518
-14.941645,-161.52478
-15.025667,-156.63412
-15.906616,-160.44522
-14.895055,-155.91461
-15.28868,-157.52611
-14.952292,-157.08276
-15.029938,-160.84196
-15.194674,-158.84439
-15.037353,-162.54242
-15.100076,-159.71458
-14.987016,-159.34726
-15.233922,-157.09956
-15.568458,-156.94653
-15.111279,-160.94791
-14.778532,-158.70874
-14.96201,-165.17499
-15.297861,-158.05115
-14.565441,-159.88461
-15.035279,-159.81429
-15.157421,-159.26468
-15.085607,-155.01233
-15.347906,-157.72633
-15.000012,-161.07573
-15.218236,-161.31044
-15.37703,-158.22423
-15.251492,-156.541
-14.991648,-163.35698
-14.858429,-161.31847
-15.102979,-158.32359
-14.879181,-159.85942
-14.970739,-160.08194
-15.524783,-156.45332
-15.003017,-162.4626
-15.62702,-160.59753
-14.888242,-160.58694
-15.379333,-159.56717
-15.060127,-157.50974
-14.910277,-159.39336
-14.33848,-156.48744
-15.262726,-160.90854
-14.886806,-160.53984
-15.155676,-158.39275
-15.074972,-153.43077
-14.790135,-159.86063
-14.95656,-157.44984
-14.863347,-159.8622
-14.839511,-159.7426
-14.999954,-160.68605
-15.482654,-157.34381
-14.719159,-160.21225
-15.167582,-163.42891
-14.943253,-157.55844
-15.375936,-159.02704
-14.797515,-158.89441
-15.097846,-157.3662
-14.938519,-159.08437
-15.379485,-161.67847
-15.223807,-158.47247
-14.884554,-159.52902
-15.1431,-158.15182
-15.013034,-160.78169
-14.752877,-159.86925
-15.389183,-160.38652
-14.652575,-160.59599
-14.716343,-157.77318
-14.592093,-159.70557
-15.502264,-159.79152
-14.613718,-161.5938
-15.540877,-159.78705
-14.856985,-157.83865
-14.510671,-159.48457
-14.963855,-157.761
-14.998384,-161.56396
-15.319615,-159.14116
-14.967334,-159.26292
-14.615107,-161.37984
-14.800105,-157.63449
-15.024396,-161.37981
-15.393625,-158.63091
-14.767269,-158.52798
-15.297371,-158.01831
-15.358835,-160.67532
-14.899793,-160.88574
-15.151367,-160.05
-15.110924,-156.16714
-14.850766,-159.3465
-14.630379,-160.30215
-14.96027,-158.97365
-14.943257,-157.80095
-15.256463,-156.65736
-15.35601,-157.44118
-15.331115,-157.26707
-15.371069,-161.17458
-14.691421,-160.73424
-14.968722,-160.82465
-15.01043,-159.00323
-15.081783,-160.32726
-15.296352,-157.44701
-15.576802,-157.26805
-14.928728,-161.89302
-15.418778,-157.95421
-15.295156,-158.72758
-15.320971,-157.40477
-14.823616,-160.43895
-14.810045,-157.92841
-15.127144,-159.22005
-14.745365,-157.87248
-15.219304,-158.66789
-15.070944,-158.80266
-15.162214,-159.81915
-15.091476,-158.61682
-15.154023,-159.93517
-15.089184,-156.78999
-15.253142,-159.43932
-15.284953,-158.74098
-14.907256,-158.23364
-15.12178,-160.34166
-15.040424,-159.69072
-14.976068,-161.0011
-14.680466,-159.88873
-14.986156,-157.36638
-15.121182,-159.0647
-15.333152,-160.26837
-14.878051,-156.43234
-14.999481,-160.44684
-14.879893,-160.56831
-15.127477,-159.47868
-14.938294,-158.9865
-15.059355,-158.80519
-15.257366,-157.97267
-14.630785,-158.99005
-15.428473,-156.18233
-15.272774,-158.24939
-15.372458,-160.80536
-14.907001,-156.64355
-15.538055,-157.13382
-14.822356,-160.92555
-14.850513,-159.23399
-15.088192,-158.25975
-14.944816,-160.13678
-14.988072,-157.45061
-15.10071,-159.86937
-14.845427,-159.64247
-15.097002,-158.28297
-15.137348,-160.24678
-14.994177,-157.95486
-15.093949,-160.85991
-15.1775,-158.92439
-15.071726,-156.30238
-14.857906,-159.11841
-15.455475,-157.245
-14.781864,-159.31912
-15.05311,-158.90919
-14.877793,-159.42026
-14.929222,-156.93559
-15.353694,-160.17415
-15.529196,-158.94757
-14.979607,-159.8149
-14.925426,-158.39687
-14.953844,-157.20255
-15.308299,-160.45839
-15.277816,-161.0123
-14.765042,-159.54633
-15.236691,-160.50316
-15.326783,-160.92735
-15.312416,-158.4845
-14.915349,-156.31931
-14.95705,-158.42635
-15.070172,-160.62537
-15.031808,-159.61118
-15.401515,-157.09262
-15.077226,-157.58124
-15.238955,-157.43022
-15.001717,-157.76988
-15.021642,-159.56668
-14.942694,-158.89842
-15.044663,-158.83502
-15.273556,-160.05153
-15.42988,-160.03491
-15.351099,-156.23024
-15.153833,-156.47258
-15.04466,-158.39438
-14.838974,-156.9798
-14.813358,-159.31229
-14.966916,-159.42853
-15.24328,-159.6405
-15.016958,-157.96663
-15.490936,-158.01726
-14.936666,-161.41258
-15.102347,-159.13226
-14.794828,-158.40111
-15.13568,-156.99423
-15.006047,-159.56192
-15.032809,-158.31154
-14.994619,-158.8107
-14.896406,-159.3459
-15.42676,-158.79974
-14.948541,-158.32048
-14.667861,-159.15508
-14.820549,-159.78807
-15.038076,-158.87085
-14.985576,-158.59296
-14.943506,-158.22629
-14.804003,-159.59395
-15.114483,-159.27061
-14.933739,-158.63902
-14.896861,-160.00859
-15.345347,-159.73909
-15.048559,-158.99167
-14.793276,-159.88248
-15.387883,-159.15634
-14.960917,-159.00044
-15.160569,-158.73784
-14.990185,-159.4034
-15.043714,-157.19627
-15.351237,-159.89278
-15.011258,-157.59358
-14.863281,-158.80426
-15.057966,-156.97841
-15.166533,-157.8837
-15.081809,-159.11902
-15.244907,-158.45827
-15.200646,-160.41603
-14.792423,-161.17052
-14.897059,-157.47762
-15.069433,-158.73944
-14.737886,-158.84599
-15.163007,-159.49435
-14.884827,-158.07651
-15.015761,-158.7885
-15.226644,-159.86852
-14.942563,-159.05823
-15.158621,-156.82193
-15.307002,-157.64655
-15.11384,-158.63565
-15.217358,-159.64565
-15.405299,-157.83153
-14.965578,-157.93738
-15.094893,-158.08923
-15.110782,-157.79376
-14.920756,-159.97134
-15.157551,-156.88503
-14.857198,-158.3526
-15.271091,-157.30652
-14.863764,-159.09148
-15.114249,-159.35699
-14.957643,-158.79388
-14.94205,-157.79552
-15.157901,-159.78972
-15.118874,-158.20044
-15.267876,-157.70914
-15.119605,-159.31279
-15.160872,-158.81689
-14.742174,-158.84256
-14.729239,-160.8985
-14.826674,-158.71426
-15.044861,-161.18694
-15.154036,-158.92491
-15.064791,-158.41797
-15.13067,-159.47559
-15.033481,-158.20819
-14.914042,-157.46765
-14.906913,-159.05095
-14.849149,-160.49863
-14.955324,-158.58194
-15.312364,-157.35556
-14.800261,-156.82686
-15.15082,-157.57329
-14.881901,-159.06055
-14.986598,-160.16861
-14.849269,-158.53607
-14.767244,-157.38333
-15.033599,-159.81161
-15.483377,-158.31116
-14.909781,-160.17188
-14.910392,-159.69177
-15.195074,-159.72401
-14.893063,-160.28564
-15.472231,-157.73955
-15.184157,-158.46234
-14.935505,-160.90192
-14.962366,-158.01192
-14.892767,-158.5441
-14.715925,-158.37949
-14.754782,-158.17688
-15.049679,-159.47133
-15.237478,-158.286
-15.270718,-161.27153
-15.186413,-158.435
-15.068782,-159.16675
-14.964454,-158.2823
-15.027047,-156.63966
-15.246211,-159.81236
-15.086267,-158.82426
-14.994819,-159.29153
-15.025293,-159.30316
-14.868677,-157.95467
-15.3802,-160.86075
-15.032636,-158.0519
-14.854478,-159.24834
-15.067227,-158.63036
-14.94635,-158.98242
-15.085963,-159.39304
-14.857776,-158.37282
-15.065677,-158.27127
-15.1685,-158.7439
-14.998317,-158.64064
-15.299513,-158.2592
-14.694967,-159.02583
-14.893095,-159.79333
-14.946516,-158.91595
-15.003462,-159.13893
-15.042164,-157.25096
-14.953859,-158.5712
-14.911325,-159.37811
-14.84031,-158.17514
-15.100939,-160.23264
-15.037088,-159.58925
-14.887448,-159.26903
-15.206676,-157.29637
-15.274696,-159.07558
-15.336643,-159.10982
-14.910748,-159.29836
-15.035148,-159.78796
-15.030244,-158.16797
-14.849676,-159.96312
-14.936997,-159.33377
-15.132446,-158.16359
-14.98788,-158.2458
-15.274142,-157.20528
-15.029049,-159.30096
-15.121567,-159.85851
-15.240681,-158.06287
-14.950265,-159.70212
-15.058716,-158.54456
-14.915888,-160.06308
-15.096594,-159.34944
-14.935538,-158.88646
-14.92063,-158.66965
-14.936272,-158.25751
-14.902218,-157.92883
-15.009169,-158.1364
-14.963046,-158.19666
-14.956633,-160.05606
-15.030838,-159.07095
-14.965125,-157.43056
-15.018886,-158.64432
-14.936621,-159.62039
-15.013995,-158.33719
-15.203124,-158.21642
-15.166347,-158.29933
-15.008878,-158.30217
-14.905948,-158.2832
-15.174386,-158.30687
-15.246196,-158.63124
-15.111255,-159.21236
-15.139913,-159.00284
-14.837471,-158.68394
-14.991391,-159.09909
-14.999149,-158.73337
-14.992394,-159.49474
-15.076929,-158.87498
-15.101871,-159.28957
-15.240317,-159.42654
-14.950879,-159.15378
-14.965247,-158.62411
-14.981315,-157.90834
-14.876077,-158.98549
-14.988235,-159.08511
-15.008451,-160.77441
-15.187055,-159.83948
-14.881637,-160.04381
-15.092453,-157.3149
-15.051047,-159.03452
-14.946883,-158.16484
-15.134423,-158.40785
-15.017806,-158.09074
-14.850517,-158.1658
-15.226358,-159.62727
-15.00491,-158.32205
-14.843218,-158.68689
-14.86789,-157.89067
-15.107915,-158.88896
-14.944161,-159.2692
-14.940652,-157.78088
-14.984009,-159.05403
-15.180948,-158.80569
-15.204214,-159.07004
-14.990648,-159.02438
-14.820829,-158.64861
-15.032105,-159.26387
-15.209623,-160.58189
-15.191426,-159.57446
-15.15922,-160.16609
-15.08733,-159.45895
-15.093241,-158.94862
-15.077528,-159.54597
-15.116386,-159.55159
-14.926044,-160.22211
-15.126288,-158.24896
-14.895621,-158.48529
-14.8946,-159.10338
-15.171111,-159.11426
-15.124727,-159.01711
-14.973831,-158.59451
-15.116488,-158.86424
-15.125182,-158.81857
-15.145857,-159.38705
-14.99451,-158.93179
-15.044623,-158.58188
-14.989721,-158.93819
-15.0005,-158.26147
-14.97061,-158.911
-15.153425,-158.83928
-14.958058,-159.16454
-15.058349,-159.87215
-15.231797,-158.53343
-15.044904,-158.76859
-15.05062,-159.25346
-15.019637,-158.14052
-15.045246,-158.87216
-14.999872,-158.70084
-14.889771,-159.23363
-15.076265,-157.79211
-14.964828,-159.03688
-14.976201,-158.2215
-15.052828,-158.48938
-14.977861,-159.08687
-15.111593,-158.55872
-14.961818,-158.32278
-15.247104,-159.88124
-15.095823,-159.88982
-15.056688,-159.59576
-15.058731,-158.50072
-15.019934,-159.25673
-15.019692,-158.62422
-15.004641,-159.0049
-15.033113,-159.15753
-14.831985,-159.99892
-15.127144,-159.56567
-14.984932,-158.90469
-14.914516,-159.2299
-15.014249,-160.27376
-15.035658,-158.98425
-14.963036,-158.9937
-15.059862,-159.04984
-15.09767,-159.27737
-15.143799,-158.79301
-15.098378,-160.01289
-15.160841,-158.83127
-15.018621,-159.10948
-15.020756,-158.87137
-15.016149,-159.57294
-14.937611,-159.20561
-15.045523,-159.26802
-15.11652,-158.71429
-15.050222,-159.59546
-15.075171,-158.19247
-14.967456,-158.5256
-14.978119,-158.55986
-14.991044,-159.28323
-14.904996,-159.26227
-14.999257,-158.61501
