CITIFILE A.01.01
!Agilent Technologies,N5230C,MY48100142,A.08.04.10
!Agilent N5230C: A.08.04.10
!Format: LogMag/Angle
!Date: Thursday, August 13, 2020 17:47:14
NAME CH1_DATA
VAR Power MAG 801
DATA S11 DBANGLE
DATA S21 DBANGLE
DATA S12 DBANGLE
DATA S22 DBANGLE
VAR_LIST_BEGIN
-40
-39.975
-39.95
-39.925
-39.9
-39.875
-39.85
-39.825
-39.8
-39.775
-39.75
-39.725
-39.7
-39.675
-39.65
-39.625
-39.6
-39.575
-39.55
-39.525
-39.5
-39.475
-39.45
-39.425
-39.4
-39.375
-39.35
-39.325
-39.3
-39.275
-39.25
-39.225
-39.2
-39.175
-39.15
-39.125
-39.1
-39.075
-39.05
-39.025
-39
-38.975
-38.95
-38.925
-38.9
-38.875
-38.85
-38.825
-38.8
-38.775
-38.75
-38.725
-38.7
-38.675
-38.65
-38.625
-38.6
-38.575
-38.55
-38.525
-38.5
-38.475
-38.45
-38.425
-38.4
-38.375
-38.35
-38.325
-38.3
-38.275
-38.25
-38.225
-38.2
-38.175
-38.15
-38.125
-38.1
-38.075
-38.05
-38.025
-38
-37.975
-37.95
-37.925
-37.9
-37.875
-37.85
-37.825
-37.8
-37.775
-37.75
-37.725
-37.7
-37.675
-37.65
-37.625
-37.6
-37.575
-37.55
-37.525
-37.5
-37.475
-37.45
-37.425
-37.4
-37.375
-37.35
-37.325
-37.3
-37.275
-37.25
-37.225
-37.2
-37.175
-37.15
-37.125
-37.1
-37.075
-37.05
-37.025
-37
-36.975
-36.95
-36.925
-36.9
-36.875
-36.85
-36.825
-36.8
-36.775
-36.75
-36.725
-36.7
-36.675
-36.65
-36.625
-36.6
-36.575
-36.55
-36.525
-36.5
-36.475
-36.45
-36.425
-36.4
-36.375
-36.35
-36.325
-36.3
-36.275
-36.25
-36.225
-36.2
-36.175
-36.15
-36.125
-36.1
-36.075
-36.05
-36.025
-36
-35.975
-35.95
-35.925
-35.9
-35.875
-35.85
-35.825
-35.8
-35.775
-35.75
-35.725
-35.7
-35.675
-35.65
-35.625
-35.6
-35.575
-35.55
-35.525
-35.5
-35.475
-35.45
-35.425
-35.4
-35.375
-35.35
-35.325
-35.3
-35.275
-35.25
-35.225
-35.2
-35.175
-35.15
-35.125
-35.1
-35.075
-35.05
-35.025
-35
-34.975
-34.95
-34.925
-34.9
-34.875
-34.85
-34.825
-34.8
-34.775
-34.75
-34.725
-34.7
-34.675
-34.65
-34.625
-34.6
-34.575
-34.55
-34.525
-34.5
-34.475
-34.45
-34.425
-34.4
-34.375
-34.35
-34.325
-34.3
-34.275
-34.25
-34.225
-34.2
-34.175
-34.15
-34.125
-34.1
-34.075
-34.05
-34.025
-34
-33.975
-33.95
-33.925
-33.9
-33.875
-33.85
-33.825
-33.8
-33.775
-33.75
-33.725
-33.7
-33.675
-33.65
-33.625
-33.6
-33.575
-33.55
-33.525
-33.5
-33.475
-33.45
-33.425
-33.4
-33.375
-33.35
-33.325
-33.3
-33.275
-33.25
-33.225
-33.2
-33.175
-33.15
-33.125
-33.1
-33.075
-33.05
-33.025
-33
-32.975
-32.95
-32.925
-32.9
-32.875
-32.85
-32.825
-32.8
-32.775
-32.75
-32.725
-32.7
-32.675
-32.65
-32.625
-32.6
-32.575
-32.55
-32.525
-32.5
-32.475
-32.45
-32.425
-32.4
-32.375
-32.35
-32.325
-32.3
-32.275
-32.25
-32.225
-32.2
-32.175
-32.15
-32.125
-32.1
-32.075
-32.05
-32.025
-32
-31.975
-31.95
-31.925
-31.9
-31.875
-31.85
-31.825
-31.8
-31.775
-31.75
-31.725
-31.7
-31.675
-31.65
-31.625
-31.6
-31.575
-31.55
-31.525
-31.5
-31.475
-31.45
-31.425
-31.4
-31.375
-31.35
-31.325
-31.3
-31.275
-31.25
-31.225
-31.2
-31.175
-31.15
-31.125
-31.1
-31.075
-31.05
-31.025
-31
-30.975
-30.95
-30.925
-30.9
-30.875
-30.85
-30.825
-30.8
-30.775
-30.75
-30.725
-30.7
-30.675
-30.65
-30.625
-30.6
-30.575
-30.55
-30.525
-30.5
-30.475
-30.45
-30.425
-30.4
-30.375
-30.35
-30.325
-30.3
-30.275
-30.25
-30.225
-30.2
-30.175
-30.15
-30.125
-30.1
-30.075
-30.05
-30.025
-30
-29.975
-29.95
-29.925
-29.9
-29.875
-29.85
-29.825
-29.8
-29.775
-29.75
-29.725
-29.7
-29.675
-29.65
-29.625
-29.6
-29.575
-29.55
-29.525
-29.5
-29.475
-29.45
-29.425
-29.4
-29.375
-29.35
-29.325
-29.3
-29.275
-29.25
-29.225
-29.2
-29.175
-29.15
-29.125
-29.1
-29.075
-29.05
-29.025
-29
-28.975
-28.95
-28.925
-28.9
-28.875
-28.85
-28.825
-28.8
-28.775
-28.75
-28.725
-28.7
-28.675
-28.65
-28.625
-28.6
-28.575
-28.55
-28.525
-28.5
-28.475
-28.45
-28.425
-28.4
-28.375
-28.35
-28.325
-28.3
-28.275
-28.25
-28.225
-28.2
-28.175
-28.15
-28.125
-28.1
-28.075
-28.05
-28.025
-28
-27.975
-27.95
-27.925
-27.9
-27.875
-27.85
-27.825
-27.8
-27.775
-27.75
-27.725
-27.7
-27.675
-27.65
-27.625
-27.6
-27.575
-27.55
-27.525
-27.5
-27.475
-27.45
-27.425
-27.4
-27.375
-27.35
-27.325
-27.3
-27.275
-27.25
-27.225
-27.2
-27.175
-27.15
-27.125
-27.1
-27.075
-27.05
-27.025
-27
-26.975
-26.95
-26.925
-26.9
-26.875
-26.85
-26.825
-26.8
-26.775
-26.75
-26.725
-26.7
-26.675
-26.65
-26.625
-26.6
-26.575
-26.55
-26.525
-26.5
-26.475
-26.45
-26.425
-26.4
-26.375
-26.35
-26.325
-26.3
-26.275
-26.25
-26.225
-26.2
-26.175
-26.15
-26.125
-26.1
-26.075
-26.05
-26.025
-26
-25.975
-25.95
-25.925
-25.9
-25.875
-25.85
-25.825
-25.8
-25.775
-25.75
-25.725
-25.7
-25.675
-25.65
-25.625
-25.6
-25.575
-25.55
-25.525
-25.5
-25.475
-25.45
-25.425
-25.4
-25.375
-25.35
-25.325
-25.3
-25.275
-25.25
-25.225
-25.2
-25.175
-25.15
-25.125
-25.1
-25.075
-25.05
-25.025
-25
-24.975
-24.95
-24.925
-24.9
-24.875
-24.85
-24.825
-24.8
-24.775
-24.75
-24.725
-24.7
-24.675
-24.65
-24.625
-24.6
-24.575
-24.55
-24.525
-24.5
-24.475
-24.45
-24.425
-24.4
-24.375
-24.35
-24.325
-24.3
-24.275
-24.25
-24.225
-24.2
-24.175
-24.15
-24.125
-24.1
-24.075
-24.05
-24.025
-24
-23.975
-23.95
-23.925
-23.9
-23.875
-23.85
-23.825
-23.8
-23.775
-23.75
-23.725
-23.7
-23.675
-23.65
-23.625
-23.6
-23.575
-23.55
-23.525
-23.5
-23.475
-23.45
-23.425
-23.4
-23.375
-23.35
-23.325
-23.3
-23.275
-23.25
-23.225
-23.2
-23.175
-23.15
-23.125
-23.1
-23.075
-23.05
-23.025
-23
-22.975
-22.95
-22.925
-22.9
-22.875
-22.85
-22.825
-22.8
-22.775
-22.75
-22.725
-22.7
-22.675
-22.65
-22.625
-22.6
-22.575
-22.55
-22.525
-22.5
-22.475
-22.45
-22.425
-22.4
-22.375
-22.35
-22.325
-22.3
-22.275
-22.25
-22.225
-22.2
-22.175
-22.15
-22.125
-22.1
-22.075
-22.05
-22.025
-22
-21.975
-21.95
-21.925
-21.9
-21.875
-21.85
-21.825
-21.8
-21.775
-21.75
-21.725
-21.7
-21.675
-21.65
-21.625
-21.6
-21.575
-21.55
-21.525
-21.5
-21.475
-21.45
-21.425
-21.4
-21.375
-21.35
-21.325
-21.3
-21.275
-21.25
-21.225
-21.2
-21.175
-21.15
-21.125
-21.1
-21.075
-21.05
-21.025
-21
-20.975
-20.95
-20.925
-20.9
-20.875
-20.85
-20.825
-20.8
-20.775
-20.75
-20.725
-20.7
-20.675
-20.65
-20.625
-20.6
-20.575
-20.55
-20.525
-20.5
-20.475
-20.45
-20.425
-20.4
-20.375
-20.35
-20.325
-20.3
-20.275
-20.25
-20.225
-20.2
-20.175
-20.15
-20.125
-20.1
-20.075
-20.05
-20.025
-20
VAR_LIST_END
BEGIN
-15.203108,-154.5898
-16.137108,-154.20978
-14.162188,-156.34842
-15.077328,-161.24345
-14.829941,-159.56161
-14.315858,-158.77759
-15.468879,-158.58023
-14.74836,-159.96571
-14.52378,-158.13867
-15.222531,-163.18506
-14.701219,-160.04366
-14.500844,-161.02737
-16.108448,-158.83353
-15.755845,-156.61549
-14.146843,-153.79538
-14.561348,-161.15643
-15.813337,-162.75647
-14.738239,-159.33995
-15.024688,-153.43916
-14.737284,-157.54929
-15.43467,-154.01192
-14.853442,-157.21425
-14.339538,-154.3018
-15.24403,-162.49167
-15.57343,-158.34425
-14.7536,-162.58813
-15.316875,-157.07497
-14.921031,-162.69118
-15.474546,-164.81041
-14.4615,-159.41316
-14.870534,-159.98283
-15.746723,-157.99663
-14.898018,-155.31364
-15.182589,-160.15836
-14.804527,-157.13084
-15.045346,-162.51505
-15.488995,-159.72615
-16.021145,-153.77199
-15.395313,-156.55038
-15.098837,-157.46819
-14.622616,-157.87781
-15.73159,-158.82956
-15.014293,-155.07689
-15.672551,-158.57291
-15.04905,-163.26286
-14.68415,-153.63739
-14.852301,-157.13222
-15.249171,-152.32738
-14.748595,-158.77756
-15.070996,-160.83864
-15.430996,-151.03729
-15.344545,-158.89845
-15.940042,-156.98645
-15.31878,-159.90479
-14.599617,-162.04004
-14.440617,-159.60342
-14.435244,-158.14847
-14.137335,-160.15834
-15.803926,-162.49113
-15.265714,-159.00121
-15.867358,-159.26262
-14.369341,-161.10216
-14.761471,-160.18257
-14.604378,-155.74483
-14.858908,-157.97417
-15.370721,-157.20786
-15.224204,-159.45769
-14.760729,-161.55292
-15.549595,-164.12364
-14.941245,-160.18799
-14.873769,-162.30028
-15.329501,-161.81535
-15.080606,-154.51437
-14.91202,-156.0648
-14.9326,-158.69936
-15.260098,-156.49594
-14.573791,-160.05504
-14.930181,-164.1447
-15.036136,-159.64276
-15.912401,-153.78217
-14.876947,-157.90257
-15.144893,-159.44539
-15.319975,-162.12233
-15.592155,-158.78687
-14.922945,-158.03804
-14.806734,-163.61322
-15.377616,-156.96828
-13.994366,-159.88026
-15.102842,-157.23212
-15.265947,-157.30951
-14.814154,-159.94057
-15.877159,-155.63191
-15.326979,-158.04282
-15.177653,-153.99394
-15.104566,-156.91846
-15.014756,-158.4592
-14.605941,-161.08577
-14.678794,-160.95847
-14.517991,-164.31462
-14.94139,-162.61935
-14.793519,-156.92177
-15.81631,-155.86311
-15.073678,-156.92393
-15.448199,-159.1324
-14.731221,-154.77126
-15.618307,-157.38762
-15.128525,-161.32169
-15.101439,-160.84615
-14.99036,-159.87349
-15.122946,-160.71555
-15.325864,-161.47078
-15.15066,-160.89238
-14.944462,-155.52037
-15.79253,-153.46033
-15.074796,-155.18338
-14.734221,-155.73904
-14.801903,-156.21878
-14.831112,-161.44798
-15.044594,-156.03596
-14.962374,-155.68733
-15.116266,-159.10434
-15.381499,-158.95181
-15.169587,-165.26602
-16.047808,-150.74388
-15.909627,-162.03976
-14.380482,-160.52251
-14.663189,-157.5629
-15.352359,-159.90532
-14.595756,-156.13875
-15.118172,-162.12112
-14.989101,-160.12018
-15.422935,-159.00166
-14.626619,-157.17021
-14.983711,-160.38725
-15.02675,-162.72368
-15.267548,-161.69757
-14.884973,-162.6709
-14.856013,-160.81767
-14.524402,-158.92885
-15.239048,-158.96384
-14.201985,-159.40305
-15.428296,-165.61606
-15.279548,-157.35725
-15.275455,-159.40013
-14.750158,-160.37671
-15.668699,-160.57425
-15.02443,-160.42566
-15.08126,-161.16408
-15.307387,-154.40819
-14.364604,-156.69844
-15.142583,-156.27295
-14.498236,-161.21114
-14.92849,-158.81195
-14.796936,-161.55753
-14.615896,-160.14412
-14.704515,-158.73055
-15.211325,-160.40558
-15.206209,-156.10686
-15.262001,-157.8757
-15.932734,-159.88235
-15.135473,-161.27124
-15.413486,-159.17632
-15.211097,-152.77002
-14.973593,-158.49387
-14.942107,-157.6143
-14.94934,-163.45224
-15.08829,-157.28836
-13.894263,-158.23683
-15.132154,-158.21581
-14.592021,-158.88985
-15.816123,-159.78583
-15.323422,-156.58369
-15.246996,-156.24091
-14.745806,-153.26181
-14.688108,-155.15646
-15.616243,-157.35429
-15.266431,-157.76042
-14.873123,-156.75945
-14.83814,-161.77084
-15.297728,-156.85649
-15.169401,-159.29515
-15.117695,-157.94681
-14.772972,-156.40933
-15.735479,-156.51147
-15.088725,-159.33652
-15.235147,-157.8696
-14.680877,-159.31038
-14.556931,-159.25142
-14.79977,-160.63773
-14.595219,-156.74422
-14.775641,-154.47426
-15.027202,-162.2253
-15.086293,-156.46829
-14.653685,-161.84848
-14.985714,-157.80371
-14.911152,-160.76157
-15.588904,-159.42343
-14.49431,-160.88226
-15.581666,-159.7014
-15.106812,-153.05052
-15.619843,-156.05241
-14.868768,-157.58667
-15.301936,-161.69998
-15.131268,-156.55545
-14.477931,-157.84843
-15.148559,-160.1606
-14.516071,-157.66072
-15.400601,-160.89523
-15.155088,-163.6125
-14.858574,-159.44164
-15.337066,-159.7527
-14.730711,-159.45219
-14.953335,-156.20769
-15.015633,-154.04156
-14.728185,-157.60602
-14.86283,-161.24101
-15.455881,-158.89778
-15.80712,-158.54335
-15.05967,-159.54774
-15.269247,-158.33549
-15.958566,-159.15619
-15.012751,-158.31474
-15.113043,-159.03041
-15.099897,-158.21584
-15.148341,-158.38388
-15.018428,-157.27026
-15.376076,-157.20702
-14.821054,-159.75575
-15.438532,-158.03099
-15.03323,-157.20189
-15.475458,-156.34074
-14.624039,-160.45125
-14.917274,-158.21208
-15.103665,-158.96455
-15.406512,-153.57681
-14.754491,-159.60063
-15.242616,-155.93896
-15.396914,-158.16544
-15.320976,-162.10361
-15.184986,-160.94011
-14.878882,-159.94585
-15.191677,-156.1978
-14.64958,-160.17645
-14.837353,-160.13855
-15.094793,-157.48596
-14.804591,-160.10063
-14.42313,-157.35886
-14.985572,-157.6898
-15.034483,-156.69949
-14.832014,-159.65114
-15.339367,-156.95372
-15.512294,-161.8488
-15.369881,-157.72652
-15.088327,-156.26448
-14.284366,-157.32816
-14.282857,-157.23053
-15.21162,-155.6163
-15.25812,-155.07874
-14.382957,-156.02693
-14.839386,-159.17764
-14.968323,-158.84969
-15.738235,-160.32463
-14.774336,-159.70888
-14.905822,-158.38249
-14.776329,-159.64159
-15.553122,-159.64865
-15.504952,-159.23557
-14.819346,-159.71198
-15.792516,-160.13217
-15.040286,-157.26451
-14.84676,-160.82111
-14.801099,-157.0369
-15.259972,-158.51086
-15.389157,-157.77415
-14.861774,-154.60452
-15.108651,-161.11334
-15.524089,-157.92455
-15.264181,-159.84921
-15.283184,-157.78185
-15.307812,-158.42285
-15.053611,-158.50807
-15.051491,-156.29599
-15.0987,-157.49902
-15.011302,-158.22563
-15.164185,-161.86017
-14.65087,-156.54704
-14.853447,-159.26106
-15.187395,-156.82999
-14.998894,-161.03001
-15.043321,-158.86662
-14.901669,-162.66501
-14.797721,-158.32329
-15.177187,-157.23767
-15.242298,-158.61372
-14.922423,-157.58807
-15.23855,-158.1786
-14.930434,-157.14499
-15.061243,-154.84895
-14.970129,-157.10991
-15.009299,-158.98351
-14.991556,-157.33897
-15.051414,-158.76901
-14.74443,-156.99333
-15.056746,-159.05919
-15.51087,-157.88419
-14.704455,-157.32034
-14.967489,-158.66631
-14.859438,-156.52391
-14.472562,-159.46564
-15.006849,-156.99028
-15.341888,-155.83321
-15.110672,-158.45378
-15.589444,-159.0262
-14.983003,-156.38112
-14.601243,-157.9437
-15.083284,-161.21756
-15.270573,-157.66881
-15.442742,-157.50238
-14.62616,-155.53392
-14.989058,-158.80768
-15.290134,-156.89223
-14.72508,-158.57231
-14.873748,-154.91422
-14.702605,-158.60739
-15.012764,-156.73477
-15.351549,-160.36232
-15.244617,-155.2623
-15.103004,-159.16112
-15.10185,-161.31677
-15.000653,-156.00064
-15.093795,-155.38025
-15.231561,-159.04425
-15.174832,-155.62505
-15.052837,-159.836
-15.186804,-156.83295
-15.236962,-157.26717
-14.960544,-157.18733
-14.703437,-157.96024
-14.630119,-156.52061
-14.92533,-157.63162
-14.633144,-158.56885
-15.135724,-160.83775
-14.954415,-157.80743
-15.398787,-158.31326
-14.829058,-157.2115
-14.962202,-157.86671
-14.903608,-158.493
-14.733796,-157.52628
-14.933425,-159.03609
-14.888858,-157.68503
-15.414699,-160.10356
-14.907832,-158.25807
-15.20505,-157.75504
-14.701319,-157.54846
-14.575294,-159.91129
-14.940674,-160.07439
-15.062616,-158.30049
-14.85067,-160.62727
-15.250843,-158.58357
-14.945791,-160.49297
-14.968272,-157.12898
-14.808841,-157.32465
-14.966326,-157.53859
-15.230262,-157.1031
-14.770186,-157.0954
-15.448031,-158.64754
-15.316163,-159.93221
-15.151855,-156.50266
-15.126269,-158.56081
-14.658644,-157.1064
-15.32069,-160.19855
-14.663876,-159.12204
-15.028687,-160.96506
-15.204592,-159.38477
-14.721626,-158.91034
-14.859179,-156.38075
-15.265034,-161.06793
-14.722614,-159.93216
-14.735219,-159.23561
-14.789219,-159.91269
-15.217199,-156.05437
-14.952204,-159.01134
-15.496062,-156.63449
-14.907399,-159.9045
-15.165148,-160.1136
-15.24276,-158.77023
-15.458391,-156.34114
-15.016221,-158.1001
-14.88967,-158.36893
-15.00383,-158.12581
-15.121471,-158.09822
-14.915794,-158.14935
-15.17645,-159.80182
-14.983787,-159.58049
-14.772638,-157.79074
-15.324869,-159.5321
-15.273452,-157.35518
-14.869203,-159.51903
-15.077516,-155.15227
-15.023854,-158.23593
-15.149354,-159.28157
-15.105245,-155.213
-15.072969,-158.2011
-15.157657,-158.18265
-15.400282,-158.33
-15.150229,-160.49553
-14.889119,-159.15036
-14.849462,-159.77199
-14.886532,-159.04094
-14.622494,-158.8484
-15.214413,-156.8924
-15.131609,-159.29953
-15.054781,-157.35767
-15.109062,-158.4754
-15.126144,-160.33388
-14.810028,-158.37973
-15.242887,-159.07652
-15.138686,-157.52953
-15.4882,-157.59085
-14.728006,-159.15932
-15.053432,-157.82983
-14.824222,-161.79546
-15.201164,-159.80623
-14.675982,-158.36522
-14.900932,-158.05577
-15.346984,-157.79964
-14.658581,-158.80573
-15.092938,-157.7901
-15.008644,-158.12312
-15.039053,-155.28453
-14.887648,-158.42136
-15.13567,-158.91739
-14.904522,-156.15321
-15.280571,-156.85027
-14.707557,-157.66331
-15.280741,-159.11293
-15.200877,-155.88168
-14.936049,-157.41693
-14.880965,-157.28214
-15.034862,-159.22784
-15.374771,-154.99571
-14.895222,-158.42419
-15.013646,-160.52979
-15.183846,-158.5041
-15.012427,-159.02853
-15.040666,-156.21815
-15.072984,-158.5584
-15.075326,-161.01466
-15.123206,-157.88145
-15.117842,-157.14317
-14.90273,-158.71271
-15.114759,-158.89888
-15.204598,-158.29266
-15.457548,-159.57527
-15.49093,-155.93236
-15.050794,-158.55327
-15.16627,-159.03894
-15.049356,-158.41106
-15.204064,-160.6356
-14.870609,-156.96225
-15.331614,-159.18906
-14.958374,-159.65744
-15.294991,-157.78171
-15.012755,-160.59555
-15.063459,-157.88733
-15.014942,-159.26717
-15.129101,-157.77603
-15.227692,-158.04276
-15.041674,-159.33832
-14.891349,-158.82843
-15.18298,-157.63568
-15.13967,-159.5864
-14.951317,-159.1535
-15.100168,-158.58768
-15.081376,-159.25645
-15.168747,-156.50096
-15.183949,-158.07245
-14.872643,-157.78818
-14.770612,-157.07069
-15.207504,-158.47531
-15.144227,-158.65636
-14.860608,-160.35956
-15.133712,-159.70624
-15.184702,-158.44899
-15.11222,-157.44695
-15.038777,-157.20467
-15.217175,-158.58443
-14.928701,-156.93147
-15.205252,-157.77705
-15.206007,-157.34814
-15.201475,-157.39311
-15.141984,-159.48611
-15.147442,-159.43358
-14.590028,-158.60582
-14.964061,-160.81691
-15.27588,-158.42963
-15.139682,-158.64722
-15.16167,-158.54173
-15.11385,-159.49699
-15.209539,-158.28639
-15.054583,-159.58812
-14.915475,-159.80843
-15.105513,-159.7988
-15.085754,-157.53192
-14.944642,-159.19209
-14.845181,-157.06433
-15.15185,-157.92322
-15.039124,-159.59084
-15.27724,-158.87488
-15.275773,-161.35469
-14.93198,-159.36966
-15.097611,-157.02867
-15.021914,-156.42595
-15.297902,-158.9352
-15.053259,-158.60825
-14.918919,-158.44592
-15.149716,-158.03549
-15.051879,-159.75069
-15.219008,-158.09563
-15.003774,-159.48915
-14.823775,-156.97365
-15.113936,-158.40135
-15.109932,-159.35524
-14.977373,-158.29073
-14.916709,-159.16797
-14.922908,-157.72267
-14.901707,-157.85892
-14.932649,-159.23288
-15.146837,-157.9019
-15.125245,-158.56151
-14.959639,-158.37756
-14.916548,-157.85831
-14.931308,-159.18309
-15.110034,-158.59984
-15.072236,-158.06432
-15.056429,-156.67503
-14.985223,-159.61203
-15.289807,-157.70009
-15.035185,-158.93106
-15.131885,-156.54274
-15.168948,-157.65993
-14.837697,-157.74989
-15.252421,-158.1053
-15.062449,-157.69203
-14.951546,-158.46945
-14.96022,-159.4523
-15.226214,-158.79489
-14.943251,-157.20236
-14.89261,-158.47752
-14.898374,-157.55197
-15.007036,-158.37257
-15.077629,-157.77423
-15.090952,-157.99316
-15.005456,-158.37987
-15.082945,-159.15666
-15.121817,-159.11537
-15.035637,-158.57564
-15.10076,-158.04596
-14.907358,-158.18884
-14.923206,-158.32251
-15.0567,-158.03911
-15.154149,-159.28397
-15.054278,-157.71497
-15.092928,-157.1898
-15.100547,-157.05545
-15.478064,-158.67722
-14.955391,-158.09085
-14.855623,-158.61404
-14.853888,-157.23186
-14.925173,-159.13008
-14.811605,-159.11302
-15.247212,-158.46375
-15.112672,-157.26787
-14.854067,-157.88077
-14.958069,-158.8757
-14.913707,-158.86432
