CITIFILE A.01.01
!Agilent Technologies,N5230C,MY48100142,A.08.04.10
!Agilent N5230C: A.08.04.10
!Format: LogMag/Angle
!Date: Friday, March 06, 2020 13:40:01
NAME CH1_DATA
VAR Power MAG 801
DATA S11 DBANGLE
DATA S21 DBANGLE
DATA S12 DBANGLE
DATA S22 DBANGLE
VAR_LIST_BEGIN
-40
-39.975
-39.95
-39.925
-39.9
-39.875
-39.85
-39.825
-39.8
-39.775
-39.75
-39.725
-39.7
-39.675
-39.65
-39.625
-39.6
-39.575
-39.55
-39.525
-39.5
-39.475
-39.45
-39.425
-39.4
-39.375
-39.35
-39.325
-39.3
-39.275
-39.25
-39.225
-39.2
-39.175
-39.15
-39.125
-39.1
-39.075
-39.05
-39.025
-39
-38.975
-38.95
-38.925
-38.9
-38.875
-38.85
-38.825
-38.8
-38.775
-38.75
-38.725
-38.7
-38.675
-38.65
-38.625
-38.6
-38.575
-38.55
-38.525
-38.5
-38.475
-38.45
-38.425
-38.4
-38.375
-38.35
-38.325
-38.3
-38.275
-38.25
-38.225
-38.2
-38.175
-38.15
-38.125
-38.1
-38.075
-38.05
-38.025
-38
-37.975
-37.95
-37.925
-37.9
-37.875
-37.85
-37.825
-37.8
-37.775
-37.75
-37.725
-37.7
-37.675
-37.65
-37.625
-37.6
-37.575
-37.55
-37.525
-37.5
-37.475
-37.45
-37.425
-37.4
-37.375
-37.35
-37.325
-37.3
-37.275
-37.25
-37.225
-37.2
-37.175
-37.15
-37.125
-37.1
-37.075
-37.05
-37.025
-37
-36.975
-36.95
-36.925
-36.9
-36.875
-36.85
-36.825
-36.8
-36.775
-36.75
-36.725
-36.7
-36.675
-36.65
-36.625
-36.6
-36.575
-36.55
-36.525
-36.5
-36.475
-36.45
-36.425
-36.4
-36.375
-36.35
-36.325
-36.3
-36.275
-36.25
-36.225
-36.2
-36.175
-36.15
-36.125
-36.1
-36.075
-36.05
-36.025
-36
-35.975
-35.95
-35.925
-35.9
-35.875
-35.85
-35.825
-35.8
-35.775
-35.75
-35.725
-35.7
-35.675
-35.65
-35.625
-35.6
-35.575
-35.55
-35.525
-35.5
-35.475
-35.45
-35.425
-35.4
-35.375
-35.35
-35.325
-35.3
-35.275
-35.25
-35.225
-35.2
-35.175
-35.15
-35.125
-35.1
-35.075
-35.05
-35.025
-35
-34.975
-34.95
-34.925
-34.9
-34.875
-34.85
-34.825
-34.8
-34.775
-34.75
-34.725
-34.7
-34.675
-34.65
-34.625
-34.6
-34.575
-34.55
-34.525
-34.5
-34.475
-34.45
-34.425
-34.4
-34.375
-34.35
-34.325
-34.3
-34.275
-34.25
-34.225
-34.2
-34.175
-34.15
-34.125
-34.1
-34.075
-34.05
-34.025
-34
-33.975
-33.95
-33.925
-33.9
-33.875
-33.85
-33.825
-33.8
-33.775
-33.75
-33.725
-33.7
-33.675
-33.65
-33.625
-33.6
-33.575
-33.55
-33.525
-33.5
-33.475
-33.45
-33.425
-33.4
-33.375
-33.35
-33.325
-33.3
-33.275
-33.25
-33.225
-33.2
-33.175
-33.15
-33.125
-33.1
-33.075
-33.05
-33.025
-33
-32.975
-32.95
-32.925
-32.9
-32.875
-32.85
-32.825
-32.8
-32.775
-32.75
-32.725
-32.7
-32.675
-32.65
-32.625
-32.6
-32.575
-32.55
-32.525
-32.5
-32.475
-32.45
-32.425
-32.4
-32.375
-32.35
-32.325
-32.3
-32.275
-32.25
-32.225
-32.2
-32.175
-32.15
-32.125
-32.1
-32.075
-32.05
-32.025
-32
-31.975
-31.95
-31.925
-31.9
-31.875
-31.85
-31.825
-31.8
-31.775
-31.75
-31.725
-31.7
-31.675
-31.65
-31.625
-31.6
-31.575
-31.55
-31.525
-31.5
-31.475
-31.45
-31.425
-31.4
-31.375
-31.35
-31.325
-31.3
-31.275
-31.25
-31.225
-31.2
-31.175
-31.15
-31.125
-31.1
-31.075
-31.05
-31.025
-31
-30.975
-30.95
-30.925
-30.9
-30.875
-30.85
-30.825
-30.8
-30.775
-30.75
-30.725
-30.7
-30.675
-30.65
-30.625
-30.6
-30.575
-30.55
-30.525
-30.5
-30.475
-30.45
-30.425
-30.4
-30.375
-30.35
-30.325
-30.3
-30.275
-30.25
-30.225
-30.2
-30.175
-30.15
-30.125
-30.1
-30.075
-30.05
-30.025
-30
-29.975
-29.95
-29.925
-29.9
-29.875
-29.85
-29.825
-29.8
-29.775
-29.75
-29.725
-29.7
-29.675
-29.65
-29.625
-29.6
-29.575
-29.55
-29.525
-29.5
-29.475
-29.45
-29.425
-29.4
-29.375
-29.35
-29.325
-29.3
-29.275
-29.25
-29.225
-29.2
-29.175
-29.15
-29.125
-29.1
-29.075
-29.05
-29.025
-29
-28.975
-28.95
-28.925
-28.9
-28.875
-28.85
-28.825
-28.8
-28.775
-28.75
-28.725
-28.7
-28.675
-28.65
-28.625
-28.6
-28.575
-28.55
-28.525
-28.5
-28.475
-28.45
-28.425
-28.4
-28.375
-28.35
-28.325
-28.3
-28.275
-28.25
-28.225
-28.2
-28.175
-28.15
-28.125
-28.1
-28.075
-28.05
-28.025
-28
-27.975
-27.95
-27.925
-27.9
-27.875
-27.85
-27.825
-27.8
-27.775
-27.75
-27.725
-27.7
-27.675
-27.65
-27.625
-27.6
-27.575
-27.55
-27.525
-27.5
-27.475
-27.45
-27.425
-27.4
-27.375
-27.35
-27.325
-27.3
-27.275
-27.25
-27.225
-27.2
-27.175
-27.15
-27.125
-27.1
-27.075
-27.05
-27.025
-27
-26.975
-26.95
-26.925
-26.9
-26.875
-26.85
-26.825
-26.8
-26.775
-26.75
-26.725
-26.7
-26.675
-26.65
-26.625
-26.6
-26.575
-26.55
-26.525
-26.5
-26.475
-26.45
-26.425
-26.4
-26.375
-26.35
-26.325
-26.3
-26.275
-26.25
-26.225
-26.2
-26.175
-26.15
-26.125
-26.1
-26.075
-26.05
-26.025
-26
-25.975
-25.95
-25.925
-25.9
-25.875
-25.85
-25.825
-25.8
-25.775
-25.75
-25.725
-25.7
-25.675
-25.65
-25.625
-25.6
-25.575
-25.55
-25.525
-25.5
-25.475
-25.45
-25.425
-25.4
-25.375
-25.35
-25.325
-25.3
-25.275
-25.25
-25.225
-25.2
-25.175
-25.15
-25.125
-25.1
-25.075
-25.05
-25.025
-25
-24.975
-24.95
-24.925
-24.9
-24.875
-24.85
-24.825
-24.8
-24.775
-24.75
-24.725
-24.7
-24.675
-24.65
-24.625
-24.6
-24.575
-24.55
-24.525
-24.5
-24.475
-24.45
-24.425
-24.4
-24.375
-24.35
-24.325
-24.3
-24.275
-24.25
-24.225
-24.2
-24.175
-24.15
-24.125
-24.1
-24.075
-24.05
-24.025
-24
-23.975
-23.95
-23.925
-23.9
-23.875
-23.85
-23.825
-23.8
-23.775
-23.75
-23.725
-23.7
-23.675
-23.65
-23.625
-23.6
-23.575
-23.55
-23.525
-23.5
-23.475
-23.45
-23.425
-23.4
-23.375
-23.35
-23.325
-23.3
-23.275
-23.25
-23.225
-23.2
-23.175
-23.15
-23.125
-23.1
-23.075
-23.05
-23.025
-23
-22.975
-22.95
-22.925
-22.9
-22.875
-22.85
-22.825
-22.8
-22.775
-22.75
-22.725
-22.7
-22.675
-22.65
-22.625
-22.6
-22.575
-22.55
-22.525
-22.5
-22.475
-22.45
-22.425
-22.4
-22.375
-22.35
-22.325
-22.3
-22.275
-22.25
-22.225
-22.2
-22.175
-22.15
-22.125
-22.1
-22.075
-22.05
-22.025
-22
-21.975
-21.95
-21.925
-21.9
-21.875
-21.85
-21.825
-21.8
-21.775
-21.75
-21.725
-21.7
-21.675
-21.65
-21.625
-21.6
-21.575
-21.55
-21.525
-21.5
-21.475
-21.45
-21.425
-21.4
-21.375
-21.35
-21.325
-21.3
-21.275
-21.25
-21.225
-21.2
-21.175
-21.15
-21.125
-21.1
-21.075
-21.05
-21.025
-21
-20.975
-20.95
-20.925
-20.9
-20.875
-20.85
-20.825
-20.8
-20.775
-20.75
-20.725
-20.7
-20.675
-20.65
-20.625
-20.6
-20.575
-20.55
-20.525
-20.5
-20.475
-20.45
-20.425
-20.4
-20.375
-20.35
-20.325
-20.3
-20.275
-20.25
-20.225
-20.2
-20.175
-20.15
-20.125
-20.1
-20.075
-20.05
-20.025
-20
VAR_LIST_END
BEGIN
-15.411446,-155.5334
-14.661199,-168.96214
-15.425927,-158.80905
-15.826962,-162.68507
-14.711716,-153.37251
-15.500683,-164.92043
-16.310669,-156.5587
-15.868615,-153.60925
-13.676271,-160.86273
-15.653544,-160.54944
-15.280288,-165.07027
-15.23181,-149.7765
-15.042987,-157.46631
-16.006054,-165.68275
-14.798398,-149.36316
-15.63714,-162.91589
-14.826659,-158.22655
-15.436255,-154.97873
-15.422637,-165.37947
-14.692455,-157.96892
-14.94736,-157.91971
-14.915105,-163.23181
-15.760512,-161.64771
-14.850569,-164.99152
-14.254528,-162.96532
-15.838401,-150.36111
-15.352773,-159.22855
-15.049609,-160.46638
-14.435424,-162.44482
-16.305054,-158.65973
-15.941626,-161.73677
-14.730173,-158.15651
-16.168674,-168.49364
-14.431076,-162.48354
-15.02261,-158.5471
-13.863811,-165.41939
-14.465573,-165.30428
-14.198339,-160.14621
-14.691474,-164.22563
-14.412499,-152.84669
-14.267699,-161.39342
-15.204175,-160.02071
-14.692823,-155.66225
-15.64011,-152.51102
-15.004726,-151.26889
-16.342663,-165.63106
-14.339261,-165.78268
-14.28791,-151.82442
-14.032412,-164.0426
-15.799278,-154.88643
-14.847181,-161.04863
-14.123477,-165.95341
-15.010571,-157.75343
-15.78261,-156.34149
-15.631439,-159.71927
-15.100207,-156.24059
-13.52523,-153.24152
-14.685723,-157.6981
-14.61117,-158.93192
-14.925918,-157.6405
-15.234812,-157.57117
-15.972375,-159.41167
-16.243044,-163.10701
-15.367953,-167.15903
-14.718985,-157.92621
-15.929502,-162.84705
-15.321682,-158.29016
-15.966194,-161.57172
-15.220191,-165.31725
-14.240288,-160.98369
-14.457266,-166.31912
-14.106423,-153.1396
-15.369344,-157.62718
-15.987642,-158.10356
-14.540922,-161.6633
-13.902834,-168.29568
-14.766083,-160.53497
-14.562139,-156.34784
-15.913404,-158.63808
-15.734235,-163.04047
-15.185893,-155.57568
-14.172916,-166.25339
-14.906232,-156.67242
-14.807584,-161.33711
-14.725962,-161.76125
-14.370691,-156.8392
-14.518956,-158.948
-14.678434,-160.99242
-14.652183,-160.84178
-15.981126,-152.06425
-15.367072,-158.04205
-14.908611,-162.60736
-15.452072,-156.19717
-15.905473,-155.26442
-15.069464,-162.6411
-14.93669,-164.90747
-16.322182,-154.11563
-15.747994,-156.342
-17.369553,-158.53441
-14.912663,-157.3669
-14.848886,-160.42792
-16.081818,-156.80714
-15.457685,-157.23911
-15.992147,-156.63141
-14.674341,-156.61774
-15.956734,-160.7795
-15.056931,-153.93407
-14.465302,-158.32994
-15.706428,-162.46974
-16.169054,-159.67065
-15.394139,-161.35979
-15.755426,-164.45206
-14.737121,-163.83455
-15.387753,-155.42439
-16.153097,-159.52954
-14.384983,-158.62093
-15.520568,-161.39308
-15.690306,-163.11789
-15.168181,-157.65047
-16.518108,-161.39278
-15.24619,-154.58765
-16.931936,-156.41295
-15.11109,-155.7576
-15.156601,-157.93672
-14.849214,-160.25645
-14.153049,-157.0582
-14.942904,-162.20222
-14.620981,-159.26189
-15.355174,-164.01167
-15.022866,-162.3416
-14.500939,-161.88028
-14.640982,-156.55927
-14.668502,-160.82275
-15.556685,-161.12721
-15.47837,-158.97052
-15.337159,-156.64107
-15.126261,-164.77226
-15.789927,-159.99391
-14.922617,-166.38152
-14.686786,-160.73405
-15.909315,-156.70703
-15.435419,-160.35059
-15.877603,-161.22937
-15.069813,-156.96072
-15.284649,-158.86285
-16.403063,-152.6454
-14.184884,-163.76201
-14.950955,-157.11537
-15.406742,-155.08551
-14.481197,-160.54939
-15.384171,-152.20035
-14.590987,-161.85773
-15.512449,-160.68179
-14.996436,-154.66136
-14.34804,-163.38217
-14.31929,-158.37244
-14.58938,-160.03113
-15.337214,-158.50836
-14.886635,-159.65068
-15.230056,-170.1216
-15.431368,-159.76225
-15.16926,-158.00049
-15.860595,-161.65265
-14.492988,-160.76277
-15.097775,-160.07184
-15.287816,-156.4671
-14.60092,-156.39351
-15.249253,-154.56627
-15.226224,-158.3672
-15.603004,-156.606
-14.493269,-163.54243
-14.753952,-160.72404
-15.110196,-162.96788
-14.679906,-169.44189
-14.553774,-159.19086
-15.114712,-162.27731
-15.039413,-161.54382
-15.368303,-161.42177
-15.311355,-164.4595
-15.182494,-163.62737
-15.066218,-160.03452
-14.69172,-157.07851
-15.376328,-152.10748
-15.640304,-158.81738
-15.311072,-160.33086
-14.641378,-156.42796
-15.134903,-158.30901
-15.379032,-159.69223
-14.732625,-158.06169
-15.159947,-163.41689
-15.662552,-158.09189
-15.687828,-155.78143
-14.709329,-153.85126
-14.961596,-159.33994
-15.321362,-159.78276
-15.663612,-155.35001
-15.312543,-157.937
-15.312922,-163.93513
-15.166768,-158.3779
-15.206325,-159.7372
-15.051932,-155.89749
-15.060249,-159.63324
-14.947015,-157.7019
-15.273365,-162.06471
-15.07553,-163.46405
-14.969282,-158.09877
-15.053267,-159.17914
-14.817065,-162.35345
-15.227186,-160.08699
-14.729035,-162.55649
-14.693164,-159.3653
-15.3416,-152.13202
-14.490149,-162.14803
-14.765799,-161.31609
-15.294032,-164.6274
-15.34273,-159.28102
-15.346505,-160.56192
-15.166381,-160.80489
-15.201488,-159.0264
-15.325113,-155.4908
-16.626762,-161.483
-14.444248,-156.53
-15.15698,-161.16429
-14.88927,-162.53648
-15.110189,-158.60614
-15.342109,-157.59784
-14.750336,-161.02278
-14.891995,-161.48499
-14.719161,-160.34933
-14.112404,-156.78595
-15.066533,-153.994
-15.397843,-162.14345
-15.146397,-162.5372
-15.019288,-155.6837
-15.278432,-165.319
-15.081703,-153.41599
-14.804918,-162.46034
-14.471245,-155.319
-14.90171,-160.10938
-15.097312,-160.37303
-14.880815,-158.54601
-15.09557,-160.87143
-14.913996,-160.1145
-14.959502,-163.89038
-14.903383,-160.89928
-15.180753,-156.81731
-14.757759,-162.04662
-14.426777,-156.43257
-15.676605,-160.50922
-15.626019,-158.99655
-15.58416,-162.73393
-14.965997,-162.00084
-15.458657,-166.76904
-15.277616,-157.90953
-15.383788,-153.10396
-15.579882,-161.9832
-14.988952,-162.06635
-14.883584,-158.27351
-14.832691,-158.44128
-15.352582,-157.99863
-15.12478,-157.46684
-15.327432,-159.55696
-15.232742,-166.1503
-15.630337,-158.09146
-15.344643,-162.42339
-15.529853,-158.74759
-15.056084,-159.8222
-15.879262,-160.49036
-15.313736,-157.95703
-15.262671,-156.60516
-14.83064,-158.91525
-15.543319,-158.71222
-14.929124,-160.19775
-15.518627,-161.70695
-14.433557,-161.22974
-15.701466,-160.98715
-15.315083,-162.32713
-15.282407,-159.40706
-15.279646,-158.92351
-15.317007,-163.07823
-14.458667,-159.65784
-15.315715,-160.01624
-14.218043,-156.71429
-15.057135,-155.25626
-15.096752,-158.88576
-15.554792,-164.60051
-15.342269,-158.07201
-15.342847,-157.29764
-15.066993,-161.20929
-14.98984,-158.45731
-14.288297,-157.70775
-14.857388,-159.73436
-15.080223,-159.45232
-15.140472,-158.78137
-15.427275,-159.30502
-15.299784,-163.39024
-15.137678,-159.76848
-14.444553,-161.04506
-15.109307,-164.51489
-14.637871,-157.67294
-15.080907,-159.05489
-15.354856,-160.4155
-14.537512,-159.17848
-15.868404,-159.17418
-14.950085,-160.79955
-15.420508,-161.66675
-15.187573,-162.60269
-15.089702,-159.26109
-14.819429,-159.64046
-14.63452,-160.35553
-14.519318,-161.1974
-14.514165,-159.94788
-15.363527,-158.50085
-15.159635,-158.7845
-15.037043,-156.70546
-15.015438,-161.31322
-15.038798,-164.79877
-15.342104,-159.11354
-15.351561,-161.03116
-14.482222,-160.80833
-14.819759,-157.18967
-15.093456,-163.41982
-14.628734,-152.92894
-14.908854,-161.93791
-15.484009,-161.92447
-14.999003,-158.94571
-14.752509,-158.02164
-15.02105,-161.04674
-14.736932,-164.53203
-14.599705,-160.8696
-15.52429,-153.64191
-14.815004,-157.94589
-14.96024,-159.94876
-15.235377,-159.90668
-14.969091,-159.94647
-14.842803,-158.157
-14.905708,-162.66811
-14.875012,-160.21951
-15.387024,-161.50006
-15.523842,-163.12115
-14.808727,-159.83513
-15.08568,-162.07916
-14.552505,-158.52458
-14.938812,-160.02419
-14.979316,-159.43652
-14.739805,-159.60887
-14.99922,-159.85213
-15.055346,-160.75488
-15.572715,-159.22346
-14.399207,-160.3976
-15.156537,-162.01257
-15.407577,-159.45552
-15.4047,-160.14986
-15.289598,-161.70261
-15.49883,-161.70631
-14.983171,-158.05338
-14.818914,-158.8575
-15.290825,-162.18797
-14.994249,-158.88618
-14.835534,-157.7498
-15.433073,-161.25882
-14.971267,-157.02406
-15.00465,-161.4836
-15.52745,-161.62857
-14.913293,-159.93584
-15.138434,-162.08505
-14.861131,-161.13036
-15.204753,-163.2303
-15.318726,-159.71602
-15.187974,-162.03336
-15.137664,-157.98499
-15.099581,-161.93124
-15.062793,-162.32294
-15.121278,-160.36484
-15.045211,-161.47861
-15.207629,-156.15138
-15.059143,-160.15977
-15.187253,-157.84708
-14.682833,-160.13364
-15.135285,-158.76886
-15.207876,-159.41045
-14.897704,-159.40866
-15.517208,-157.1084
-15.232285,-159.94774
-14.811106,-157.10535
-15.126882,-156.41545
-15.249317,-158.40739
-15.343179,-161.50586
-15.212493,-160.82799
-14.78355,-160.72586
-15.338129,-159.47871
-15.063756,-161.24684
-15.481536,-158.93501
-14.374364,-161.05
-15.015279,-159.06439
-15.136688,-156.56305
-14.622127,-161.81105
-15.002414,-158.83636
-15.087611,-157.42636
-14.937197,-158.65134
-15.603825,-159.02168
-15.395641,-160.60248
-15.309228,-159.63857
-15.226025,-160.48605
-14.907125,-160.87022
-14.988205,-159.49802
-14.658089,-160.03505
-15.272552,-160.65614
-15.022537,-160.04033
-15.158743,-158.45488
-15.360134,-158.39894
-15.333571,-160.40384
-14.935827,-159.7388
-15.385712,-157.96632
-15.564705,-157.76753
-15.14235,-159.72685
-15.064566,-159.06622
-15.405203,-157.95775
-15.125083,-157.70837
-15.250887,-160.28845
-14.887807,-160.7054
-14.468904,-164.16333
-15.035448,-161.866
-15.064601,-159.95375
-15.164627,-160.76962
-15.287842,-160.08315
-15.206897,-160.52205
-15.208734,-159.59669
-15.022911,-158.77612
-14.936394,-158.88124
-15.013824,-159.67178
-14.81631,-159.5256
-15.085841,-158.11891
-15.100449,-159.70958
-14.899679,-160.01501
-15.096456,-160.06979
-15.167777,-160.63689
-15.207016,-159.33809
-15.320054,-157.99649
-14.877398,-160.44208
-15.012929,-159.27493
-15.102373,-158.82549
-14.81615,-159.62192
-15.088722,-159.66887
-14.718138,-159.01961
-15.328895,-158.94141
-14.703122,-160.3484
-15.140588,-159.78198
-15.290387,-159.4252
-14.973128,-160.38591
-14.690866,-159.47659
-15.086085,-160.65756
-14.706845,-159.31339
-15.005371,-159.32739
-15.458677,-159.84567
-15.459575,-159.31958
-14.408163,-160.59416
-15.113091,-160.04433
-14.875835,-160.79417
-14.992145,-159.71364
-15.490053,-159.8304
-14.859456,-161.60962
-15.292618,-161.13441
-14.726291,-160.59485
-15.034721,-159.76086
-15.10548,-158.98898
-14.685781,-161.73596
-15.076729,-160.87862
-15.428043,-158.75793
-15.038349,-159.18329
-15.064034,-160.28249
-15.295679,-157.63498
-15.305725,-158.3752
-15.38661,-159.93803
-14.934246,-159.84117
-15.045947,-160.46715
-15.254795,-161.05115
-15.561349,-160.0139
-15.291284,-160.25964
-15.172539,-161.62048
-15.339519,-159.35278
-14.994181,-160.36723
-15.137409,-160.70883
-15.041636,-161.21268
-15.490666,-159.55408
-14.930488,-160.82347
-15.290174,-160.70396
-14.861464,-160.47194
-15.019654,-159.43977
-15.222043,-158.2719
-15.147852,-161.12718
-15.219601,-157.446
-15.031992,-161.40079
-15.066225,-158.16997
-15.17767,-159.20682
-14.830575,-159.39792
-14.998359,-160.21211
-14.874786,-160.21259
-15.280622,-157.64969
-14.970706,-160.14424
-15.221144,-157.69679
-14.908356,-159.92044
-15.095882,-159.59155
-14.955434,-162.18286
-14.878345,-160.46806
-15.210307,-161.75842
-14.89589,-160.58624
-14.944654,-160.50523
-14.837059,-160.83673
-15.257313,-159.08406
-15.278131,-159.95555
-15.018543,-158.9556
-15.029763,-160.59361
-14.824229,-158.62631
-14.968657,-158.95651
-15.247503,-159.89346
-15.285408,-159.51796
-15.10573,-158.93028
-15.244854,-160.3891
-15.0866,-160.97224
-15.142068,-159.55754
-14.896924,-161.47717
-15.499166,-158.4691
-15.129655,-159.29268
-15.225373,-159.68887
-15.202339,-158.75464
-14.961848,-160.06094
-15.007363,-158.16054
-14.859852,-161.29312
-14.797331,-159.27101
-14.67125,-160.29378
-14.977321,-159.21913
-15.202598,-157.82115
-15.504627,-159.10355
-15.131233,-158.72502
-15.12169,-159.94133
-14.855722,-161.17178
-15.119404,-158.95787
-14.86652,-159.02016
-14.931631,-160.05061
-14.919509,-162.02274
-14.993285,-159.84799
-14.980349,-158.83899
-14.953472,-158.98318
-15.366491,-158.87997
-15.073106,-160.19063
-15.263458,-160.39311
-15.120918,-160.30879
-15.101058,-160.09438
-14.950027,-159.21634
-14.924396,-160.14404
-14.815943,-160.00708
-14.803578,-161.46371
-14.958057,-160.0038
-15.373959,-162.31775
-15.001975,-158.80923
-14.908233,-158.44522
-15.403346,-160.07834
-14.881907,-158.09386
-15.204035,-160.55569
-14.901863,-158.67252
-15.166792,-160.01488
-15.113309,-158.4135
-14.975426,-159.32558
-15.04413,-160.77937
-15.142252,-160.29767
-15.171043,-160.22278
-14.835393,-160.91919
-15.241412,-160.44276
-14.979895,-160.02229
-15.493015,-160.15694
-15.382871,-159.06915
-15.307933,-161.35625
-15.293932,-160.59311
-14.80631,-159.33292
-15.093542,-157.44124
-14.932425,-159.12071
