CITIFILE A.01.01
!Agilent Technologies,N5230C,MY48100142,A.08.04.10
!Agilent N5230C: A.08.04.10
!Format: LogMag/Angle
!Date: Friday, March 06, 2020 13:37:55
NAME CH1_DATA
VAR Power MAG 801
DATA S11 DBANGLE
DATA S21 DBANGLE
DATA S12 DBANGLE
DATA S22 DBANGLE
VAR_LIST_BEGIN
-40
-39.975
-39.95
-39.925
-39.9
-39.875
-39.85
-39.825
-39.8
-39.775
-39.75
-39.725
-39.7
-39.675
-39.65
-39.625
-39.6
-39.575
-39.55
-39.525
-39.5
-39.475
-39.45
-39.425
-39.4
-39.375
-39.35
-39.325
-39.3
-39.275
-39.25
-39.225
-39.2
-39.175
-39.15
-39.125
-39.1
-39.075
-39.05
-39.025
-39
-38.975
-38.95
-38.925
-38.9
-38.875
-38.85
-38.825
-38.8
-38.775
-38.75
-38.725
-38.7
-38.675
-38.65
-38.625
-38.6
-38.575
-38.55
-38.525
-38.5
-38.475
-38.45
-38.425
-38.4
-38.375
-38.35
-38.325
-38.3
-38.275
-38.25
-38.225
-38.2
-38.175
-38.15
-38.125
-38.1
-38.075
-38.05
-38.025
-38
-37.975
-37.95
-37.925
-37.9
-37.875
-37.85
-37.825
-37.8
-37.775
-37.75
-37.725
-37.7
-37.675
-37.65
-37.625
-37.6
-37.575
-37.55
-37.525
-37.5
-37.475
-37.45
-37.425
-37.4
-37.375
-37.35
-37.325
-37.3
-37.275
-37.25
-37.225
-37.2
-37.175
-37.15
-37.125
-37.1
-37.075
-37.05
-37.025
-37
-36.975
-36.95
-36.925
-36.9
-36.875
-36.85
-36.825
-36.8
-36.775
-36.75
-36.725
-36.7
-36.675
-36.65
-36.625
-36.6
-36.575
-36.55
-36.525
-36.5
-36.475
-36.45
-36.425
-36.4
-36.375
-36.35
-36.325
-36.3
-36.275
-36.25
-36.225
-36.2
-36.175
-36.15
-36.125
-36.1
-36.075
-36.05
-36.025
-36
-35.975
-35.95
-35.925
-35.9
-35.875
-35.85
-35.825
-35.8
-35.775
-35.75
-35.725
-35.7
-35.675
-35.65
-35.625
-35.6
-35.575
-35.55
-35.525
-35.5
-35.475
-35.45
-35.425
-35.4
-35.375
-35.35
-35.325
-35.3
-35.275
-35.25
-35.225
-35.2
-35.175
-35.15
-35.125
-35.1
-35.075
-35.05
-35.025
-35
-34.975
-34.95
-34.925
-34.9
-34.875
-34.85
-34.825
-34.8
-34.775
-34.75
-34.725
-34.7
-34.675
-34.65
-34.625
-34.6
-34.575
-34.55
-34.525
-34.5
-34.475
-34.45
-34.425
-34.4
-34.375
-34.35
-34.325
-34.3
-34.275
-34.25
-34.225
-34.2
-34.175
-34.15
-34.125
-34.1
-34.075
-34.05
-34.025
-34
-33.975
-33.95
-33.925
-33.9
-33.875
-33.85
-33.825
-33.8
-33.775
-33.75
-33.725
-33.7
-33.675
-33.65
-33.625
-33.6
-33.575
-33.55
-33.525
-33.5
-33.475
-33.45
-33.425
-33.4
-33.375
-33.35
-33.325
-33.3
-33.275
-33.25
-33.225
-33.2
-33.175
-33.15
-33.125
-33.1
-33.075
-33.05
-33.025
-33
-32.975
-32.95
-32.925
-32.9
-32.875
-32.85
-32.825
-32.8
-32.775
-32.75
-32.725
-32.7
-32.675
-32.65
-32.625
-32.6
-32.575
-32.55
-32.525
-32.5
-32.475
-32.45
-32.425
-32.4
-32.375
-32.35
-32.325
-32.3
-32.275
-32.25
-32.225
-32.2
-32.175
-32.15
-32.125
-32.1
-32.075
-32.05
-32.025
-32
-31.975
-31.95
-31.925
-31.9
-31.875
-31.85
-31.825
-31.8
-31.775
-31.75
-31.725
-31.7
-31.675
-31.65
-31.625
-31.6
-31.575
-31.55
-31.525
-31.5
-31.475
-31.45
-31.425
-31.4
-31.375
-31.35
-31.325
-31.3
-31.275
-31.25
-31.225
-31.2
-31.175
-31.15
-31.125
-31.1
-31.075
-31.05
-31.025
-31
-30.975
-30.95
-30.925
-30.9
-30.875
-30.85
-30.825
-30.8
-30.775
-30.75
-30.725
-30.7
-30.675
-30.65
-30.625
-30.6
-30.575
-30.55
-30.525
-30.5
-30.475
-30.45
-30.425
-30.4
-30.375
-30.35
-30.325
-30.3
-30.275
-30.25
-30.225
-30.2
-30.175
-30.15
-30.125
-30.1
-30.075
-30.05
-30.025
-30
-29.975
-29.95
-29.925
-29.9
-29.875
-29.85
-29.825
-29.8
-29.775
-29.75
-29.725
-29.7
-29.675
-29.65
-29.625
-29.6
-29.575
-29.55
-29.525
-29.5
-29.475
-29.45
-29.425
-29.4
-29.375
-29.35
-29.325
-29.3
-29.275
-29.25
-29.225
-29.2
-29.175
-29.15
-29.125
-29.1
-29.075
-29.05
-29.025
-29
-28.975
-28.95
-28.925
-28.9
-28.875
-28.85
-28.825
-28.8
-28.775
-28.75
-28.725
-28.7
-28.675
-28.65
-28.625
-28.6
-28.575
-28.55
-28.525
-28.5
-28.475
-28.45
-28.425
-28.4
-28.375
-28.35
-28.325
-28.3
-28.275
-28.25
-28.225
-28.2
-28.175
-28.15
-28.125
-28.1
-28.075
-28.05
-28.025
-28
-27.975
-27.95
-27.925
-27.9
-27.875
-27.85
-27.825
-27.8
-27.775
-27.75
-27.725
-27.7
-27.675
-27.65
-27.625
-27.6
-27.575
-27.55
-27.525
-27.5
-27.475
-27.45
-27.425
-27.4
-27.375
-27.35
-27.325
-27.3
-27.275
-27.25
-27.225
-27.2
-27.175
-27.15
-27.125
-27.1
-27.075
-27.05
-27.025
-27
-26.975
-26.95
-26.925
-26.9
-26.875
-26.85
-26.825
-26.8
-26.775
-26.75
-26.725
-26.7
-26.675
-26.65
-26.625
-26.6
-26.575
-26.55
-26.525
-26.5
-26.475
-26.45
-26.425
-26.4
-26.375
-26.35
-26.325
-26.3
-26.275
-26.25
-26.225
-26.2
-26.175
-26.15
-26.125
-26.1
-26.075
-26.05
-26.025
-26
-25.975
-25.95
-25.925
-25.9
-25.875
-25.85
-25.825
-25.8
-25.775
-25.75
-25.725
-25.7
-25.675
-25.65
-25.625
-25.6
-25.575
-25.55
-25.525
-25.5
-25.475
-25.45
-25.425
-25.4
-25.375
-25.35
-25.325
-25.3
-25.275
-25.25
-25.225
-25.2
-25.175
-25.15
-25.125
-25.1
-25.075
-25.05
-25.025
-25
-24.975
-24.95
-24.925
-24.9
-24.875
-24.85
-24.825
-24.8
-24.775
-24.75
-24.725
-24.7
-24.675
-24.65
-24.625
-24.6
-24.575
-24.55
-24.525
-24.5
-24.475
-24.45
-24.425
-24.4
-24.375
-24.35
-24.325
-24.3
-24.275
-24.25
-24.225
-24.2
-24.175
-24.15
-24.125
-24.1
-24.075
-24.05
-24.025
-24
-23.975
-23.95
-23.925
-23.9
-23.875
-23.85
-23.825
-23.8
-23.775
-23.75
-23.725
-23.7
-23.675
-23.65
-23.625
-23.6
-23.575
-23.55
-23.525
-23.5
-23.475
-23.45
-23.425
-23.4
-23.375
-23.35
-23.325
-23.3
-23.275
-23.25
-23.225
-23.2
-23.175
-23.15
-23.125
-23.1
-23.075
-23.05
-23.025
-23
-22.975
-22.95
-22.925
-22.9
-22.875
-22.85
-22.825
-22.8
-22.775
-22.75
-22.725
-22.7
-22.675
-22.65
-22.625
-22.6
-22.575
-22.55
-22.525
-22.5
-22.475
-22.45
-22.425
-22.4
-22.375
-22.35
-22.325
-22.3
-22.275
-22.25
-22.225
-22.2
-22.175
-22.15
-22.125
-22.1
-22.075
-22.05
-22.025
-22
-21.975
-21.95
-21.925
-21.9
-21.875
-21.85
-21.825
-21.8
-21.775
-21.75
-21.725
-21.7
-21.675
-21.65
-21.625
-21.6
-21.575
-21.55
-21.525
-21.5
-21.475
-21.45
-21.425
-21.4
-21.375
-21.35
-21.325
-21.3
-21.275
-21.25
-21.225
-21.2
-21.175
-21.15
-21.125
-21.1
-21.075
-21.05
-21.025
-21
-20.975
-20.95
-20.925
-20.9
-20.875
-20.85
-20.825
-20.8
-20.775
-20.75
-20.725
-20.7
-20.675
-20.65
-20.625
-20.6
-20.575
-20.55
-20.525
-20.5
-20.475
-20.45
-20.425
-20.4
-20.375
-20.35
-20.325
-20.3
-20.275
-20.25
-20.225
-20.2
-20.175
-20.15
-20.125
-20.1
-20.075
-20.05
-20.025
-20
VAR_LIST_END
BEGIN
-14.912802,-161.91873
-15.723075,-163.57201
-15.161144,-155.00592
-14.778987,-162.32692
-14.611014,-161.71355
-14.788849,-157.89708
-15.488665,-163.1282
-15.80377,-159.46301
-14.353783,-161.82921
-14.776058,-160.85173
-14.62678,-160.73347
-15.322871,-162.84947
-14.647677,-165.98756
-15.8719,-154.6953
-15.355266,-161.69875
-15.404693,-159.75638
-15.353204,-161.23105
-15.231229,-159.97504
-15.230403,-159.19511
-15.079906,-158.61421
-15.020157,-155.88139
-15.224653,-160.04427
-14.823024,-155.40433
-14.982999,-157.54568
-15.084612,-159.08975
-15.597033,-158.58061
-15.885846,-157.30824
-15.030016,-153.0865
-15.267011,-161.12572
-14.391395,-156.67218
-15.131066,-154.66454
-15.75361,-159.40775
-14.37175,-156.47626
-14.482306,-157.57407
-15.169893,-163.97749
-14.808786,-163.18486
-15.049809,-160.3325
-15.069662,-159.23766
-15.627887,-156.85916
-15.014091,-161.1609
-14.106655,-163.33273
-14.772519,-162.22945
-15.763577,-159.42267
-14.736821,-160.96082
-14.722884,-160.12939
-15.393392,-161.27888
-14.898293,-161.53056
-14.723101,-162.07968
-15.009349,-158.28642
-16.019272,-162.17216
-15.415709,-162.15488
-15.12529,-156.5524
-15.349976,-162.9037
-14.731431,-161.15048
-14.931265,-162.41663
-15.020035,-157.15715
-15.007924,-162.9852
-15.5033,-158.70784
-14.447276,-158.032
-15.163147,-158.94714
-15.174397,-157.11882
-14.719584,-157.42001
-14.619706,-161.93948
-14.599091,-159.03127
-15.174245,-159.41734
-15.320668,-155.96436
-15.098408,-158.03833
-15.186385,-162.82005
-14.47049,-160.36304
-15.323171,-158.37019
-14.175737,-156.75992
-15.293887,-159.75229
-15.019991,-161.13411
-14.92366,-159.99463
-15.478962,-160.96112
-15.144586,-161.8363
-15.173966,-160.65984
-14.805378,-154.23848
-14.695051,-157.60109
-14.934352,-159.14008
-15.393112,-157.17598
-15.186286,-158.84904
-15.209803,-159.65465
-14.849325,-157.7332
-14.835345,-161.50693
-15.573224,-159.33614
-15.186014,-159.69774
-15.275232,-158.9377
-15.39845,-161.1171
-14.678632,-161.96069
-14.849033,-158.96683
-15.423935,-160.75952
-15.088838,-161.16103
-15.012827,-159.96826
-13.783476,-161.44612
-14.597373,-162.74496
-14.724966,-161.92744
-14.753665,-159.20663
-15.736324,-156.91866
-14.965869,-161.20825
-14.574327,-158.42952
-15.006707,-160.14839
-15.759249,-160.88231
-14.944428,-160.71446
-14.781345,-160.53458
-14.977463,-157.10699
-14.56484,-162.8251
-15.626077,-160.35832
-15.485564,-157.67931
-15.169328,-160.96306
-14.841314,-157.77921
-15.278438,-158.35641
-14.732749,-159.14328
-15.079155,-155.77428
-14.750963,-162.32036
-14.873082,-162.60696
-14.938279,-157.22197
-15.435999,-161.16873
-15.075588,-160.53548
-14.914982,-159.66348
-15.274118,-156.49699
-15.108373,-162.3076
-14.735765,-161.14091
-14.695768,-158.17529
-15.287855,-159.09822
-14.782112,-159.71678
-14.996003,-161.25339
-14.732964,-159.76324
-14.891638,-160.3735
-15.754963,-160.30727
-15.349225,-159.51277
-15.130098,-159.75722
-14.537724,-162.63097
-15.142166,-156.67703
-14.889504,-159.37715
-14.711005,-159.42345
-14.434266,-155.54373
-14.549393,-160.44475
-15.253049,-159.80878
-14.454635,-158.15045
-14.753188,-161.96082
-15.403454,-158.65771
-15.48389,-160.32408
-14.625059,-159.2021
-15.45537,-158.67406
-14.767446,-158.83598
-14.721462,-161.6131
-15.177758,-159.11969
-15.237761,-158.45123
-15.087703,-159.82057
-15.315228,-161.68858
-15.089132,-159.15657
-15.400254,-159.0641
-15.172652,-159.1503
-15.158821,-163.89497
-15.302938,-158.73798
-15.585652,-157.07144
-14.961051,-154.70299
-15.124731,-162.92854
-14.592554,-159.44362
-15.459177,-163.33603
-15.041131,-161.42989
-15.576797,-159.90013
-14.967932,-161.19513
-15.316321,-160.73907
-15.131747,-161.63942
-15.280618,-158.05191
-15.075134,-159.32831
-15.089717,-163.48523
-15.160414,-159.62067
-15.258444,-157.69911
-15.507292,-157.73053
-15.151628,-159.32532
-14.994583,-161.55524
-14.991596,-156.89986
-15.216516,-156.92587
-15.179295,-163.80211
-15.171373,-158.15315
-14.936686,-158.78615
-14.343692,-161.01187
-15.061565,-162.22018
-15.202282,-157.98416
-14.918692,-160.57811
-15.128983,-158.69954
-15.071343,-158.71486
-14.791248,-159.28516
-15.680038,-160.17496
-15.174827,-159.61612
-14.844221,-160.31129
-15.113364,-160.75891
-15.157785,-158.55241
-14.961021,-161.60176
-14.860183,-161.44907
-15.126472,-160.13133
-15.176285,-160.12662
-15.322647,-161.47661
-15.284784,-154.48116
-15.121,-159.85202
-15.2453,-159.42044
-14.94582,-158.06133
-14.885506,-160.40201
-14.95502,-160.5555
-15.201667,-161.2495
-14.933433,-161.05341
-15.119007,-156.29684
-15.289254,-162.58662
-15.002288,-156.48824
-15.062725,-159.2386
-15.181062,-162.12564
-14.783027,-160.9453
-14.879638,-157.89952
-15.359111,-159.84148
-15.345492,-160.11848
-15.268691,-159.02176
-15.123343,-160.20451
-14.642595,-160.73744
-15.179214,-160.62169
-14.939459,-160.5892
-15.029164,-160.6795
-15.150333,-157.96495
-14.943547,-160.41251
-15.233344,-161.58015
-14.838525,-160.92148
-15.449991,-157.13704
-15.021951,-159.0549
-15.433931,-160.22179
-15.046042,-160.5265
-15.309889,-162.03528
-15.663075,-161.08502
-15.353266,-159.95094
-15.298932,-156.90054
-15.5059,-158.72804
-15.029941,-158.12215
-15.116963,-162.62498
-15.527879,-161.73378
-14.995247,-161.96629
-15.179625,-159.35434
-14.766067,-161.58597
-15.379224,-162.61339
-15.068822,-160.74817
-15.165366,-160.02022
-15.114668,-160.60417
-15.327321,-160.47649
-15.20242,-161.74893
-15.181417,-159.66525
-14.982055,-160.40765
-14.829923,-159.31924
-14.964266,-160.46596
-15.138605,-158.74728
-14.75567,-162.05263
-15.302728,-158.32581
-15.379112,-162.63286
-15.03071,-160.20744
-15.021044,-163.55423
-15.066792,-160.88483
-15.025245,-160.08797
-14.832651,-158.86412
-15.129391,-158.62752
-14.824545,-161.54132
-15.290781,-158.53578
-15.143126,-158.42757
-15.191444,-160.47223
-15.057969,-158.66611
-14.742891,-159.82024
-14.990717,-159.51059
-15.361015,-158.507
-15.533447,-159.45392
-15.077069,-161.61751
-14.855981,-157.94981
-15.663015,-160.11987
-14.758712,-159.93021
-15.015442,-161.20456
-14.943431,-160.30518
-14.887601,-159.64813
-15.013731,-159.95975
-15.430712,-160.55699
-15.183523,-159.21933
-15.401525,-158.29695
-15.319637,-159.49133
-14.91892,-159.84766
-14.836467,-160.86359
-15.173438,-158.41826
-15.195416,-160.0179
-15.216173,-158.29805
-15.300348,-160.01288
-15.176244,-159.40823
-14.92306,-159.23048
-15.075942,-159.01627
-15.048468,-156.59464
-15.647415,-159.62616
-15.091431,-159.09764
-14.947996,-161.52293
-15.330137,-160.653
-14.989764,-159.77313
-15.101192,-161.4158
-14.917834,-159.97598
-15.20651,-160.40871
-15.51324,-161.73264
-14.753534,-159.58957
-15.071294,-158.44717
-14.961723,-160.54391
-15.107873,-158.56857
-15.005215,-158.81537
-14.73494,-159.64369
-14.958943,-160.03375
-14.933338,-161.9174
-15.551978,-159.90065
-15.074342,-159.20656
-15.227469,-161.22246
-15.107089,-159.30765
-15.211511,-157.26999
-15.143119,-158.48778
-15.183067,-160.19591
-15.352674,-160.93861
-15.084303,-161.92162
-15.059545,-159.19841
-15.167534,-160.37502
-14.869112,-158.99718
-14.718395,-158.67155
-15.165706,-159.17468
-14.852658,-159.95088
-14.935144,-159.95419
-15.301527,-160.12361
-14.835519,-160.96312
-14.978476,-160.19888
-15.097567,-159.82999
-15.221198,-161.03781
-15.371152,-161.85553
-14.909279,-160.12363
-14.834746,-159.90897
-14.895025,-159.87497
-15.199886,-159.58261
-15.057283,-161.74118
-15.032307,-158.657
-15.284801,-161.15367
-15.173651,-157.19258
-15.220534,-159.72754
-14.840417,-159.6459
-15.027131,-160.66832
-15.447197,-158.89824
-15.151052,-163.31891
-14.959501,-159.39473
-15.020438,-161.39273
-15.100879,-159.85176
-15.120625,-158.97179
-15.045531,-158.82948
-15.082529,-160.11717
-15.011631,-161.3569
-14.791054,-159.43573
-15.224515,-162.49182
-14.872692,-159.31506
-15.435145,-159.4841
-15.239213,-161.30544
-14.855414,-159.81583
-14.85235,-160.94182
-14.840794,-159.18272
-15.074219,-159.70612
-15.106847,-161.34221
-15.182384,-159.83885
-14.737076,-162.29391
-14.848642,-158.69722
-15.395518,-157.99347
-15.034467,-160.19589
-15.008616,-159.65384
-15.018202,-159.59164
-15.184758,-159.93077
-15.088533,-160.85301
-15.19063,-159.77057
-15.142218,-160.2998
-14.942109,-159.62956
-15.159314,-161.42245
-15.148797,-160.28415
-14.842511,-159.82896
-15.322901,-158.58908
-15.084759,-158.6649
-14.854461,-158.94785
-14.918831,-158.99962
-15.341861,-160.04134
-14.908435,-162.4693
-14.936262,-160.50099
-14.882605,-158.8439
-15.338205,-160.74879
-14.990037,-161.03749
-15.341724,-160.55714
-15.228304,-160.62682
-15.173929,-161.79657
-15.142918,-160.5304
-15.163693,-161.31352
-14.723444,-158.76248
-15.122874,-160.41637
-14.906551,-160.49443
-15.109209,-160.62947
-15.078484,-160.0119
-15.020381,-161.06229
-14.934353,-159.9653
-14.69672,-159.02786
-15.005754,-160.84511
-14.937306,-160.28844
-15.179702,-159.92001
-14.837543,-161.2119
-14.947515,-158.85568
-14.886019,-160.61687
-15.144482,-158.66232
-14.991004,-160.60442
-14.984531,-159.3938
-15.142681,-157.66534
-15.121075,-158.33351
-15.052631,-159.37712
-14.996406,-160.14301
-14.812552,-160.2144
-15.168701,-159.57515
-15.26142,-160.71286
-15.042789,-159.76596
-15.059073,-160.47049
-14.96699,-160.78775
-14.956148,-159.91873
-15.132467,-159.47331
-14.893832,-161.29193
-14.863041,-159.8681
-15.116301,-160.42262
-15.205402,-159.17258
-15.217107,-160.47682
-15.133727,-160.3387
-15.15318,-159.6568
-15.207741,-162.29373
-15.33786,-159.82556
-15.013125,-159.75609
-15.118677,-159.93407
-14.914083,-159.42297
-14.981015,-159.84857
-15.173742,-159.93777
-14.843447,-159.19228
-15.254526,-158.83461
-14.953462,-157.98427
-14.968422,-158.50302
-15.405146,-159.4446
-15.1881,-159.04619
-15.262232,-160.75125
-15.142637,-159.82007
-15.213681,-159.57477
-15.040064,-159.35587
-15.219127,-160.35127
-14.98005,-160.32362
-15.213865,-160.45497
-14.893272,-161.46785
-15.189399,-158.18034
-15.03094,-160.93607
-15.011529,-158.45879
-14.908389,-160.50288
-15.040984,-159.95723
-15.110336,-158.95876
-14.877767,-159.89153
-14.99373,-159.89949
-15.027841,-159.73407
-14.930449,-160.0192
-15.198051,-159.26437
-15.059404,-161.5128
-15.021239,-159.73952
-15.012868,-160.06003
-14.986693,-157.90987
-14.992649,-161.01212
-15.106316,-159.2489
-15.161573,-161.2354
-15.261678,-159.69763
-15.196418,-160.15685
-15.29097,-159.59698
-15.087011,-158.01894
-15.106533,-159.27065
-15.201267,-157.80846
-15.20756,-159.70958
-15.104925,-159.46658
-15.060905,-161.28101
-15.140566,-159.93956
-14.896421,-158.90222
-15.361331,-160.51839
-15.331281,-159.23651
-15.236326,-159.4873
-15.098042,-159.82542
-15.18633,-161.1236
-15.117553,-160.87556
-15.226963,-159.77884
-14.982878,-160.52968
-14.981526,-160.28694
-15.165544,-159.50816
-15.03179,-159.7594
-15.053473,-160.00754
-15.083211,-160.31976
-15.380454,-160.7574
-15.068683,-160.36188
-15.165697,-159.70274
-15.124742,-159.48807
-15.134088,-160.02507
-14.860395,-159.63208
-15.10906,-160.72375
-15.163068,-159.92769
-15.044018,-159.20193
-15.076446,-159.65298
-15.088068,-159.03709
-15.09091,-159.258
-15.008268,-160.1985
-15.139929,-158.14307
-15.080939,-160.41306
-15.186738,-160.05098
-14.977349,-160.22878
-15.055608,-159.96257
-14.917119,-159.28011
-14.967634,-160.52635
-14.81611,-159.16241
-15.088034,-160.94066
-15.032767,-160.69894
-15.096593,-160.15257
-14.949071,-158.89017
-15.151741,-159.62024
-15.23122,-159.41637
-15.115971,-158.64517
-15.009226,-159.1376
-14.912431,-160.94154
-15.039894,-159.86244
-15.256577,-160.07724
-15.103004,-158.28416
-14.890901,-160.03406
-15.122354,-158.74846
-15.161118,-159.74034
-14.882112,-160.19772
-15.148093,-159.97504
-15.183488,-159.8103
-15.053048,-159.37221
-15.151171,-158.33421
-15.094858,-159.79283
-15.110015,-160.48984
-15.221886,-159.31189
-15.184639,-159.53958
-15.036527,-160.26526
-14.903641,-160.4664
-15.009631,-159.93886
-15.037516,-159.15981
-15.135869,-160.02028
-14.911034,-159.74979
-15.258854,-159.63036
-15.313831,-159.80206
-14.951743,-159.17784
-14.907377,-158.97234
-15.156075,-160.07147
-15.13503,-160.72075
-14.887008,-159.84285
-15.149638,-158.12614
-15.098075,-161.14105
-15.063749,-160.29886
-15.075605,-159.1207
-15.030199,-159.59242
-15.039071,-160.3461
-15.09956,-159.37018
-15.217344,-159.71028
-15.172942,-159.55038
-15.144821,-159.17245
-14.983129,-160.46576
-15.101055,-159.82358
-14.978196,-159.19518
-15.10693,-159.94217
-15.177596,-159.22966
-15.220071,-157.56624
-15.068379,-159.78476
-14.884458,-159.79182
-15.182621,-160.46977
-14.907121,-159.85268
-15.061702,-160.1965
-15.155048,-159.50871
-14.979337,-161.10136
-15.035575,-159.83041
-15.063214,-159.48828
-15.094676,-159.84016
-15.0771,-159.32539
-15.015461,-159.72458
-15.028697,-159.82935
-15.062032,-160.34132
-15.146877,-160.19258
