CITIFILE A.01.01
!Agilent Technologies,N5230C,MY48100142,A.08.04.10
!Agilent N5230C: A.08.04.10
!Format: LogMag/Angle
!Date: Friday, August 14, 2020 12:42:25
NAME CH1_DATA
VAR Power MAG 801
DATA S11 DBANGLE
DATA S21 DBANGLE
DATA S12 DBANGLE
DATA S22 DBANGLE
VAR_LIST_BEGIN
-40
-39.975
-39.95
-39.925
-39.9
-39.875
-39.85
-39.825
-39.8
-39.775
-39.75
-39.725
-39.7
-39.675
-39.65
-39.625
-39.6
-39.575
-39.55
-39.525
-39.5
-39.475
-39.45
-39.425
-39.4
-39.375
-39.35
-39.325
-39.3
-39.275
-39.25
-39.225
-39.2
-39.175
-39.15
-39.125
-39.1
-39.075
-39.05
-39.025
-39
-38.975
-38.95
-38.925
-38.9
-38.875
-38.85
-38.825
-38.8
-38.775
-38.75
-38.725
-38.7
-38.675
-38.65
-38.625
-38.6
-38.575
-38.55
-38.525
-38.5
-38.475
-38.45
-38.425
-38.4
-38.375
-38.35
-38.325
-38.3
-38.275
-38.25
-38.225
-38.2
-38.175
-38.15
-38.125
-38.1
-38.075
-38.05
-38.025
-38
-37.975
-37.95
-37.925
-37.9
-37.875
-37.85
-37.825
-37.8
-37.775
-37.75
-37.725
-37.7
-37.675
-37.65
-37.625
-37.6
-37.575
-37.55
-37.525
-37.5
-37.475
-37.45
-37.425
-37.4
-37.375
-37.35
-37.325
-37.3
-37.275
-37.25
-37.225
-37.2
-37.175
-37.15
-37.125
-37.1
-37.075
-37.05
-37.025
-37
-36.975
-36.95
-36.925
-36.9
-36.875
-36.85
-36.825
-36.8
-36.775
-36.75
-36.725
-36.7
-36.675
-36.65
-36.625
-36.6
-36.575
-36.55
-36.525
-36.5
-36.475
-36.45
-36.425
-36.4
-36.375
-36.35
-36.325
-36.3
-36.275
-36.25
-36.225
-36.2
-36.175
-36.15
-36.125
-36.1
-36.075
-36.05
-36.025
-36
-35.975
-35.95
-35.925
-35.9
-35.875
-35.85
-35.825
-35.8
-35.775
-35.75
-35.725
-35.7
-35.675
-35.65
-35.625
-35.6
-35.575
-35.55
-35.525
-35.5
-35.475
-35.45
-35.425
-35.4
-35.375
-35.35
-35.325
-35.3
-35.275
-35.25
-35.225
-35.2
-35.175
-35.15
-35.125
-35.1
-35.075
-35.05
-35.025
-35
-34.975
-34.95
-34.925
-34.9
-34.875
-34.85
-34.825
-34.8
-34.775
-34.75
-34.725
-34.7
-34.675
-34.65
-34.625
-34.6
-34.575
-34.55
-34.525
-34.5
-34.475
-34.45
-34.425
-34.4
-34.375
-34.35
-34.325
-34.3
-34.275
-34.25
-34.225
-34.2
-34.175
-34.15
-34.125
-34.1
-34.075
-34.05
-34.025
-34
-33.975
-33.95
-33.925
-33.9
-33.875
-33.85
-33.825
-33.8
-33.775
-33.75
-33.725
-33.7
-33.675
-33.65
-33.625
-33.6
-33.575
-33.55
-33.525
-33.5
-33.475
-33.45
-33.425
-33.4
-33.375
-33.35
-33.325
-33.3
-33.275
-33.25
-33.225
-33.2
-33.175
-33.15
-33.125
-33.1
-33.075
-33.05
-33.025
-33
-32.975
-32.95
-32.925
-32.9
-32.875
-32.85
-32.825
-32.8
-32.775
-32.75
-32.725
-32.7
-32.675
-32.65
-32.625
-32.6
-32.575
-32.55
-32.525
-32.5
-32.475
-32.45
-32.425
-32.4
-32.375
-32.35
-32.325
-32.3
-32.275
-32.25
-32.225
-32.2
-32.175
-32.15
-32.125
-32.1
-32.075
-32.05
-32.025
-32
-31.975
-31.95
-31.925
-31.9
-31.875
-31.85
-31.825
-31.8
-31.775
-31.75
-31.725
-31.7
-31.675
-31.65
-31.625
-31.6
-31.575
-31.55
-31.525
-31.5
-31.475
-31.45
-31.425
-31.4
-31.375
-31.35
-31.325
-31.3
-31.275
-31.25
-31.225
-31.2
-31.175
-31.15
-31.125
-31.1
-31.075
-31.05
-31.025
-31
-30.975
-30.95
-30.925
-30.9
-30.875
-30.85
-30.825
-30.8
-30.775
-30.75
-30.725
-30.7
-30.675
-30.65
-30.625
-30.6
-30.575
-30.55
-30.525
-30.5
-30.475
-30.45
-30.425
-30.4
-30.375
-30.35
-30.325
-30.3
-30.275
-30.25
-30.225
-30.2
-30.175
-30.15
-30.125
-30.1
-30.075
-30.05
-30.025
-30
-29.975
-29.95
-29.925
-29.9
-29.875
-29.85
-29.825
-29.8
-29.775
-29.75
-29.725
-29.7
-29.675
-29.65
-29.625
-29.6
-29.575
-29.55
-29.525
-29.5
-29.475
-29.45
-29.425
-29.4
-29.375
-29.35
-29.325
-29.3
-29.275
-29.25
-29.225
-29.2
-29.175
-29.15
-29.125
-29.1
-29.075
-29.05
-29.025
-29
-28.975
-28.95
-28.925
-28.9
-28.875
-28.85
-28.825
-28.8
-28.775
-28.75
-28.725
-28.7
-28.675
-28.65
-28.625
-28.6
-28.575
-28.55
-28.525
-28.5
-28.475
-28.45
-28.425
-28.4
-28.375
-28.35
-28.325
-28.3
-28.275
-28.25
-28.225
-28.2
-28.175
-28.15
-28.125
-28.1
-28.075
-28.05
-28.025
-28
-27.975
-27.95
-27.925
-27.9
-27.875
-27.85
-27.825
-27.8
-27.775
-27.75
-27.725
-27.7
-27.675
-27.65
-27.625
-27.6
-27.575
-27.55
-27.525
-27.5
-27.475
-27.45
-27.425
-27.4
-27.375
-27.35
-27.325
-27.3
-27.275
-27.25
-27.225
-27.2
-27.175
-27.15
-27.125
-27.1
-27.075
-27.05
-27.025
-27
-26.975
-26.95
-26.925
-26.9
-26.875
-26.85
-26.825
-26.8
-26.775
-26.75
-26.725
-26.7
-26.675
-26.65
-26.625
-26.6
-26.575
-26.55
-26.525
-26.5
-26.475
-26.45
-26.425
-26.4
-26.375
-26.35
-26.325
-26.3
-26.275
-26.25
-26.225
-26.2
-26.175
-26.15
-26.125
-26.1
-26.075
-26.05
-26.025
-26
-25.975
-25.95
-25.925
-25.9
-25.875
-25.85
-25.825
-25.8
-25.775
-25.75
-25.725
-25.7
-25.675
-25.65
-25.625
-25.6
-25.575
-25.55
-25.525
-25.5
-25.475
-25.45
-25.425
-25.4
-25.375
-25.35
-25.325
-25.3
-25.275
-25.25
-25.225
-25.2
-25.175
-25.15
-25.125
-25.1
-25.075
-25.05
-25.025
-25
-24.975
-24.95
-24.925
-24.9
-24.875
-24.85
-24.825
-24.8
-24.775
-24.75
-24.725
-24.7
-24.675
-24.65
-24.625
-24.6
-24.575
-24.55
-24.525
-24.5
-24.475
-24.45
-24.425
-24.4
-24.375
-24.35
-24.325
-24.3
-24.275
-24.25
-24.225
-24.2
-24.175
-24.15
-24.125
-24.1
-24.075
-24.05
-24.025
-24
-23.975
-23.95
-23.925
-23.9
-23.875
-23.85
-23.825
-23.8
-23.775
-23.75
-23.725
-23.7
-23.675
-23.65
-23.625
-23.6
-23.575
-23.55
-23.525
-23.5
-23.475
-23.45
-23.425
-23.4
-23.375
-23.35
-23.325
-23.3
-23.275
-23.25
-23.225
-23.2
-23.175
-23.15
-23.125
-23.1
-23.075
-23.05
-23.025
-23
-22.975
-22.95
-22.925
-22.9
-22.875
-22.85
-22.825
-22.8
-22.775
-22.75
-22.725
-22.7
-22.675
-22.65
-22.625
-22.6
-22.575
-22.55
-22.525
-22.5
-22.475
-22.45
-22.425
-22.4
-22.375
-22.35
-22.325
-22.3
-22.275
-22.25
-22.225
-22.2
-22.175
-22.15
-22.125
-22.1
-22.075
-22.05
-22.025
-22
-21.975
-21.95
-21.925
-21.9
-21.875
-21.85
-21.825
-21.8
-21.775
-21.75
-21.725
-21.7
-21.675
-21.65
-21.625
-21.6
-21.575
-21.55
-21.525
-21.5
-21.475
-21.45
-21.425
-21.4
-21.375
-21.35
-21.325
-21.3
-21.275
-21.25
-21.225
-21.2
-21.175
-21.15
-21.125
-21.1
-21.075
-21.05
-21.025
-21
-20.975
-20.95
-20.925
-20.9
-20.875
-20.85
-20.825
-20.8
-20.775
-20.75
-20.725
-20.7
-20.675
-20.65
-20.625
-20.6
-20.575
-20.55
-20.525
-20.5
-20.475
-20.45
-20.425
-20.4
-20.375
-20.35
-20.325
-20.3
-20.275
-20.25
-20.225
-20.2
-20.175
-20.15
-20.125
-20.1
-20.075
-20.05
-20.025
-20
VAR_LIST_END
BEGIN
-15.112881,-157.58554
-15.057651,-161.87256
-15.383037,-162.91342
-14.790647,-157.481
-15.172968,-156.81879
-15.163315,-156.61676
-14.883347,-158.7356
-14.954333,-159.42937
-14.666888,-158.37921
-14.821901,-157.72359
-15.148989,-158.87837
-14.85859,-161.19653
-15.370877,-159.31633
-15.623263,-160.45743
-14.632356,-158.50902
-15.345972,-161.23297
-15.344741,-158.0842
-15.276926,-161.17194
-15.208972,-160.10472
-14.775555,-162.31793
-14.728966,-158.96448
-14.941751,-161.57402
-14.436796,-158.82571
-15.35828,-160.22789
-14.635554,-159.21625
-14.973358,-158.32098
-15.336853,-158.22731
-14.639615,-154.99548
-14.91815,-163.62282
-15.106606,-159.40652
-14.505862,-159.05315
-14.515723,-156.60124
-15.030307,-159.99899
-15.279996,-156.01591
-14.837379,-159.45726
-14.975513,-156.74034
-15.414174,-160.50536
-14.909741,-159.60335
-15.130426,-161.6899
-15.27772,-158.39354
-14.993517,-158.78052
-14.872258,-158.493
-14.586466,-158.01875
-15.165644,-159.08897
-14.650037,-161.50961
-15.328293,-160.66118
-15.851871,-160.97115
-15.004235,-161.1895
-15.05087,-158.03366
-15.482232,-159.83282
-15.119041,-159.65572
-15.389747,-159.06079
-14.950057,-157.67371
-14.951061,-161.15855
-14.946735,-159.72046
-15.182403,-160.68631
-14.882012,-161.03624
-14.857693,-157.58411
-15.013373,-158.68311
-15.306719,-157.37836
-14.824513,-159.3067
-14.987435,-162.45694
-14.851383,-160.33128
-15.270951,-158.70052
-14.917474,-158.80676
-14.770387,-160.15184
-15.002335,-159.20399
-15.055321,-154.39995
-14.928571,-161.39697
-14.870068,-158.2234
-14.77914,-160.27547
-15.254541,-159.41426
-15.304349,-159.93188
-15.136378,-157.16307
-15.181863,-159.55078
-14.947622,-158.39279
-14.821628,-158.34782
-15.050076,-158.37486
-14.469705,-154.84261
-15.469646,-158.38695
-15.036293,-158.57091
-15.078568,-160.03111
-15.035879,-158.29083
-15.343435,-157.88593
-15.147151,-158.72292
-14.993996,-161.39494
-15.043287,-160.72781
-15.15165,-157.52568
-15.33115,-156.47882
-14.96589,-159.46732
-15.242521,-159.71745
-15.616275,-158.9407
-15.082859,-160.57655
-14.90662,-158.6356
-15.087406,-158.86734
-14.89429,-158.43941
-15.173234,-158.0056
-14.728741,-156.90297
-15.261394,-156.8967
-15.433777,-160.19141
-15.228086,-157.62753
-15.263806,-158.79088
-14.992127,-158.77319
-15.412638,-157.26376
-15.239514,-159.31096
-15.115472,-157.44751
-15.087687,-157.13531
-15.046435,-160.54156
-15.131844,-159.05513
-15.049642,-157.76056
-15.038918,-158.86612
-15.11091,-160.48846
-15.07765,-158.90942
-14.746625,-159.34415
-15.40415,-158.735
-14.852865,-159.80222
-15.236671,-159.28725
-15.197076,-159.09012
-15.258649,-160.88593
-15.023527,-159.98926
-15.220012,-156.64757
-14.930518,-161.13066
-15.248922,-159.27136
-14.916287,-161.41161
-15.079836,-163.33745
-15.119865,-159.29782
-14.610235,-158.49408
-15.046782,-161.00507
-15.006912,-158.41118
-14.52772,-160.78125
-14.689287,-159.31595
-15.152182,-158.94978
-15.221121,-159.61487
-15.063732,-158.5446
-14.960653,-159.93263
-14.967266,-160.69508
-15.071373,-155.58521
-15.298216,-159.6958
-15.227567,-158.31308
-14.996708,-159.39362
-14.976007,-159.29755
-15.340042,-157.09175
-15.186287,-159.06827
-15.112729,-159.3035
-15.017892,-158.82373
-14.999795,-157.77754
-14.86111,-159.56087
-15.135845,-159.86191
-14.933085,-159.13835
-15.101497,-157.15802
-14.616738,-160.29875
-14.816375,-157.15762
-15.142722,-158.21933
-14.743492,-158.95717
-15.286654,-160.99953
-14.983953,-161.34756
-15.182191,-157.55885
-14.943807,-158.45032
-15.557405,-159.90907
-15.473541,-158.76894
-14.90752,-160.9191
-15.012025,-159.89864
-14.935626,-159.00186
-15.177195,-159.25386
-15.132833,-160.54514
-15.398822,-159.4875
-14.777205,-157.86098
-15.153181,-159.78281
-15.106762,-158.00511
-14.981892,-160.10536
-15.223753,-159.60733
-15.171658,-160.06567
-15.281895,-158.9991
-15.616851,-159.43378
-14.82181,-159.76642
-14.732757,-159.56032
-15.259803,-159.35063
-15.11215,-154.7701
-15.012565,-160.08273
-14.908809,-160.52533
-15.47513,-161.55174
-15.210052,-158.64246
-15.089873,-159.66743
-15.225642,-159.44164
-15.233365,-159.78636
-14.884245,-157.98215
-15.068094,-161.60678
-14.882294,-158.7307
-14.875319,-158.76898
-15.226018,-161.36606
-15.15699,-159.28577
-15.071425,-158.69252
-15.00341,-159.5247
-14.967009,-158.63246
-15.192824,-161.02046
-15.090465,-158.47299
-15.097144,-158.68785
-15.338723,-158.89417
-15.126053,-156.80722
-15.043015,-160.15616
-14.923804,-159.46275
-14.902071,-159.1259
-15.249544,-158.5667
-14.948307,-160.46999
-14.778461,-160.98343
-15.109369,-158.39359
-15.199609,-160.87651
-14.920067,-158.46165
-15.032191,-159.74796
-15.107912,-160.14439
-15.101249,-159.94591
-15.226072,-158.50932
-14.73038,-159.39316
-15.124028,-160.0316
-15.243797,-160.50421
-14.866089,-158.869
-15.07277,-157.62289
-15.013447,-158.50824
-15.301504,-159.46844
-14.8755,-159.56844
-15.173421,-157.7782
-14.909518,-158.27095
-14.637967,-160.48738
-14.993654,-159.12297
-14.788322,-161.01152
-15.158031,-160.27763
-14.914784,-157.46085
-15.109746,-156.45372
-15.0086,-158.82379
-15.195699,-158.56209
-14.981584,-160.99239
-15.235441,-158.3399
-14.767329,-160.13622
-15.117996,-159.03719
-14.945251,-161.49205
-14.975614,-159.02718
-15.126112,-159.02879
-15.144789,-159.79813
-15.177275,-159.76241
-14.965876,-160.60005
-15.120415,-161.23781
-14.828914,-160.70187
-15.132966,-158.6618
-15.000042,-159.51682
-15.088943,-158.22504
-15.12164,-160.09099
-15.392473,-158.88049
-14.975382,-158.74747
-15.106981,-157.99773
-15.165037,-158.65921
-14.979053,-160.70541
-15.113573,-158.97906
-15.088895,-159.15202
-15.165033,-158.1432
-15.008469,-158.51091
-15.085495,-158.99553
-15.10654,-158.19771
-15.194412,-158.16428
-15.106661,-158.53406
-15.219164,-159.42128
-14.993448,-159.56572
-14.95112,-158.11143
-14.935744,-158.07217
-14.817904,-159.181
-15.109967,-156.96413
-15.060623,-158.03438
-15.079431,-157.10606
-14.928743,-158.66731
-14.99697,-157.68143
-14.979703,-158.81647
-15.113914,-158.8445
-15.188879,-157.89803
-15.351639,-159.70377
-15.093039,-158.51999
-15.067244,-158.93849
-15.093073,-158.33417
-15.023609,-159.58231
-14.830123,-159.60014
-15.272817,-159.48537
-15.085147,-160.18015
-14.819817,-158.9975
-15.126592,-160.05127
-14.983219,-159.48505
-15.160919,-158.12447
-15.114225,-160.85222
-15.030894,-157.30959
-14.817225,-158.76459
-15.268499,-159.32999
-15.254588,-160.09583
-15.047519,-159.43135
-15.044896,-158.60913
-15.076327,-158.41901
-14.988728,-159.91829
-15.130167,-159.6602
-14.970168,-161.28902
-15.387157,-158.42888
-14.926613,-160.19641
-15.225939,-160.25665
-15.011071,-159.5676
-15.124506,-159.23912
-14.9989,-160.26877
-15.023547,-159.62187
-15.197131,-159.55666
-15.256856,-160.21312
-15.183253,-159.27321
-14.947044,-159.84831
-15.217813,-159.88503
-15.034014,-160.55817
-14.801984,-160.41064
-15.043266,-159.41534
-15.10117,-158.55719
-15.163208,-157.4205
-15.095479,-160.45319
-15.131191,-159.45781
-14.8212,-157.2713
-14.928625,-159.33257
-14.746782,-160.15395
-15.024372,-159.43457
-14.955503,-159.92831
-15.006243,-160.55815
-15.157227,-158.49872
-14.960365,-158.52943
-15.048204,-159.63148
-14.888631,-159.44543
-15.061217,-160.60497
-14.980165,-160.33752
-14.977409,-159.02344
-15.00365,-161.2038
-15.076303,-158.95439
-15.052005,-159.9612
-15.296771,-158.72372
-14.888507,-159.4949
-14.879284,-159.27127
-14.848616,-158.75941
-15.072035,-159.04857
-15.056003,-160.29105
-15.155705,-158.93907
-15.05556,-160.47733
-15.152557,-159.62294
-15.039131,-157.76741
-15.078,-158.35971
-15.030252,-159.82796
-15.114362,-158.26289
-15.139963,-159.56999
-14.96698,-158.69872
-15.134698,-159.18228
-15.182577,-158.86197
-15.056248,-157.16414
-14.74372,-159.56059
-15.018125,-159.31906
-15.090064,-157.70105
-15.038034,-157.91095
-15.175661,-158.67845
-14.9906,-159.94022
-15.225933,-158.77242
-14.937541,-158.61513
-15.126616,-158.81102
-15.219057,-158.11722
-15.106748,-161.22623
-14.985638,-157.82201
-14.956669,-159.47647
-14.986123,-158.44038
-15.216773,-159.69841
-15.011147,-159.89973
-15.072199,-160.65942
-15.003718,-158.57184
-15.032609,-158.66148
-15.036155,-160.08951
-15.045577,-160.24811
-14.98936,-158.98827
-15.029814,-158.59239
-15.108733,-159.6553
-14.762589,-159.05699
-15.00993,-159.57024
-14.946904,-160.64163
-15.1092,-158.78323
-14.979678,-159.15491
-14.86941,-158.82039
-14.798809,-158.6078
-14.99933,-158.71588
-14.915701,-158.76741
-15.011924,-159.43134
-14.983699,-159.35722
-15.051795,-159.61703
-15.069466,-159.29816
-15.05715,-158.70905
-14.975196,-159.5083
-15.10674,-159.37346
-15.064665,-158.67767
-15.073451,-158.44153
-15.129295,-159.50722
-15.025988,-159.09259
-15.090392,-160.2372
-15.081593,-159.27492
-15.114816,-159.94232
-15.150164,-158.07434
-15.017202,-160.27699
-15.129746,-159.50424
-15.163419,-158.48285
-14.980131,-158.31445
-15.09151,-159.10088
-14.969923,-159.30077
-15.027186,-159.30582
-15.162609,-159.20139
-15.159193,-158.55049
-15.249205,-159.28746
-14.946516,-157.96912
-15.042777,-159.50172
-15.061785,-158.74216
-15.064548,-158.86369
-14.836732,-158.63383
-15.141658,-159.29637
-14.980757,-159.98296
-14.976823,-159.62801
-15.103478,-159.70107
-15.034093,-159.68103
-15.088546,-159.65762
-15.0038,-159.0074
-15.020737,-160.20299
-15.065063,-158.49164
-15.090274,-158.66234
-15.048002,-159.13501
-15.128491,-158.34969
-15.08903,-159.60054
-14.996934,-158.78648
-14.805053,-158.54948
-15.159828,-158.99748
-15.07916,-159.36119
-14.854887,-159.21704
-15.022343,-158.87881
-15.001634,-160.40736
-15.095694,-159.3741
-15.081841,-160.05858
-15.129749,-159.4464
-15.145592,-159.01112
-15.273688,-159.78206
-15.021019,-159.13585
-14.980993,-159.65036
-15.063487,-158.00908
-15.046212,-159.66324
-14.958733,-159.4099
-15.079496,-158.5547
-14.951445,-160.4214
-15.03019,-159.50081
-14.940919,-158.30867
-15.052575,-159.2834
-15.086411,-159.58505
-15.154458,-159.16638
-14.914126,-158.96924
-15.010336,-159.1561
-15.087206,-159.433
-15.201883,-158.95325
-15.00349,-159.33931
-15.045637,-158.5575
-15.140556,-158.1489
-15.065243,-159.85693
-15.017491,-158.94334
-15.040833,-158.87265
-15.083266,-159.33261
-15.05585,-158.69273
-15.013934,-158.93456
-15.290604,-158.70564
-15.071637,-158.95586
-15.143984,-158.80751
-14.960487,-159.5182
-14.985522,-159.29626
-15.1455,-158.75723
-15.131271,-159.43147
-14.988579,-158.69594
-15.174459,-159.515
-15.131034,-158.78214
-15.045358,-159.65874
-15.064652,-159.45071
-14.982139,-159.61008
-15.040835,-159.50758
-15.196935,-158.65987
-15.107165,-159.25095
-15.036798,-159.51768
-15.018966,-158.53102
-15.115441,-159.07713
-15.02901,-159.15471
-15.032596,-159.92787
-14.932385,-159.33051
-15.035328,-159.38838
-14.963531,-158.35381
-14.839307,-157.78554
-14.888891,-157.85269
-14.933611,-159.00725
-15.083977,-159.79356
-15.019818,-159.51215
-15.14786,-158.92203
-15.036234,-158.03253
-15.041965,-159.46272
-15.019784,-159.01952
-15.109612,-158.95297
-15.039057,-158.70634
-15.019364,-159.31715
-15.109601,-158.84517
-15.321004,-158.68146
-15.03817,-158.60893
-15.032769,-158.88226
-15.026252,-158.35707
-15.080978,-159.61513
-14.931131,-159.76634
-15.100004,-159.20755
-15.00126,-159.29266
-15.128699,-158.57968
-15.206871,-159.43254
-15.073596,-158.38072
-14.928984,-158.68773
-15.110766,-158.20518
-15.056074,-159.30244
-15.011447,-159.12422
-15.20086,-159.00699
-15.069544,-158.85966
-15.049037,-158.78546
-15.010406,-158.98563
-15.13469,-158.69847
-15.084397,-158.37558
-15.047617,-159.40025
-15.091256,-159.3694
-15.088943,-160.40318
-15.056728,-158.83279
-15.04033,-159.74779
-15.225941,-158.97057
-15.10054,-159.08723
-14.896438,-158.79875
-14.883524,-159.09529
-14.896126,-159.06635
-14.988792,-158.96483
-14.888579,-158.31038
-14.921233,-158.8779
-15.020612,-159.41055
-15.003766,-159.0553
-15.106461,-159.00624
-15.167119,-158.38292
-15.080886,-159.48677
-14.96313,-159.80809
-15.072869,-158.70302
-15.064271,-159.12921
-15.041401,-160.05569
-14.988106,-159.13953
-15.064558,-158.653
-15.094156,-158.84969
-15.030098,-159.2653
-15.016164,-159.69199
-15.035604,-159.0753
-15.030252,-159.1747
-14.839857,-158.49451
-15.029495,-158.76982
-15.245155,-159.32683
-15.030706,-159.90756
-14.997496,-160.08228
-15.187517,-159.3895
-15.005651,-159.20547
-15.206035,-159.21309
-14.950558,-158.61415
-15.102716,-159.27324
-14.985726,-159.1082
-15.041122,-158.58238
-15.125425,-159.5228
-15.017117,-159.82321
-15.203914,-158.7511
-15.061369,-158.70187
-15.124281,-159.36731
-15.182059,-159.15712
-15.029096,-158.3922
-15.022041,-158.97633
-14.965723,-159.1489
-15.206055,-159.4178
-15.035521,-158.45717
-15.11637,-159.13718
-15.03441,-158.27982
-15.027036,-159.74591
-15.101963,-159.13629
-15.041087,-159.56715
-15.051559,-158.45279
