CITIFILE A.01.01
!Agilent Technologies,N5230C,MY48100142,A.08.04.10
!Agilent N5230C: A.08.04.10
!Format: LogMag/Angle
!Date: Friday, August 21, 2020 18:08:03
NAME CH1_DATA
VAR Power MAG 801
DATA S11 DBANGLE
DATA S21 DBANGLE
DATA S12 DBANGLE
DATA S22 DBANGLE
VAR_LIST_BEGIN
-40
-39.975
-39.95
-39.925
-39.9
-39.875
-39.85
-39.825
-39.8
-39.775
-39.75
-39.725
-39.7
-39.675
-39.65
-39.625
-39.6
-39.575
-39.55
-39.525
-39.5
-39.475
-39.45
-39.425
-39.4
-39.375
-39.35
-39.325
-39.3
-39.275
-39.25
-39.225
-39.2
-39.175
-39.15
-39.125
-39.1
-39.075
-39.05
-39.025
-39
-38.975
-38.95
-38.925
-38.9
-38.875
-38.85
-38.825
-38.8
-38.775
-38.75
-38.725
-38.7
-38.675
-38.65
-38.625
-38.6
-38.575
-38.55
-38.525
-38.5
-38.475
-38.45
-38.425
-38.4
-38.375
-38.35
-38.325
-38.3
-38.275
-38.25
-38.225
-38.2
-38.175
-38.15
-38.125
-38.1
-38.075
-38.05
-38.025
-38
-37.975
-37.95
-37.925
-37.9
-37.875
-37.85
-37.825
-37.8
-37.775
-37.75
-37.725
-37.7
-37.675
-37.65
-37.625
-37.6
-37.575
-37.55
-37.525
-37.5
-37.475
-37.45
-37.425
-37.4
-37.375
-37.35
-37.325
-37.3
-37.275
-37.25
-37.225
-37.2
-37.175
-37.15
-37.125
-37.1
-37.075
-37.05
-37.025
-37
-36.975
-36.95
-36.925
-36.9
-36.875
-36.85
-36.825
-36.8
-36.775
-36.75
-36.725
-36.7
-36.675
-36.65
-36.625
-36.6
-36.575
-36.55
-36.525
-36.5
-36.475
-36.45
-36.425
-36.4
-36.375
-36.35
-36.325
-36.3
-36.275
-36.25
-36.225
-36.2
-36.175
-36.15
-36.125
-36.1
-36.075
-36.05
-36.025
-36
-35.975
-35.95
-35.925
-35.9
-35.875
-35.85
-35.825
-35.8
-35.775
-35.75
-35.725
-35.7
-35.675
-35.65
-35.625
-35.6
-35.575
-35.55
-35.525
-35.5
-35.475
-35.45
-35.425
-35.4
-35.375
-35.35
-35.325
-35.3
-35.275
-35.25
-35.225
-35.2
-35.175
-35.15
-35.125
-35.1
-35.075
-35.05
-35.025
-35
-34.975
-34.95
-34.925
-34.9
-34.875
-34.85
-34.825
-34.8
-34.775
-34.75
-34.725
-34.7
-34.675
-34.65
-34.625
-34.6
-34.575
-34.55
-34.525
-34.5
-34.475
-34.45
-34.425
-34.4
-34.375
-34.35
-34.325
-34.3
-34.275
-34.25
-34.225
-34.2
-34.175
-34.15
-34.125
-34.1
-34.075
-34.05
-34.025
-34
-33.975
-33.95
-33.925
-33.9
-33.875
-33.85
-33.825
-33.8
-33.775
-33.75
-33.725
-33.7
-33.675
-33.65
-33.625
-33.6
-33.575
-33.55
-33.525
-33.5
-33.475
-33.45
-33.425
-33.4
-33.375
-33.35
-33.325
-33.3
-33.275
-33.25
-33.225
-33.2
-33.175
-33.15
-33.125
-33.1
-33.075
-33.05
-33.025
-33
-32.975
-32.95
-32.925
-32.9
-32.875
-32.85
-32.825
-32.8
-32.775
-32.75
-32.725
-32.7
-32.675
-32.65
-32.625
-32.6
-32.575
-32.55
-32.525
-32.5
-32.475
-32.45
-32.425
-32.4
-32.375
-32.35
-32.325
-32.3
-32.275
-32.25
-32.225
-32.2
-32.175
-32.15
-32.125
-32.1
-32.075
-32.05
-32.025
-32
-31.975
-31.95
-31.925
-31.9
-31.875
-31.85
-31.825
-31.8
-31.775
-31.75
-31.725
-31.7
-31.675
-31.65
-31.625
-31.6
-31.575
-31.55
-31.525
-31.5
-31.475
-31.45
-31.425
-31.4
-31.375
-31.35
-31.325
-31.3
-31.275
-31.25
-31.225
-31.2
-31.175
-31.15
-31.125
-31.1
-31.075
-31.05
-31.025
-31
-30.975
-30.95
-30.925
-30.9
-30.875
-30.85
-30.825
-30.8
-30.775
-30.75
-30.725
-30.7
-30.675
-30.65
-30.625
-30.6
-30.575
-30.55
-30.525
-30.5
-30.475
-30.45
-30.425
-30.4
-30.375
-30.35
-30.325
-30.3
-30.275
-30.25
-30.225
-30.2
-30.175
-30.15
-30.125
-30.1
-30.075
-30.05
-30.025
-30
-29.975
-29.95
-29.925
-29.9
-29.875
-29.85
-29.825
-29.8
-29.775
-29.75
-29.725
-29.7
-29.675
-29.65
-29.625
-29.6
-29.575
-29.55
-29.525
-29.5
-29.475
-29.45
-29.425
-29.4
-29.375
-29.35
-29.325
-29.3
-29.275
-29.25
-29.225
-29.2
-29.175
-29.15
-29.125
-29.1
-29.075
-29.05
-29.025
-29
-28.975
-28.95
-28.925
-28.9
-28.875
-28.85
-28.825
-28.8
-28.775
-28.75
-28.725
-28.7
-28.675
-28.65
-28.625
-28.6
-28.575
-28.55
-28.525
-28.5
-28.475
-28.45
-28.425
-28.4
-28.375
-28.35
-28.325
-28.3
-28.275
-28.25
-28.225
-28.2
-28.175
-28.15
-28.125
-28.1
-28.075
-28.05
-28.025
-28
-27.975
-27.95
-27.925
-27.9
-27.875
-27.85
-27.825
-27.8
-27.775
-27.75
-27.725
-27.7
-27.675
-27.65
-27.625
-27.6
-27.575
-27.55
-27.525
-27.5
-27.475
-27.45
-27.425
-27.4
-27.375
-27.35
-27.325
-27.3
-27.275
-27.25
-27.225
-27.2
-27.175
-27.15
-27.125
-27.1
-27.075
-27.05
-27.025
-27
-26.975
-26.95
-26.925
-26.9
-26.875
-26.85
-26.825
-26.8
-26.775
-26.75
-26.725
-26.7
-26.675
-26.65
-26.625
-26.6
-26.575
-26.55
-26.525
-26.5
-26.475
-26.45
-26.425
-26.4
-26.375
-26.35
-26.325
-26.3
-26.275
-26.25
-26.225
-26.2
-26.175
-26.15
-26.125
-26.1
-26.075
-26.05
-26.025
-26
-25.975
-25.95
-25.925
-25.9
-25.875
-25.85
-25.825
-25.8
-25.775
-25.75
-25.725
-25.7
-25.675
-25.65
-25.625
-25.6
-25.575
-25.55
-25.525
-25.5
-25.475
-25.45
-25.425
-25.4
-25.375
-25.35
-25.325
-25.3
-25.275
-25.25
-25.225
-25.2
-25.175
-25.15
-25.125
-25.1
-25.075
-25.05
-25.025
-25
-24.975
-24.95
-24.925
-24.9
-24.875
-24.85
-24.825
-24.8
-24.775
-24.75
-24.725
-24.7
-24.675
-24.65
-24.625
-24.6
-24.575
-24.55
-24.525
-24.5
-24.475
-24.45
-24.425
-24.4
-24.375
-24.35
-24.325
-24.3
-24.275
-24.25
-24.225
-24.2
-24.175
-24.15
-24.125
-24.1
-24.075
-24.05
-24.025
-24
-23.975
-23.95
-23.925
-23.9
-23.875
-23.85
-23.825
-23.8
-23.775
-23.75
-23.725
-23.7
-23.675
-23.65
-23.625
-23.6
-23.575
-23.55
-23.525
-23.5
-23.475
-23.45
-23.425
-23.4
-23.375
-23.35
-23.325
-23.3
-23.275
-23.25
-23.225
-23.2
-23.175
-23.15
-23.125
-23.1
-23.075
-23.05
-23.025
-23
-22.975
-22.95
-22.925
-22.9
-22.875
-22.85
-22.825
-22.8
-22.775
-22.75
-22.725
-22.7
-22.675
-22.65
-22.625
-22.6
-22.575
-22.55
-22.525
-22.5
-22.475
-22.45
-22.425
-22.4
-22.375
-22.35
-22.325
-22.3
-22.275
-22.25
-22.225
-22.2
-22.175
-22.15
-22.125
-22.1
-22.075
-22.05
-22.025
-22
-21.975
-21.95
-21.925
-21.9
-21.875
-21.85
-21.825
-21.8
-21.775
-21.75
-21.725
-21.7
-21.675
-21.65
-21.625
-21.6
-21.575
-21.55
-21.525
-21.5
-21.475
-21.45
-21.425
-21.4
-21.375
-21.35
-21.325
-21.3
-21.275
-21.25
-21.225
-21.2
-21.175
-21.15
-21.125
-21.1
-21.075
-21.05
-21.025
-21
-20.975
-20.95
-20.925
-20.9
-20.875
-20.85
-20.825
-20.8
-20.775
-20.75
-20.725
-20.7
-20.675
-20.65
-20.625
-20.6
-20.575
-20.55
-20.525
-20.5
-20.475
-20.45
-20.425
-20.4
-20.375
-20.35
-20.325
-20.3
-20.275
-20.25
-20.225
-20.2
-20.175
-20.15
-20.125
-20.1
-20.075
-20.05
-20.025
-20
VAR_LIST_END
BEGIN
-15.604851,-153.69322
-14.877072,-155.32556
-15.179727,-157.01457
-15.187511,-158.00189
-15.355053,-160.43166
-15.431385,-161.02261
-15.50784,-162.77167
-15.20251,-161.18019
-14.472585,-160.49036
-14.955864,-158.62177
-14.618005,-159.73747
-15.197701,-155.02196
-15.149481,-156.12297
-14.8315,-157.60208
-14.673667,-159.76231
-15.653361,-161.66048
-14.988516,-163.22906
-14.568703,-163.1524
-15.238698,-160.06435
-14.978535,-160.71817
-14.968561,-158.51596
-15.162832,-154.62805
-15.603946,-158.7242
-15.069926,-157.58244
-15.137013,-160.78374
-15.430366,-156.54526
-15.220202,-160.55457
-15.230536,-158.83315
-15.253903,-160.83633
-15.265752,-157.08965
-14.469164,-158.1913
-14.184324,-158.88608
-15.284682,-156.57558
-14.588151,-159.75482
-14.981841,-161.40929
-14.783364,-162.01335
-14.635928,-158.11867
-15.366047,-156.79253
-15.046214,-160.89972
-15.295937,-156.06604
-15.145111,-160.61409
-14.644376,-160.32915
-14.485024,-157.77103
-15.755749,-162.83902
-14.807084,-159.91376
-15.080346,-160.17061
-14.995295,-155.26627
-14.542331,-158.57001
-14.407147,-158.01385
-15.013088,-159.83902
-14.802509,-158.46126
-15.867053,-157.75912
-14.858089,-160.25012
-14.768741,-157.50003
-15.385643,-158.93538
-14.684826,-161.16182
-14.235161,-157.43875
-15.263122,-161.98764
-14.928515,-159.60718
-14.982108,-156.5009
-14.447453,-160.44054
-15.133265,-156.53877
-15.669831,-159.83614
-14.98979,-158.14601
-14.928344,-159.58188
-15.362393,-161.74966
-14.79218,-156.79233
-15.352844,-160.22435
-14.624974,-160.69337
-15.150981,-156.56743
-14.621952,-159.50267
-15.031145,-157.49062
-15.138597,-154.81595
-15.846622,-158.17986
-15.196766,-159.89146
-14.564161,-158.52428
-15.321259,-160.6866
-15.297191,-163.81219
-15.092685,-154.92175
-14.538291,-158.10382
-15.257239,-163.09695
-15.382814,-159.76601
-14.965817,-158.91924
-15.300467,-163.49867
-15.355576,-161.74506
-14.710551,-160.35098
-14.906124,-159.30667
-14.931474,-156.8277
-14.789936,-160.23238
-14.936276,-154.62906
-15.116844,-155.0253
-14.512539,-159.99338
-15.157504,-157.82286
-15.20809,-159.53198
-14.858397,-156.71033
-15.373653,-155.1344
-15.160935,-157.45721
-15.243222,-157.3309
-15.103542,-158.21864
-15.593202,-157.33734
-15.256781,-156.99413
-14.589473,-162.29581
-14.731611,-157.64243
-14.962423,-158.05339
-15.2377,-158.36658
-14.881049,-158.88609
-14.805363,-155.82257
-15.087601,-156.57945
-14.349973,-159.73155
-14.558453,-155.42583
-15.014078,-155.40169
-14.55694,-158.45523
-14.892296,-159.22052
-15.30672,-159.42081
-14.884691,-160.80438
-14.890841,-161.2802
-14.781577,-156.29062
-14.637649,-159.50722
-14.950712,-158.02203
-15.572279,-156.61975
-15.269564,-161.59271
-15.354276,-160.68781
-15.269913,-161.58936
-15.669577,-157.38791
-15.052606,-160.82292
-16.133047,-158.2513
-15.682266,-159.30597
-14.650743,-159.35411
-14.61855,-160.81398
-15.200975,-157.00241
-15.446347,-156.06415
-15.525217,-156.33388
-15.578719,-159.57678
-14.730953,-160.83423
-15.188208,-156.16586
-14.614263,-160.14738
-14.930948,-158.90474
-14.668997,-154.76807
-14.836069,-162.42468
-15.782728,-160.17403
-14.957072,-160.92812
-14.835409,-156.54381
-15.043839,-156.00424
-15.28855,-155.87292
-15.155149,-158.8441
-14.980883,-160.32677
-15.208625,-160.10428
-15.109944,-159.30707
-14.790373,-160.68904
-15.024274,-156.06505
-14.708764,-159.38693
-15.118856,-163.87729
-14.920205,-160.12259
-14.728849,-160.4713
-15.142562,-160.99004
-14.930413,-161.83432
-14.603374,-158.90506
-15.048858,-159.70828
-14.541824,-159.63295
-15.390686,-161.84592
-14.834559,-156.50592
-15.415762,-158.16197
-15.031421,-159.47015
-14.854985,-161.61191
-14.751254,-159.8476
-15.060637,-158.36464
-15.214999,-157.78773
-15.051097,-158.76794
-14.90049,-157.59831
-14.97393,-159.33585
-15.104199,-157.45589
-15.071593,-159.60144
-15.183944,-158.26152
-15.06632,-160.25372
-15.243092,-163.28354
-14.86972,-156.73228
-14.412082,-160.73006
-14.887418,-155.77498
-14.502489,-158.51962
-15.686724,-159.87425
-15.057684,-158.48372
-14.641802,-157.93651
-15.150124,-159.32008
-15.174953,-158.86192
-14.635889,-160.2587
-14.799859,-158.21761
-15.428608,-161.31065
-14.974033,-157.42438
-15.205903,-156.94072
-15.513941,-159.3401
-15.247023,-161.09962
-14.906673,-160.37601
-14.742352,-160.9528
-15.158045,-158.2709
-15.316662,-162.01726
-15.143478,-157.90327
-14.93495,-160.1801
-15.26951,-155.6848
-15.557085,-160.51535
-15.152671,-156.50824
-15.079298,-160.2226
-14.880832,-156.49738
-15.271679,-159.7702
-14.856325,-158.38432
-14.946465,-160.49803
-15.210055,-158.46506
-14.584641,-161.71706
-15.026141,-156.35991
-15.143041,-157.78876
-14.871432,-158.49133
-15.200475,-161.2179
-15.536306,-160.96017
-15.050336,-160.22838
-14.994171,-160.21953
-15.625145,-157.63629
-14.365473,-157.38196
-15.183542,-157.6937
-15.015599,-158.89046
-15.067809,-157.75293
-15.16066,-160.58699
-14.443241,-158.90448
-14.90364,-158.72864
-14.974758,-159.91136
-14.858279,-157.0714
-14.920014,-154.39825
-15.280906,-160.68047
-15.089005,-160.16711
-14.943732,-161.67236
-15.007504,-158.91228
-14.965548,-157.05577
-14.652173,-158.78485
-15.114994,-157.82184
-15.433892,-158.38087
-14.580102,-158.15596
-15.376381,-157.99437
-14.836321,-161.49493
-14.879975,-159.96806
-14.957486,-160.80988
-14.943525,-154.53951
-15.017394,-158.93813
-14.628492,-158.82314
-15.03367,-156.49716
-15.116153,-159.23091
-14.903156,-160.2327
-15.261952,-157.5477
-15.257099,-161.45105
-15.09469,-161.1586
-14.990683,-158.83749
-14.784301,-158.00755
-15.205733,-157.01038
-15.089585,-159.39587
-14.537773,-159.18697
-15.333599,-156.15622
-14.991397,-159.89246
-14.953164,-161.01492
-14.89183,-156.54718
-15.067806,-157.57816
-15.052561,-158.27002
-15.174384,-156.71677
-15.478216,-157.24519
-14.923134,-156.54562
-14.746773,-161.19031
-15.237522,-161.08546
-15.077492,-157.14713
-14.964872,-157.94533
-14.910236,-161.8074
-14.830368,-158.47154
-14.990805,-157.75644
-15.223476,-159.70099
-14.916178,-159.22218
-15.249787,-159.33578
-15.431345,-157.59807
-14.653095,-158.63066
-14.720189,-157.47536
-14.690876,-157.37903
-14.697231,-158.8299
-15.29653,-157.26414
-14.590793,-157.84705
-14.746966,-158.04253
-15.562751,-163.371
-15.212522,-157.36839
-15.316339,-157.25964
-14.945351,-158.32942
-14.917915,-159.0631
-15.270799,-160.82315
-14.77284,-158.74854
-15.263429,-158.38693
-15.170761,-157.53493
-14.995708,-159.59431
-14.712631,-158.2796
-14.771684,-160.07739
-14.890027,-160.13934
-14.460412,-160.10136
-14.77714,-159.49709
-14.903153,-159.56369
-15.255389,-157.54047
-14.506033,-158.34111
-14.778172,-159.74071
-15.072428,-160.47029
-15.231446,-159.98819
-14.966475,-160.55807
-15.346203,-161.42712
-15.053308,-157.35204
-15.521688,-158.34727
-14.776728,-159.33345
-15.016035,-158.07069
-14.840009,-161.47722
-15.135818,-160.84485
-14.878544,-157.62184
-14.717927,-160.36008
-15.462225,-157.24765
-14.949368,-159.70271
-15.52632,-158.54929
-14.863663,-159.43555
-15.005263,-158.99269
-14.972626,-158.81902
-14.957007,-158.79875
-15.228154,-158.85136
-15.292482,-157.34874
-15.206186,-157.95815
-15.014737,-159.52036
-14.921048,-158.93692
-14.938677,-160.08415
-15.211866,-159.51465
-15.032581,-156.77032
-14.941661,-158.94012
-15.044108,-159.32672
-15.136584,-159.83186
-15.01698,-159.50548
-14.86617,-160.3961
-14.751071,-160.35191
-14.86776,-160.16718
-14.735408,-159.70929
-15.121127,-158.49579
-15.126158,-159.18852
-15.102847,-161.2917
-15.447239,-158.64809
-14.989746,-159.24174
-14.963295,-159.80577
-14.851662,-161.26428
-15.09826,-159.94493
-15.177645,-158.21156
-15.150003,-159.3994
-15.143077,-159.30827
-15.158647,-156.98016
-15.132503,-159.54195
-14.93092,-157.02928
-15.014276,-156.85168
-14.675398,-159.06874
-15.019611,-159.87917
-14.925795,-158.87579
-15.159693,-159.48474
-14.904384,-157.87663
-14.831232,-158.91783
-15.014002,-158.57648
-14.954946,-157.5007
-14.725382,-157.33932
-15.064054,-159.25201
-14.77319,-159.41891
-15.587938,-161.68674
-15.05997,-159.90984
-15.05347,-157.02965
-15.215463,-159.86084
-14.970082,-158.06654
-14.994724,-158.12535
-14.9436,-158.96556
-14.790275,-159.35654
-15.021826,-159.29759
-14.992229,-158.54602
-15.002834,-159.69888
-14.782388,-157.39023
-14.849682,-158.14838
-15.137341,-158.02876
-14.882812,-159.49345
-15.166393,-157.78482
-15.318564,-158.0491
-14.838075,-158.81416
-14.558575,-159.3606
-14.921966,-159.87698
-15.085994,-160.09645
-14.894324,-158.8504
-14.744579,-157.71964
-14.920834,-158.02159
-14.778668,-157.36212
-14.71379,-158.30327
-14.995626,-158.49588
-15.237187,-157.19901
-15.050801,-159.85829
-15.080186,-157.67247
-14.945281,-159.05058
-15.081041,-158.75624
-15.180902,-158.86885
-15.096913,-158.79262
-15.073576,-157.4649
-15.153429,-158.27599
-14.948135,-159.21127
-15.124542,-158.03078
-14.993432,-158.02249
-15.145605,-158.95755
-15.0369,-158.02582
-14.850536,-157.41975
-15.153861,-157.63692
-14.961004,-157.14281
-15.168324,-158.64882
-14.97781,-158.6433
-15.259246,-159.98799
-15.265494,-159.14191
-15.003239,-160.24069
-15.315549,-158.0768
-15.149282,-159.21001
-15.036835,-159.04326
-15.003961,-159.50792
-14.918819,-159.76463
-15.107259,-157.34251
-14.85148,-159.8286
-15.110731,-157.62285
-15.039676,-158.9799
-14.980006,-158.59315
-14.763739,-159.94908
-14.961838,-158.26741
-15.035677,-159.46463
-14.828307,-159.2722
-14.8652,-158.36
-14.772813,-159.60416
-14.792704,-160.10501
-15.028666,-158.99652
-15.033549,-157.72926
-14.866543,-158.3645
-14.938155,-159.50648
-15.018317,-159.12997
-15.103159,-158.70224
-14.819325,-157.45984
-14.816826,-158.78618
-15.230874,-158.70201
-15.146921,-157.97014
-14.976246,-158.48352
-15.080226,-156.42592
-15.014083,-158.49648
-15.018445,-159.61757
-14.737723,-159.16975
-15.209832,-159.56325
-14.787497,-158.44949
-15.105359,-158.99022
-15.015114,-158.9789
-15.035993,-157.55586
-15.139541,-158.59332
-15.335709,-158.24594
-14.87702,-158.22093
-15.008604,-157.32761
-15.032263,-158.47612
-14.952755,-160.10899
-15.100414,-157.77216
-14.924212,-159.20509
-14.926167,-158.79594
-14.641834,-158.62788
-15.017036,-159.38397
-15.1808,-158.71715
-15.034532,-157.97159
-14.980148,-159.22398
-14.935859,-158.8203
-14.962146,-158.006
-15.032945,-157.71104
-14.799641,-160.05234
-14.921569,-159.22803
-15.005322,-157.0947
-15.13995,-159.21878
-14.920442,-158.83942
-15.01959,-157.98828
-15.045929,-159.47328
-15.006914,-160.35226
-14.82307,-158.3885
-15.068683,-159.4247
-15.000992,-159.00368
-15.174334,-160.16985
-15.130095,-158.00406
-15.26461,-158.10056
-15.203881,-158.78429
-14.849985,-157.15106
-15.006006,-158.14076
-14.810756,-158.21053
-14.902788,-158.46971
-14.94784,-159.57945
-15.211619,-158.94858
-15.035811,-158.14803
-15.256099,-159.32651
-14.921481,-158.58632
-14.935676,-158.54002
-15.187075,-158.1066
-15.036997,-158.25597
-14.797547,-158.58044
-15.181313,-158.95555
-14.894249,-159.56911
-15.135328,-160.02364
-14.930005,-158.0721
-14.908733,-158.81607
-15.168776,-158.66006
-15.011419,-158.73401
-15.155524,-159.16205
-14.896789,-157.68434
-15.30196,-158.91765
-14.953491,-158.78168
-14.851604,-159.24849
-15.164022,-160.13181
-15.065329,-158.30109
-15.038964,-158.39702
-14.787058,-157.77888
-15.149487,-158.52354
-14.948779,-159.82509
-14.978163,-157.86493
-15.19084,-159.23038
-15.072779,-159.73331
-14.802299,-158.68457
-15.069304,-159.79825
-14.997148,-158.90775
-15.126902,-159.79698
-15.074306,-159.37038
-15.164392,-158.89499
-14.996471,-157.88423
-14.770539,-158.30621
-14.901317,-159.24562
-15.154864,-158.13348
-14.974832,-160.00082
-14.986498,-158.62822
-15.131095,-158.85881
-15.102443,-158.28409
-15.159683,-160.39465
-15.047091,-158.57399
-14.781575,-159.5963
-14.881508,-158.60722
-15.171301,-158.15701
-14.972074,-158.13316
-14.964487,-158.60896
-15.01959,-159.16675
-14.941092,-159.35419
-15.123372,-158.99617
-14.873152,-160.18599
-14.844932,-158.46187
-15.19205,-159.56935
-15.178218,-158.80933
-15.030253,-158.94518
-15.13118,-159.57092
-14.990736,-158.51344
-15.12894,-158.84923
-15.084508,-159.28094
-14.902618,-158.80226
-14.981087,-158.48558
-15.195802,-159.7113
-15.055427,-160.39496
-14.995358,-158.47301
-14.93164,-158.51263
-15.052062,-158.8652
-15.178674,-158.92844
-14.953824,-158.7782
-15.002263,-159.02763
-15.031975,-159.40173
-14.987032,-157.33939
-14.975611,-159.14836
-15.106984,-158.95546
-15.004119,-158.64426
-15.12155,-159.02704
-14.876721,-157.85687
-15.051916,-160.68564
-15.007592,-159.00316
-14.946121,-159.86868
-15.008157,-158.5564
-14.971254,-158.18307
-14.864362,-158.73944
-15.065811,-158.17462
-15.025354,-158.30376
-15.06214,-159.03273
-15.028244,-158.7195
-15.142715,-159.96797
-14.906885,-159.46944
-15.019671,-158.79033
-15.112047,-159.12706
-15.155998,-157.86505
