CITIFILE A.01.01
!Agilent Technologies,N5230C,MY48100142,A.08.04.10
!Agilent N5230C: A.08.04.10
!Format: LogMag/Angle
!Date: Monday, August 24, 2020 14:53:24
NAME CH1_DATA
VAR Power MAG 801
DATA S11 DBANGLE
DATA S21 DBANGLE
DATA S12 DBANGLE
DATA S22 DBANGLE
VAR_LIST_BEGIN
-40
-39.975
-39.95
-39.925
-39.9
-39.875
-39.85
-39.825
-39.8
-39.775
-39.75
-39.725
-39.7
-39.675
-39.65
-39.625
-39.6
-39.575
-39.55
-39.525
-39.5
-39.475
-39.45
-39.425
-39.4
-39.375
-39.35
-39.325
-39.3
-39.275
-39.25
-39.225
-39.2
-39.175
-39.15
-39.125
-39.1
-39.075
-39.05
-39.025
-39
-38.975
-38.95
-38.925
-38.9
-38.875
-38.85
-38.825
-38.8
-38.775
-38.75
-38.725
-38.7
-38.675
-38.65
-38.625
-38.6
-38.575
-38.55
-38.525
-38.5
-38.475
-38.45
-38.425
-38.4
-38.375
-38.35
-38.325
-38.3
-38.275
-38.25
-38.225
-38.2
-38.175
-38.15
-38.125
-38.1
-38.075
-38.05
-38.025
-38
-37.975
-37.95
-37.925
-37.9
-37.875
-37.85
-37.825
-37.8
-37.775
-37.75
-37.725
-37.7
-37.675
-37.65
-37.625
-37.6
-37.575
-37.55
-37.525
-37.5
-37.475
-37.45
-37.425
-37.4
-37.375
-37.35
-37.325
-37.3
-37.275
-37.25
-37.225
-37.2
-37.175
-37.15
-37.125
-37.1
-37.075
-37.05
-37.025
-37
-36.975
-36.95
-36.925
-36.9
-36.875
-36.85
-36.825
-36.8
-36.775
-36.75
-36.725
-36.7
-36.675
-36.65
-36.625
-36.6
-36.575
-36.55
-36.525
-36.5
-36.475
-36.45
-36.425
-36.4
-36.375
-36.35
-36.325
-36.3
-36.275
-36.25
-36.225
-36.2
-36.175
-36.15
-36.125
-36.1
-36.075
-36.05
-36.025
-36
-35.975
-35.95
-35.925
-35.9
-35.875
-35.85
-35.825
-35.8
-35.775
-35.75
-35.725
-35.7
-35.675
-35.65
-35.625
-35.6
-35.575
-35.55
-35.525
-35.5
-35.475
-35.45
-35.425
-35.4
-35.375
-35.35
-35.325
-35.3
-35.275
-35.25
-35.225
-35.2
-35.175
-35.15
-35.125
-35.1
-35.075
-35.05
-35.025
-35
-34.975
-34.95
-34.925
-34.9
-34.875
-34.85
-34.825
-34.8
-34.775
-34.75
-34.725
-34.7
-34.675
-34.65
-34.625
-34.6
-34.575
-34.55
-34.525
-34.5
-34.475
-34.45
-34.425
-34.4
-34.375
-34.35
-34.325
-34.3
-34.275
-34.25
-34.225
-34.2
-34.175
-34.15
-34.125
-34.1
-34.075
-34.05
-34.025
-34
-33.975
-33.95
-33.925
-33.9
-33.875
-33.85
-33.825
-33.8
-33.775
-33.75
-33.725
-33.7
-33.675
-33.65
-33.625
-33.6
-33.575
-33.55
-33.525
-33.5
-33.475
-33.45
-33.425
-33.4
-33.375
-33.35
-33.325
-33.3
-33.275
-33.25
-33.225
-33.2
-33.175
-33.15
-33.125
-33.1
-33.075
-33.05
-33.025
-33
-32.975
-32.95
-32.925
-32.9
-32.875
-32.85
-32.825
-32.8
-32.775
-32.75
-32.725
-32.7
-32.675
-32.65
-32.625
-32.6
-32.575
-32.55
-32.525
-32.5
-32.475
-32.45
-32.425
-32.4
-32.375
-32.35
-32.325
-32.3
-32.275
-32.25
-32.225
-32.2
-32.175
-32.15
-32.125
-32.1
-32.075
-32.05
-32.025
-32
-31.975
-31.95
-31.925
-31.9
-31.875
-31.85
-31.825
-31.8
-31.775
-31.75
-31.725
-31.7
-31.675
-31.65
-31.625
-31.6
-31.575
-31.55
-31.525
-31.5
-31.475
-31.45
-31.425
-31.4
-31.375
-31.35
-31.325
-31.3
-31.275
-31.25
-31.225
-31.2
-31.175
-31.15
-31.125
-31.1
-31.075
-31.05
-31.025
-31
-30.975
-30.95
-30.925
-30.9
-30.875
-30.85
-30.825
-30.8
-30.775
-30.75
-30.725
-30.7
-30.675
-30.65
-30.625
-30.6
-30.575
-30.55
-30.525
-30.5
-30.475
-30.45
-30.425
-30.4
-30.375
-30.35
-30.325
-30.3
-30.275
-30.25
-30.225
-30.2
-30.175
-30.15
-30.125
-30.1
-30.075
-30.05
-30.025
-30
-29.975
-29.95
-29.925
-29.9
-29.875
-29.85
-29.825
-29.8
-29.775
-29.75
-29.725
-29.7
-29.675
-29.65
-29.625
-29.6
-29.575
-29.55
-29.525
-29.5
-29.475
-29.45
-29.425
-29.4
-29.375
-29.35
-29.325
-29.3
-29.275
-29.25
-29.225
-29.2
-29.175
-29.15
-29.125
-29.1
-29.075
-29.05
-29.025
-29
-28.975
-28.95
-28.925
-28.9
-28.875
-28.85
-28.825
-28.8
-28.775
-28.75
-28.725
-28.7
-28.675
-28.65
-28.625
-28.6
-28.575
-28.55
-28.525
-28.5
-28.475
-28.45
-28.425
-28.4
-28.375
-28.35
-28.325
-28.3
-28.275
-28.25
-28.225
-28.2
-28.175
-28.15
-28.125
-28.1
-28.075
-28.05
-28.025
-28
-27.975
-27.95
-27.925
-27.9
-27.875
-27.85
-27.825
-27.8
-27.775
-27.75
-27.725
-27.7
-27.675
-27.65
-27.625
-27.6
-27.575
-27.55
-27.525
-27.5
-27.475
-27.45
-27.425
-27.4
-27.375
-27.35
-27.325
-27.3
-27.275
-27.25
-27.225
-27.2
-27.175
-27.15
-27.125
-27.1
-27.075
-27.05
-27.025
-27
-26.975
-26.95
-26.925
-26.9
-26.875
-26.85
-26.825
-26.8
-26.775
-26.75
-26.725
-26.7
-26.675
-26.65
-26.625
-26.6
-26.575
-26.55
-26.525
-26.5
-26.475
-26.45
-26.425
-26.4
-26.375
-26.35
-26.325
-26.3
-26.275
-26.25
-26.225
-26.2
-26.175
-26.15
-26.125
-26.1
-26.075
-26.05
-26.025
-26
-25.975
-25.95
-25.925
-25.9
-25.875
-25.85
-25.825
-25.8
-25.775
-25.75
-25.725
-25.7
-25.675
-25.65
-25.625
-25.6
-25.575
-25.55
-25.525
-25.5
-25.475
-25.45
-25.425
-25.4
-25.375
-25.35
-25.325
-25.3
-25.275
-25.25
-25.225
-25.2
-25.175
-25.15
-25.125
-25.1
-25.075
-25.05
-25.025
-25
-24.975
-24.95
-24.925
-24.9
-24.875
-24.85
-24.825
-24.8
-24.775
-24.75
-24.725
-24.7
-24.675
-24.65
-24.625
-24.6
-24.575
-24.55
-24.525
-24.5
-24.475
-24.45
-24.425
-24.4
-24.375
-24.35
-24.325
-24.3
-24.275
-24.25
-24.225
-24.2
-24.175
-24.15
-24.125
-24.1
-24.075
-24.05
-24.025
-24
-23.975
-23.95
-23.925
-23.9
-23.875
-23.85
-23.825
-23.8
-23.775
-23.75
-23.725
-23.7
-23.675
-23.65
-23.625
-23.6
-23.575
-23.55
-23.525
-23.5
-23.475
-23.45
-23.425
-23.4
-23.375
-23.35
-23.325
-23.3
-23.275
-23.25
-23.225
-23.2
-23.175
-23.15
-23.125
-23.1
-23.075
-23.05
-23.025
-23
-22.975
-22.95
-22.925
-22.9
-22.875
-22.85
-22.825
-22.8
-22.775
-22.75
-22.725
-22.7
-22.675
-22.65
-22.625
-22.6
-22.575
-22.55
-22.525
-22.5
-22.475
-22.45
-22.425
-22.4
-22.375
-22.35
-22.325
-22.3
-22.275
-22.25
-22.225
-22.2
-22.175
-22.15
-22.125
-22.1
-22.075
-22.05
-22.025
-22
-21.975
-21.95
-21.925
-21.9
-21.875
-21.85
-21.825
-21.8
-21.775
-21.75
-21.725
-21.7
-21.675
-21.65
-21.625
-21.6
-21.575
-21.55
-21.525
-21.5
-21.475
-21.45
-21.425
-21.4
-21.375
-21.35
-21.325
-21.3
-21.275
-21.25
-21.225
-21.2
-21.175
-21.15
-21.125
-21.1
-21.075
-21.05
-21.025
-21
-20.975
-20.95
-20.925
-20.9
-20.875
-20.85
-20.825
-20.8
-20.775
-20.75
-20.725
-20.7
-20.675
-20.65
-20.625
-20.6
-20.575
-20.55
-20.525
-20.5
-20.475
-20.45
-20.425
-20.4
-20.375
-20.35
-20.325
-20.3
-20.275
-20.25
-20.225
-20.2
-20.175
-20.15
-20.125
-20.1
-20.075
-20.05
-20.025
-20
VAR_LIST_END
BEGIN
-14.750687,-162.04448
-14.855784,-157.8905
-14.570581,-157.85667
-15.763186,-157.4688
-15.077508,-159.78596
-15.763247,-156.32909
-14.671819,-150.87407
-14.45191,-158.96564
-15.976035,-153.09134
-15.173064,-158.58139
-15.113585,-163.08752
-14.464437,-155.37154
-15.077839,-157.92824
-15.209511,-161.55771
-14.826454,-153.67337
-14.885208,-155.91066
-15.397606,-153.65019
-15.329273,-154.16422
-15.087902,-163.92754
-14.559045,-157.9753
-15.566374,-155.04625
-14.719039,-162.33394
-14.905224,-160.11546
-15.542453,-157.48151
-15.322145,-158.992
-15.355489,-157.99626
-14.768572,-161.24753
-14.551407,-159.24379
-14.899402,-159.36777
-14.333869,-160.56584
-15.347221,-157.35913
-14.618684,-156.53343
-14.584003,-160.62056
-15.176455,-159.11464
-15.105641,-158.25359
-15.248607,-156.38965
-15.27626,-162.14124
-14.480271,-153.74828
-15.525016,-158.17171
-15.02706,-157.93686
-14.69681,-157.26234
-15.007236,-160.08693
-14.641704,-158.89189
-14.917484,-153.12918
-15.294945,-156.40836
-15.770476,-162.62253
-15.079136,-160.41411
-14.62821,-158.54071
-14.904296,-159.1944
-15.337366,-156.99095
-16.081856,-160.04044
-15.39179,-160.15215
-14.823603,-159.33035
-14.887083,-158.31778
-15.335311,-159.0276
-15.120439,-158.02968
-15.269006,-162.2421
-14.274993,-158.75339
-14.66621,-156.43498
-14.045291,-153.58582
-14.472955,-160.27914
-15.669653,-156.24959
-14.847029,-160.53436
-15.324565,-162.09088
-15.042591,-159.84979
-14.932089,-161.22192
-14.797657,-161.59329
-16.068157,-156.98535
-14.875114,-158.54387
-15.090448,-161.94438
-15.813131,-157.59811
-15.134831,-152.75432
-14.623483,-159.75674
-15.516172,-158.31448
-15.106022,-156.24474
-15.135489,-157.94261
-15.752595,-157.08731
-15.460538,-156.7166
-14.506777,-159.65881
-15.526385,-156.34438
-14.932516,-159.51895
-15.287397,-159.96364
-15.525233,-155.5349
-15.536873,-157.80298
-14.929235,-155.63275
-15.415671,-153.85173
-15.470098,-156.44011
-14.296253,-159.84917
-14.555978,-156.36092
-13.860543,-162.42465
-14.810466,-158.89055
-14.156006,-159.1653
-15.265881,-157.72531
-15.171889,-159.48151
-15.164721,-156.32091
-14.861169,-158.66147
-14.41083,-155.57582
-14.711059,-158.00069
-15.423489,-160.9211
-14.417453,-163.30038
-14.992252,-158.19595
-15.250588,-161.08148
-15.072338,-159.063
-14.929756,-156.80745
-14.58958,-158.79718
-15.006467,-158.89003
-15.340098,-157.30508
-15.258067,-159.74333
-14.840318,-157.95654
-15.323365,-163.15436
-14.871799,-160.97263
-15.450257,-159.84575
-14.870743,-159.25836
-14.806634,-157.94469
-15.441676,-161.07144
-15.595801,-156.05992
-15.108035,-161.40233
-14.781917,-161.06
-15.134844,-155.90276
-15.261121,-158.17554
-15.474234,-158.43938
-14.934759,-160.11876
-14.982217,-159.68161
-15.013693,-158.08061
-14.864689,-159.47842
-15.64492,-153.31985
-14.881025,-160.33849
-14.65937,-156.47844
-15.463134,-158.05701
-14.870856,-157.98004
-15.464842,-158.73698
-15.461043,-161.12686
-15.443021,-156.65967
-15.013412,-162.27992
-14.784495,-153.2121
-14.687884,-157.22522
-15.330994,-157.10072
-15.070357,-160.58344
-14.982961,-159.81677
-15.363513,-160.75873
-15.095442,-158.2374
-15.31516,-158.70299
-15.313217,-156.41603
-14.711111,-158.30034
-14.217798,-160.2572
-15.512174,-156.17775
-14.967839,-159.81784
-15.398689,-158.38229
-15.363001,-161.41359
-14.970133,-158.35539
-15.278179,-162.29532
-15.265821,-161.25092
-14.882553,-161.00201
-15.180447,-159.2879
-15.618823,-159.67296
-15.058755,-160.02829
-14.862111,-160.01469
-14.447498,-159.80063
-14.67913,-160.62073
-14.918161,-155.63499
-15.123846,-157.25716
-14.876987,-155.85005
-15.265053,-157.67441
-15.734476,-158.78995
-15.17634,-158.64774
-14.579288,-160.6185
-15.42936,-161.07401
-15.325121,-157.35474
-14.92583,-159.55515
-15.544294,-156.26469
-15.009472,-160.02617
-15.1356,-160.32222
-15.402233,-156.32759
-14.999454,-156.63556
-14.71787,-156.36685
-15.49737,-159.57803
-15.39205,-159.55019
-15.228335,-160.3302
-15.316607,-157.6013
-15.619874,-160.18776
-14.905796,-157.89288
-14.93997,-160.07254
-15.227483,-161.67191
-14.70099,-157.03845
-15.317027,-156.2606
-14.493876,-160.43698
-14.986248,-157.74091
-15.269529,-159.46127
-14.969488,-158.69885
-15.617094,-157.23158
-14.988791,-158.04092
-14.810552,-158.28583
-15.232142,-157.48212
-15.062082,-160.92343
-15.537356,-159.20853
-14.9353,-161.47829
-15.420837,-157.59068
-15.764202,-158.81444
-15.184215,-156.69667
-14.425575,-156.16348
-15.466086,-156.96298
-15.016052,-160.49919
-14.551528,-156.98836
-14.671794,-159.62914
-15.106444,-158.11482
-14.267055,-157.99948
-15.413657,-158.33971
-15.079456,-160.01756
-14.989366,-159.84027
-15.086684,-161.71227
-14.619781,-162.3591
-14.880463,-159.30008
-14.852043,-155.15765
-15.068656,-158.24048
-15.592488,-159.97963
-15.276262,-159.54256
-15.198559,-160.39995
-15.51264,-156.13527
-15.346052,-157.62589
-14.762435,-161.46803
-14.720899,-159.01076
-15.787941,-161.96114
-14.910874,-159.66295
-15.078172,-158.10956
-15.484941,-162.21143
-15.510489,-159.80238
-14.916894,-160.3652
-14.557939,-160.73067
-15.161298,-159.78375
-14.975656,-158.04414
-14.795613,-158.93257
-15.62874,-157.54558
-15.620575,-155.4382
-15.230961,-160.1736
-15.280627,-159.32678
-15.41912,-157.47853
-15.13483,-162.66913
-14.600274,-161.74879
-15.387152,-157.40686
-14.712015,-158.28265
-15.518624,-156.5126
-15.238451,-159.35634
-15.105052,-157.20558
-15.292523,-160.92845
-15.058249,-157.16505
-15.005281,-158.40723
-15.345867,-159.88855
-15.125699,-157.67889
-15.202779,-157.81654
-14.967539,-159.6983
-15.08385,-157.83717
-15.022648,-157.79291
-15.301417,-157.58954
-15.338137,-159.049
-14.792098,-156.35254
-14.511196,-156.66759
-15.678527,-157.28758
-15.164332,-160.15727
-15.103007,-159.60657
-14.721725,-157.87456
-14.86624,-157.95042
-15.234941,-161.37787
-15.093493,-158.90271
-14.813023,-159.58206
-15.094625,-154.99706
-14.796695,-161.18983
-14.998206,-158.86377
-15.710785,-159.94627
-15.276169,-160.99759
-14.88273,-156.6176
-15.23984,-161.39188
-15.268018,-161.21335
-14.906087,-160.32182
-15.299835,-157.46056
-14.963476,-157.34546
-14.978808,-157.14711
-15.18764,-162.237
-14.979631,-159.8064
-14.992515,-158.83092
-14.954259,-159.7048
-15.532395,-158.61404
-15.039611,-159.48459
-15.411493,-159.66052
-15.081051,-159.32137
-14.799211,-159.35056
-15.125909,-156.88609
-14.996045,-159.18257
-15.353347,-156.60294
-15.293622,-159.20221
-15.385105,-159.42648
-15.191171,-159.5105
-14.969728,-160.11299
-14.967264,-160.77908
-14.529189,-158.62669
-15.326025,-156.20198
-15.36465,-157.36154
-14.896177,-158.50752
-15.159694,-160.67737
-15.181213,-159.04253
-15.104286,-155.59261
-14.859812,-158.73924
-14.843132,-157.36826
-14.940981,-155.80464
-14.96849,-160.49304
-15.083529,-156.88495
-14.655498,-161.10701
-15.143631,-157.52443
-14.956767,-158.63931
-14.939724,-162.14201
-14.5259,-159.65329
-14.841191,-159.29309
-15.594914,-158.45285
-15.210257,-158.21925
-15.350559,-160.54214
-15.040975,-156.14447
-15.35992,-158.97388
-15.169837,-158.20192
-14.990911,-161.14742
-15.207269,-159.78157
-15.089011,-157.9214
-14.811996,-159.48599
-14.936542,-158.77568
-15.059237,-160.58926
-14.920977,-160.46248
-15.079212,-158.98593
-15.015697,-158.75496
-14.895163,-158.93254
-14.944345,-159.77972
-15.493036,-159.99547
-14.952048,-156.42267
-15.330993,-159.13354
-15.092042,-160.31462
-15.242112,-160.84796
-15.430853,-159.34462
-14.918032,-160.3344
-15.134443,-157.55859
-15.159875,-160.90646
-15.43294,-161.02379
-15.147394,-158.5889
-15.04889,-157.15599
-14.830897,-158.6689
-14.850099,-160.76665
-14.843742,-159.33012
-15.104092,-157.44492
-15.155996,-158.44942
-15.370795,-158.78563
-14.80866,-159.57779
-14.923235,-161.37109
-14.967181,-160.5959
-14.908179,-157.33018
-14.880624,-157.41016
-15.014189,-158.73181
-15.217054,-157.70152
-14.799235,-158.48503
-15.102324,-158.31645
-14.829782,-157.75024
-14.986006,-158.4624
-14.973932,-158.26213
-15.183749,-156.9644
-15.149102,-161.66805
-15.091207,-159.80009
-15.148273,-156.72485
-14.791246,-158.6068
-14.917767,-160.99167
-15.047836,-159.1032
-14.952006,-157.54089
-15.37148,-158.89366
-15.496192,-158.77147
-15.168028,-155.27881
-14.851431,-159.6302
-15.000187,-159.3996
-14.865932,-159.42012
-15.352834,-157.2618
-14.944509,-158.88405
-14.841835,-160.4951
-14.91377,-158.80815
-15.03226,-158.8387
-15.123226,-160.0719
-15.096801,-159.92169
-14.995119,-159.32712
-14.872188,-157.50647
-14.664282,-160.27475
-15.026864,-157.18959
-14.718797,-158.12833
-15.148527,-157.61349
-14.909966,-157.08914
-15.032202,-159.90639
-15.091663,-159.33302
-15.075393,-156.10416
-14.870881,-158.40379
-15.528767,-157.92873
-14.785526,-160.75496
-15.222322,-157.54233
-15.106611,-160.66724
-14.875133,-159.56958
-15.121842,-157.78116
-14.604903,-159.25858
-15.135191,-158.41472
-15.23622,-159.87741
-15.163961,-159.56624
-14.968124,-158.18265
-15.232099,-159.00369
-15.034002,-157.71324
-15.185603,-158.48441
-15.062821,-156.66429
-14.943882,-158.03441
-15.247377,-158.1438
-14.935819,-158.56458
-14.949537,-159.50679
-14.964829,-157.02602
-15.205368,-157.98581
-15.290589,-158.67854
-15.070003,-158.12614
-14.936461,-158.76598
-14.884,-157.12378
-14.904621,-159.71378
-14.8865,-159.89587
-15.08829,-157.63385
-14.922921,-158.34207
-14.605417,-158.55498
-15.404613,-158.80746
-14.60174,-157.63408
-15.165325,-159.35701
-14.904344,-159.39857
-15.050805,-159.32405
-15.115181,-160.23837
-14.969543,-157.73027
-15.021861,-159.13104
-15.078473,-158.88144
-14.901749,-161.6673
-14.788878,-158.62593
-14.644929,-157.79353
-15.219928,-158.53134
-15.154363,-158.59398
-15.160815,-157.90263
-14.809587,-159.64317
-15.108175,-158.71797
-15.145946,-159.78825
-15.145591,-159.74001
-15.014575,-159.13124
-14.942347,-161.49466
-15.008498,-158.64015
-14.913808,-157.22198
-15.210305,-158.09334
-15.150622,-160.08203
-15.259362,-159.70584
-15.028123,-159.18297
-15.171022,-158.94592
-15.011105,-159.27361
-15.072312,-158.96942
-14.960861,-158.04419
-15.07198,-156.68338
-15.218727,-158.85933
-14.86015,-157.28242
-15.169344,-159.78561
-15.25031,-158.73436
-14.99222,-157.92165
-15.383384,-158.69794
-15.011088,-155.90736
-14.736564,-156.7715
-15.152947,-158.60422
-15.072602,-159.23587
-14.964615,-158.39978
-15.021393,-157.57188
-15.037233,-159.39787
-15.401884,-156.80742
-15.105254,-156.10173
-15.043777,-158.3335
-14.954908,-159.61426
-14.961851,-159.63504
-15.014987,-157.4182
-15.116282,-157.90688
-14.947309,-159.2047
-15.308105,-158.03191
-15.131745,-155.82082
-15.421815,-159.11786
-15.212725,-157.05023
-14.882762,-159.96605
-14.693336,-156.75169
-14.978443,-159.35701
-14.97291,-158.99124
-14.96791,-159.66933
-14.987849,-157.77577
-15.081454,-158.9969
-14.937728,-158.86369
-15.218925,-159.71942
-15.314564,-156.81761
-15.268208,-158.68594
-14.979295,-159.5248
-15.185713,-159.28212
-14.909932,-157.90143
-14.907634,-156.78957
-14.924364,-158.47691
-15.082008,-159.9572
-15.089958,-158.88565
-15.193567,-158.54158
-14.971445,-159.06598
-15.06799,-159.58473
-15.157374,-158.46475
-14.973314,-159.34187
-14.855418,-159.63132
-15.107681,-158.58769
-15.218848,-157.3237
-15.127036,-158.25087
-15.060732,-159.20677
-14.82763,-157.5323
-15.233766,-157.48517
-15.016534,-157.96173
-15.061755,-159.72342
-15.020928,-158.55392
-15.166841,-157.86777
-15.221174,-160.00327
-15.059301,-157.60002
-15.075315,-158.22667
-14.965005,-159.27824
-14.853726,-158.51462
-14.992528,-157.49248
-14.998545,-159.14581
-15.048624,-157.8714
-15.202637,-158.93413
-15.092428,-159.35213
-15.061295,-158.28633
-14.897491,-158.12114
-14.798704,-159.62706
-14.973418,-157.28281
-15.022374,-158.19537
-14.982384,-159.12138
-14.805261,-158.93179
-14.91504,-158.36359
-15.010474,-158.46165
-15.113506,-157.90518
-15.108081,-159.01143
-15.162594,-157.80464
-15.016576,-159.1586
-14.968039,-158.58786
-14.909371,-158.54451
-15.133352,-159.70691
-14.918094,-159.09026
-15.244361,-158.66528
-15.109241,-159.40482
-15.215295,-157.638
-14.972569,-159.78752
-15.249373,-158.08191
-15.199837,-159.30257
-15.034608,-158.19952
-14.890315,-158.80428
-14.910474,-159.40854
-15.130657,-159.50186
-14.928218,-157.43512
-15.008669,-159.77742
-15.092587,-157.93848
-15.023849,-159.39426
-15.031692,-159.07632
-15.129125,-159.4928
-14.942088,-158.90002
-15.203867,-158.58636
-14.922564,-158.39236
-15.049726,-157.25766
-14.994217,-160.21573
-15.01689,-158.32462
-15.053089,-159.87589
-15.050949,-158.40871
-15.133229,-157.56612
-15.160483,-157.5807
-15.031988,-157.32495
-15.168366,-158.09303
-15.120455,-158.72131
-15.066297,-157.8454
-15.019835,-158.57809
-15.167813,-158.41809
-15.013102,-158.19708
-14.920413,-158.21173
-14.863133,-158.02545
-14.824015,-159.81613
-14.915657,-157.93707
-15.184443,-158.03001
