CITIFILE A.01.01
!Agilent Technologies,N5230C,MY48100142,A.08.04.10
!Agilent N5230C: A.08.04.10
!Format: LogMag/Angle
!Date: Monday, August 03, 2020 11:25:12
NAME CH1_DATA
VAR Power MAG 801
DATA S11 DBANGLE
DATA S21 DBANGLE
DATA S12 DBANGLE
DATA S22 DBANGLE
VAR_LIST_BEGIN
-40
-39.975
-39.95
-39.925
-39.9
-39.875
-39.85
-39.825
-39.8
-39.775
-39.75
-39.725
-39.7
-39.675
-39.65
-39.625
-39.6
-39.575
-39.55
-39.525
-39.5
-39.475
-39.45
-39.425
-39.4
-39.375
-39.35
-39.325
-39.3
-39.275
-39.25
-39.225
-39.2
-39.175
-39.15
-39.125
-39.1
-39.075
-39.05
-39.025
-39
-38.975
-38.95
-38.925
-38.9
-38.875
-38.85
-38.825
-38.8
-38.775
-38.75
-38.725
-38.7
-38.675
-38.65
-38.625
-38.6
-38.575
-38.55
-38.525
-38.5
-38.475
-38.45
-38.425
-38.4
-38.375
-38.35
-38.325
-38.3
-38.275
-38.25
-38.225
-38.2
-38.175
-38.15
-38.125
-38.1
-38.075
-38.05
-38.025
-38
-37.975
-37.95
-37.925
-37.9
-37.875
-37.85
-37.825
-37.8
-37.775
-37.75
-37.725
-37.7
-37.675
-37.65
-37.625
-37.6
-37.575
-37.55
-37.525
-37.5
-37.475
-37.45
-37.425
-37.4
-37.375
-37.35
-37.325
-37.3
-37.275
-37.25
-37.225
-37.2
-37.175
-37.15
-37.125
-37.1
-37.075
-37.05
-37.025
-37
-36.975
-36.95
-36.925
-36.9
-36.875
-36.85
-36.825
-36.8
-36.775
-36.75
-36.725
-36.7
-36.675
-36.65
-36.625
-36.6
-36.575
-36.55
-36.525
-36.5
-36.475
-36.45
-36.425
-36.4
-36.375
-36.35
-36.325
-36.3
-36.275
-36.25
-36.225
-36.2
-36.175
-36.15
-36.125
-36.1
-36.075
-36.05
-36.025
-36
-35.975
-35.95
-35.925
-35.9
-35.875
-35.85
-35.825
-35.8
-35.775
-35.75
-35.725
-35.7
-35.675
-35.65
-35.625
-35.6
-35.575
-35.55
-35.525
-35.5
-35.475
-35.45
-35.425
-35.4
-35.375
-35.35
-35.325
-35.3
-35.275
-35.25
-35.225
-35.2
-35.175
-35.15
-35.125
-35.1
-35.075
-35.05
-35.025
-35
-34.975
-34.95
-34.925
-34.9
-34.875
-34.85
-34.825
-34.8
-34.775
-34.75
-34.725
-34.7
-34.675
-34.65
-34.625
-34.6
-34.575
-34.55
-34.525
-34.5
-34.475
-34.45
-34.425
-34.4
-34.375
-34.35
-34.325
-34.3
-34.275
-34.25
-34.225
-34.2
-34.175
-34.15
-34.125
-34.1
-34.075
-34.05
-34.025
-34
-33.975
-33.95
-33.925
-33.9
-33.875
-33.85
-33.825
-33.8
-33.775
-33.75
-33.725
-33.7
-33.675
-33.65
-33.625
-33.6
-33.575
-33.55
-33.525
-33.5
-33.475
-33.45
-33.425
-33.4
-33.375
-33.35
-33.325
-33.3
-33.275
-33.25
-33.225
-33.2
-33.175
-33.15
-33.125
-33.1
-33.075
-33.05
-33.025
-33
-32.975
-32.95
-32.925
-32.9
-32.875
-32.85
-32.825
-32.8
-32.775
-32.75
-32.725
-32.7
-32.675
-32.65
-32.625
-32.6
-32.575
-32.55
-32.525
-32.5
-32.475
-32.45
-32.425
-32.4
-32.375
-32.35
-32.325
-32.3
-32.275
-32.25
-32.225
-32.2
-32.175
-32.15
-32.125
-32.1
-32.075
-32.05
-32.025
-32
-31.975
-31.95
-31.925
-31.9
-31.875
-31.85
-31.825
-31.8
-31.775
-31.75
-31.725
-31.7
-31.675
-31.65
-31.625
-31.6
-31.575
-31.55
-31.525
-31.5
-31.475
-31.45
-31.425
-31.4
-31.375
-31.35
-31.325
-31.3
-31.275
-31.25
-31.225
-31.2
-31.175
-31.15
-31.125
-31.1
-31.075
-31.05
-31.025
-31
-30.975
-30.95
-30.925
-30.9
-30.875
-30.85
-30.825
-30.8
-30.775
-30.75
-30.725
-30.7
-30.675
-30.65
-30.625
-30.6
-30.575
-30.55
-30.525
-30.5
-30.475
-30.45
-30.425
-30.4
-30.375
-30.35
-30.325
-30.3
-30.275
-30.25
-30.225
-30.2
-30.175
-30.15
-30.125
-30.1
-30.075
-30.05
-30.025
-30
-29.975
-29.95
-29.925
-29.9
-29.875
-29.85
-29.825
-29.8
-29.775
-29.75
-29.725
-29.7
-29.675
-29.65
-29.625
-29.6
-29.575
-29.55
-29.525
-29.5
-29.475
-29.45
-29.425
-29.4
-29.375
-29.35
-29.325
-29.3
-29.275
-29.25
-29.225
-29.2
-29.175
-29.15
-29.125
-29.1
-29.075
-29.05
-29.025
-29
-28.975
-28.95
-28.925
-28.9
-28.875
-28.85
-28.825
-28.8
-28.775
-28.75
-28.725
-28.7
-28.675
-28.65
-28.625
-28.6
-28.575
-28.55
-28.525
-28.5
-28.475
-28.45
-28.425
-28.4
-28.375
-28.35
-28.325
-28.3
-28.275
-28.25
-28.225
-28.2
-28.175
-28.15
-28.125
-28.1
-28.075
-28.05
-28.025
-28
-27.975
-27.95
-27.925
-27.9
-27.875
-27.85
-27.825
-27.8
-27.775
-27.75
-27.725
-27.7
-27.675
-27.65
-27.625
-27.6
-27.575
-27.55
-27.525
-27.5
-27.475
-27.45
-27.425
-27.4
-27.375
-27.35
-27.325
-27.3
-27.275
-27.25
-27.225
-27.2
-27.175
-27.15
-27.125
-27.1
-27.075
-27.05
-27.025
-27
-26.975
-26.95
-26.925
-26.9
-26.875
-26.85
-26.825
-26.8
-26.775
-26.75
-26.725
-26.7
-26.675
-26.65
-26.625
-26.6
-26.575
-26.55
-26.525
-26.5
-26.475
-26.45
-26.425
-26.4
-26.375
-26.35
-26.325
-26.3
-26.275
-26.25
-26.225
-26.2
-26.175
-26.15
-26.125
-26.1
-26.075
-26.05
-26.025
-26
-25.975
-25.95
-25.925
-25.9
-25.875
-25.85
-25.825
-25.8
-25.775
-25.75
-25.725
-25.7
-25.675
-25.65
-25.625
-25.6
-25.575
-25.55
-25.525
-25.5
-25.475
-25.45
-25.425
-25.4
-25.375
-25.35
-25.325
-25.3
-25.275
-25.25
-25.225
-25.2
-25.175
-25.15
-25.125
-25.1
-25.075
-25.05
-25.025
-25
-24.975
-24.95
-24.925
-24.9
-24.875
-24.85
-24.825
-24.8
-24.775
-24.75
-24.725
-24.7
-24.675
-24.65
-24.625
-24.6
-24.575
-24.55
-24.525
-24.5
-24.475
-24.45
-24.425
-24.4
-24.375
-24.35
-24.325
-24.3
-24.275
-24.25
-24.225
-24.2
-24.175
-24.15
-24.125
-24.1
-24.075
-24.05
-24.025
-24
-23.975
-23.95
-23.925
-23.9
-23.875
-23.85
-23.825
-23.8
-23.775
-23.75
-23.725
-23.7
-23.675
-23.65
-23.625
-23.6
-23.575
-23.55
-23.525
-23.5
-23.475
-23.45
-23.425
-23.4
-23.375
-23.35
-23.325
-23.3
-23.275
-23.25
-23.225
-23.2
-23.175
-23.15
-23.125
-23.1
-23.075
-23.05
-23.025
-23
-22.975
-22.95
-22.925
-22.9
-22.875
-22.85
-22.825
-22.8
-22.775
-22.75
-22.725
-22.7
-22.675
-22.65
-22.625
-22.6
-22.575
-22.55
-22.525
-22.5
-22.475
-22.45
-22.425
-22.4
-22.375
-22.35
-22.325
-22.3
-22.275
-22.25
-22.225
-22.2
-22.175
-22.15
-22.125
-22.1
-22.075
-22.05
-22.025
-22
-21.975
-21.95
-21.925
-21.9
-21.875
-21.85
-21.825
-21.8
-21.775
-21.75
-21.725
-21.7
-21.675
-21.65
-21.625
-21.6
-21.575
-21.55
-21.525
-21.5
-21.475
-21.45
-21.425
-21.4
-21.375
-21.35
-21.325
-21.3
-21.275
-21.25
-21.225
-21.2
-21.175
-21.15
-21.125
-21.1
-21.075
-21.05
-21.025
-21
-20.975
-20.95
-20.925
-20.9
-20.875
-20.85
-20.825
-20.8
-20.775
-20.75
-20.725
-20.7
-20.675
-20.65
-20.625
-20.6
-20.575
-20.55
-20.525
-20.5
-20.475
-20.45
-20.425
-20.4
-20.375
-20.35
-20.325
-20.3
-20.275
-20.25
-20.225
-20.2
-20.175
-20.15
-20.125
-20.1
-20.075
-20.05
-20.025
-20
VAR_LIST_END
BEGIN
-15.258482,-153.77484
-15.108973,-159.00465
-14.739187,-154.90323
-15.400029,-164.93497
-15.50132,-156.87393
-15.013734,-161.87247
-14.752368,-157.66019
-14.730182,-163.20802
-15.561455,-159.61836
-14.423246,-159.51036
-15.496862,-159.68628
-14.92405,-157.101
-14.039612,-162.55791
-15.568216,-161.31372
-15.006526,-150.01643
-14.623509,-160.16023
-14.655366,-163.48329
-14.587621,-164.33133
-15.17997,-160.12935
-15.633465,-163.2545
-14.802488,-154.62785
-15.333614,-163.31546
-15.291673,-157.32831
-15.575411,-156.64067
-15.288506,-156.11766
-15.424272,-161.24861
-13.810298,-160.73746
-13.931881,-159.6523
-15.958717,-157.85834
-15.094879,-157.26758
-14.299964,-160.54942
-14.549529,-155.54045
-15.518826,-153.46904
-14.886097,-160.85696
-14.505869,-161.96318
-15.447276,-155.9348
-15.261438,-160.7953
-15.149692,-159.19829
-15.58327,-155.6208
-14.91855,-162.18547
-15.625022,-160.22026
-15.241084,-155.93875
-14.75565,-157.76172
-14.699315,-162.5919
-15.994222,-157.30646
-14.732677,-158.86752
-15.719607,-161.20444
-13.82516,-162.26025
-14.347386,-160.88794
-14.3538,-163.36316
-15.164363,-159.97449
-15.438477,-157.48097
-15.264395,-154.85454
-15.861699,-160.61607
-15.34219,-162.91286
-14.670592,-155.72462
-15.228478,-158.84221
-15.783249,-158.11002
-15.775017,-157.99902
-16.034573,-154.46071
-15.119684,-158.63312
-15.075461,-166.41397
-14.337405,-161.938
-15.105159,-153.66364
-15.40467,-151.27835
-15.105369,-155.98358
-15.207861,-156.95514
-14.510047,-158.4057
-15.133272,-160.37274
-14.933525,-158.78648
-15.491446,-164.60747
-14.70647,-155.44101
-15.263612,-165.35532
-14.601887,-161.81268
-15.503737,-162.39754
-14.632147,-163.40277
-15.153465,-161.05191
-15.323285,-158.1888
-14.219846,-155.82263
-14.936989,-162.46111
-16.376472,-159.49274
-15.584249,-160.38875
-14.803557,-162.13107
-15.41376,-160.89339
-15.433437,-155.83824
-14.651021,-163.35648
-14.98296,-162.84352
-14.913074,-157.2869
-15.091448,-163.11699
-16.003485,-155.22128
-15.000691,-160.30849
-14.997439,-158.88353
-15.79446,-158.6123
-15.514333,-159.96581
-15.268682,-161.63292
-14.228044,-159.92998
-15.405878,-161.80301
-15.385921,-157.63426
-15.090465,-163.3432
-14.11097,-160.11145
-14.551103,-159.54398
-15.18353,-157.89456
-15.162802,-156.18556
-14.73079,-160.1855
-15.269236,-156.99666
-15.125848,-162.94034
-15.397405,-162.78819
-14.352258,-158.96019
-15.023547,-159.99214
-15.393789,-161.11604
-14.438357,-157.42183
-14.851304,-158.2784
-14.818273,-160.94295
-15.313854,-163.2972
-15.091807,-159.63115
-15.343547,-161.52286
-15.587946,-163.20959
-15.100049,-155.14565
-15.244015,-157.16803
-15.849449,-159.65186
-15.334993,-155.98009
-15.371764,-162.66121
-14.629461,-157.98145
-14.31594,-156.48012
-16.019398,-159.54338
-15.91595,-161.35144
-14.786544,-160.87953
-15.001672,-162.21486
-15.323765,-160.89943
-14.908894,-158.20766
-14.905181,-157.61575
-15.259755,-155.58617
-15.213861,-158.58524
-15.456308,-156.49139
-15.324551,-154.27345
-15.469206,-160.34279
-15.293849,-159.47372
-14.464837,-162.65509
-15.833988,-159.64743
-15.553371,-163.32486
-15.27702,-160.90372
-14.776926,-162.57594
-15.026492,-159.67911
-15.146619,-158.81938
-15.139799,-161.35017
-15.697145,-157.41893
-14.72075,-158.58784
-14.575339,-155.98605
-14.792682,-157.31651
-14.95538,-159.31639
-14.872051,-159.8985
-14.952974,-159.42703
-15.098397,-161.42381
-15.64143,-161.41156
-16.081608,-157.62294
-14.427562,-160.43666
-14.816902,-158.03198
-14.395316,-160.15767
-15.240093,-158.16225
-15.344177,-158.22041
-15.062692,-160.4761
-15.048837,-156.74991
-15.388995,-157.02974
-15.345884,-153.49026
-14.739865,-159.8385
-14.501204,-158.63745
-14.667038,-155.24617
-14.954777,-160.61218
-15.509239,-158.00093
-14.301756,-163.62256
-15.685627,-162.07703
-15.12638,-160.08624
-15.13076,-162.78035
-14.941154,-161.99345
-14.948708,-156.7036
-15.180768,-162.31213
-15.573244,-157.86298
-14.620113,-158.94214
-15.282063,-160.46739
-15.331959,-159.64607
-15.286481,-159.29471
-15.120816,-157.35022
-15.763412,-158.47705
-14.760363,-164.12915
-14.778123,-161.01979
-15.101199,-161.6194
-16.020756,-157.17839
-15.225139,-159.64149
-15.260563,-162.75548
-15.31251,-158.50255
-14.990489,-158.30449
-15.022148,-159.85808
-14.890553,-164.94257
-15.343795,-157.03763
-15.675996,-156.3183
-15.530357,-159.3042
-14.894938,-158.12729
-14.688577,-156.83728
-15.180015,-158.09737
-14.66961,-162.59955
-15.49692,-155.10762
-15.108275,-160.07469
-14.594657,-161.55298
-14.635022,-157.73965
-15.001559,-161.99699
-15.255476,-160.84996
-14.982794,-159.43251
-15.074797,-158.60628
-15.152562,-159.50385
-15.242729,-160.63577
-14.944551,-160.06433
-16.007299,-161.73343
-14.943365,-163.96078
-14.822509,-160.85399
-15.184726,-160.54941
-15.320746,-157.30107
-15.413236,-160.59152
-15.013112,-162.32762
-15.257495,-157.87637
-15.069559,-161.54794
-14.888833,-160.44098
-14.585404,-158.07976
-15.249413,-158.87688
-15.189077,-160.56563
-15.442234,-157.26735
-15.167809,-160.41135
-15.426264,-161.88367
-14.836324,-159.51801
-14.815558,-160.7738
-14.795053,-160.3466
-15.187102,-160.36655
-14.542514,-160.12782
-14.755267,-161.5143
-15.497136,-162.39284
-15.335567,-163.30022
-14.289637,-161.15094
-15.545205,-157.12892
-14.523441,-159.55917
-15.660471,-163.99234
-14.779618,-157.01906
-14.812946,-158.64229
-15.359205,-159.035
-15.28153,-157.45636
-15.140631,-163.21762
-15.358758,-158.55464
-15.215173,-157.50568
-15.297615,-162.72414
-15.898643,-159.4998
-15.13168,-160.06381
-15.338106,-159.35884
-14.990875,-154.70671
-14.831109,-161.76016
-14.911448,-158.33275
-15.879665,-158.31973
-15.689339,-160.50536
-14.784111,-158.16289
-15.104346,-157.78293
-15.132935,-153.92091
-15.290704,-155.23116
-15.027019,-159.50435
-15.278597,-158.33635
-15.155182,-158.02179
-14.997422,-160.21828
-14.585871,-156.68654
-15.362374,-158.85342
-14.664506,-159.52716
-15.04287,-161.60757
-15.493015,-158.19724
-14.648017,-159.21104
-15.44371,-157.27438
-14.460361,-154.65077
-15.472792,-160.94827
-15.226682,-158.43819
-15.391606,-161.52643
-15.15624,-163.77924
-14.906292,-158.09203
-15.225027,-156.66115
-15.096196,-156.64209
-14.892367,-160.16235
-14.884679,-160.55516
-15.048974,-157.88898
-15.086186,-161.71964
-15.538802,-163.64876
-14.97352,-162.31651
-15.244185,-159.81584
-15.425499,-158.62393
-16.035303,-155.98096
-14.921177,-160.67767
-15.093128,-156.40428
-15.401393,-159.73201
-14.978193,-158.64394
-15.014805,-158.60605
-15.062315,-159.60641
-14.911128,-157.98071
-14.914966,-159.24251
-15.383191,-159.37508
-14.998079,-161.43881
-15.097805,-157.93831
-14.917671,-160.46335
-15.198889,-158.67574
-14.855066,-157.31715
-15.173173,-157.38171
-15.375262,-160.42462
-15.320386,-156.78146
-15.555955,-160.46692
-15.196521,-160.93816
-14.959218,-159.33432
-15.110625,-157.15623
-14.9902,-159.41434
-15.264959,-158.0253
-14.98082,-158.46059
-15.391078,-158.71512
-15.18231,-157.67729
-15.091427,-160.02553
-15.219287,-161.24022
-15.114176,-157.35495
-15.474257,-162.52431
-14.868714,-160.23553
-15.345407,-160.98492
-15.3721,-159.42804
-15.145644,-161.02188
-15.20761,-161.82663
-15.260927,-158.86984
-15.332255,-156.86281
-15.034894,-155.95609
-14.639179,-158.86786
-15.08918,-159.50822
-15.523729,-157.8083
-14.773159,-160.31444
-15.178151,-161.06316
-14.917815,-159.10951
-15.032101,-159.07567
-15.051194,-161.95276
-15.036954,-160.21054
-15.046514,-159.04156
-14.996661,-159.21817
-15.17084,-161.22749
-15.463197,-158.69362
-14.959991,-159.6707
-15.035376,-161.2048
-15.252588,-160.82263
-14.651872,-158.55385
-14.916257,-159.89165
-14.965294,-160.71913
-15.402293,-159.49626
-14.90453,-157.94128
-15.323668,-159.58821
-15.030919,-159.8781
-15.423039,-162.34583
-14.86764,-158.71507
-15.00208,-161.65157
-15.071923,-156.91084
-14.849285,-159.91115
-15.506812,-162.56458
-15.497375,-154.71382
-15.153889,-159.0567
-15.19276,-159.27235
-15.098594,-159.36687
-15.241667,-161.6514
-14.821345,-160.00291
-14.730455,-158.3744
-14.724362,-159.23221
-15.706659,-157.57671
-15.184505,-158.04227
-15.208475,-159.13272
-15.317653,-159.91451
-15.416875,-159.67603
-15.249116,-158.87477
-15.13094,-159.0405
-15.245884,-159.06522
-15.189505,-157.77493
-15.448946,-157.29541
-14.96246,-160.2916
-15.358427,-157.05699
-15.28493,-158.78905
-15.356972,-160.33351
-15.097259,-158.34203
-15.080976,-158.92166
-15.141747,-159.74431
-15.050753,-159.85353
-15.128554,-159.32753
-15.259266,-159.28285
-14.874947,-158.89665
-15.327395,-159.99577
-14.852669,-157.86595
-15.018882,-159.59317
-15.237854,-158.59836
-14.802358,-159.31932
-15.149706,-158.06648
-14.968629,-157.30551
-14.748284,-159.17719
-15.2263,-160.61203
-14.783137,-158.16441
-15.507808,-161.28154
-15.082394,-159.35965
-14.921831,-159.53383
-15.085437,-160.20808
-15.091573,-158.34404
-14.975599,-160.56512
-14.872331,-159.96347
-15.069981,-158.78052
-14.931889,-160.66054
-15.125318,-156.5274
-15.499227,-159.97914
-15.217312,-159.50024
-15.118157,-157.73598
-15.172933,-158.2746
-15.422612,-158.85455
-15.145255,-161.67889
-15.042156,-160.02274
-15.259327,-159.84225
-15.229057,-159.25024
-14.801589,-161.98457
-15.165466,-161.10518
-14.828134,-159.16446
-14.652936,-160.06984
-14.748785,-159.89099
-14.834648,-160.32338
-15.177648,-161.30521
-14.892873,-160.27942
-15.34597,-159.14351
-15.116364,-159.88928
-15.312953,-159.7164
-15.008245,-156.70636
-14.815358,-160.05785
-15.209989,-159.2511
-15.079412,-160.48213
-14.93095,-161.21375
-15.200197,-161.60796
-15.257648,-159.03366
-15.262458,-160.95758
-15.068249,-157.56889
-15.085279,-157.86974
-15.2518,-160.79761
-14.979955,-159.02811
-15.306125,-160.38429
-15.028385,-158.55389
-15.268023,-158.44691
-15.166574,-160.73889
-15.189578,-159.77565
-15.02507,-161.15843
-14.859399,-159.95674
-15.12869,-158.02664
-15.275868,-159.15189
-14.773417,-158.68285
-15.409861,-160.43881
-14.888225,-161.16212
-15.438977,-160.37088
-15.277178,-156.74084
-15.063211,-157.99945
-14.817659,-158.15158
-14.981239,-159.81621
-15.129583,-160.43559
-15.011733,-159.43134
-14.895685,-159.37944
-15.342777,-160.97803
-15.231635,-160.90634
-15.141806,-158.95438
-15.056486,-162.54805
-15.133728,-158.44647
-15.294284,-158.8248
-14.894373,-159.76714
-15.043284,-159.26698
-14.974563,-159.14906
-15.210295,-160.47984
-15.13415,-159.12354
-14.998853,-159.41339
-14.960971,-159.79158
-15.268665,-158.89713
-14.969954,-158.43806
-15.165637,-160.31323
-14.841542,-158.54018
-15.247963,-159.99142
-14.947702,-159.62659
-15.219533,-158.57457
-15.15438,-159.50671
-14.975348,-160.15178
-15.010765,-160.09654
-14.830212,-159.58423
-14.885391,-159.22995
-15.24817,-159.85872
-15.220401,-158.991
-15.058335,-158.63455
-15.153917,-158.73741
-14.954398,-159.15625
-15.150221,-159.93375
-15.031804,-157.29778
-14.972152,-158.808
-15.260799,-157.27255
-15.30218,-159.68517
-15.109117,-158.89185
-15.010368,-159.62418
-14.858599,-161.14902
-15.147066,-158.58678
-15.098737,-160.20454
-14.9217,-159.28778
-15.228554,-160.41496
-15.192115,-158.48892
-15.064329,-158.86186
-14.994474,-159.94843
-15.101171,-158.49243
-15.093797,-159.09367
-15.285287,-159.07838
-15.158615,-158.66286
-15.060955,-159.05643
-15.094082,-160.93356
-15.125497,-160.73573
-15.262872,-160.07387
-15.2769,-159.81842
-14.938488,-159.23978
-14.693352,-160.73199
-15.284358,-159.18845
-15.320911,-161.04338
-15.038158,-159.16557
-14.935085,-160.62492
-15.307627,-159.41942
-15.028442,-158.96706
-14.779207,-160.33325
-14.962945,-158.43898
-15.169926,-158.93994
-15.184309,-159.36713
-15.085335,-160.28351
-14.924655,-158.83429
-15.276958,-160.74263
-14.981159,-159.22467
-15.052233,-159.04698
-15.086031,-158.52068
-15.037606,-159.94556
-14.977035,-159.76009
-15.024725,-159.52858
-15.106844,-158.41185
-15.11862,-159.95857
-15.19318,-158.90541
-15.071277,-161.58136
-15.184137,-158.63499
-14.985856,-160.70996
-14.885715,-159.10802
-15.067292,-158.44301
-15.068201,-160.95352
-15.16379,-160.15897
-15.267959,-159.17441
-15.017498,-159.40984
-15.31642,-158.89203
-15.090775,-159.42387
-15.042548,-159.49431
-15.049721,-160.14767
-15.246255,-158.98004
-15.145548,-158.07748
-15.277421,-159.46822
-15.245954,-158.69662
-15.022445,-157.479
-14.9147,-159.334
-15.086722,-160.96591
-15.090955,-158.25183
-15.099658,-159.49422
-15.216341,-158.05766
-14.970383,-158.57289
-15.321583,-158.23013
-15.184801,-158.7533
-15.045031,-160.64938
-15.069589,-159.42703
-15.313249,-159.7364
-15.234715,-159.97929
-15.302187,-158.39438
-14.774383,-159.66325
-15.09094,-157.29556
-14.909659,-159.01202
-15.158859,-159.05289
-15.164646,-159.06635
-15.080349,-159.61522
-14.858366,-160.55482
-15.20203,-160.54169
-14.963456,-160.23691
-15.025743,-160.10544
-15.248871,-160.15033
-15.128419,-159.36119
