CITIFILE A.01.01
!Agilent Technologies,N5230C,MY48100142,A.08.04.10
!Agilent N5230C: A.08.04.10
!Format: LogMag/Angle
!Date: Monday, August 03, 2020 11:30:03
NAME CH1_DATA
VAR Power MAG 801
DATA S11 DBANGLE
DATA S21 DBANGLE
DATA S12 DBANGLE
DATA S22 DBANGLE
VAR_LIST_BEGIN
-40
-39.975
-39.95
-39.925
-39.9
-39.875
-39.85
-39.825
-39.8
-39.775
-39.75
-39.725
-39.7
-39.675
-39.65
-39.625
-39.6
-39.575
-39.55
-39.525
-39.5
-39.475
-39.45
-39.425
-39.4
-39.375
-39.35
-39.325
-39.3
-39.275
-39.25
-39.225
-39.2
-39.175
-39.15
-39.125
-39.1
-39.075
-39.05
-39.025
-39
-38.975
-38.95
-38.925
-38.9
-38.875
-38.85
-38.825
-38.8
-38.775
-38.75
-38.725
-38.7
-38.675
-38.65
-38.625
-38.6
-38.575
-38.55
-38.525
-38.5
-38.475
-38.45
-38.425
-38.4
-38.375
-38.35
-38.325
-38.3
-38.275
-38.25
-38.225
-38.2
-38.175
-38.15
-38.125
-38.1
-38.075
-38.05
-38.025
-38
-37.975
-37.95
-37.925
-37.9
-37.875
-37.85
-37.825
-37.8
-37.775
-37.75
-37.725
-37.7
-37.675
-37.65
-37.625
-37.6
-37.575
-37.55
-37.525
-37.5
-37.475
-37.45
-37.425
-37.4
-37.375
-37.35
-37.325
-37.3
-37.275
-37.25
-37.225
-37.2
-37.175
-37.15
-37.125
-37.1
-37.075
-37.05
-37.025
-37
-36.975
-36.95
-36.925
-36.9
-36.875
-36.85
-36.825
-36.8
-36.775
-36.75
-36.725
-36.7
-36.675
-36.65
-36.625
-36.6
-36.575
-36.55
-36.525
-36.5
-36.475
-36.45
-36.425
-36.4
-36.375
-36.35
-36.325
-36.3
-36.275
-36.25
-36.225
-36.2
-36.175
-36.15
-36.125
-36.1
-36.075
-36.05
-36.025
-36
-35.975
-35.95
-35.925
-35.9
-35.875
-35.85
-35.825
-35.8
-35.775
-35.75
-35.725
-35.7
-35.675
-35.65
-35.625
-35.6
-35.575
-35.55
-35.525
-35.5
-35.475
-35.45
-35.425
-35.4
-35.375
-35.35
-35.325
-35.3
-35.275
-35.25
-35.225
-35.2
-35.175
-35.15
-35.125
-35.1
-35.075
-35.05
-35.025
-35
-34.975
-34.95
-34.925
-34.9
-34.875
-34.85
-34.825
-34.8
-34.775
-34.75
-34.725
-34.7
-34.675
-34.65
-34.625
-34.6
-34.575
-34.55
-34.525
-34.5
-34.475
-34.45
-34.425
-34.4
-34.375
-34.35
-34.325
-34.3
-34.275
-34.25
-34.225
-34.2
-34.175
-34.15
-34.125
-34.1
-34.075
-34.05
-34.025
-34
-33.975
-33.95
-33.925
-33.9
-33.875
-33.85
-33.825
-33.8
-33.775
-33.75
-33.725
-33.7
-33.675
-33.65
-33.625
-33.6
-33.575
-33.55
-33.525
-33.5
-33.475
-33.45
-33.425
-33.4
-33.375
-33.35
-33.325
-33.3
-33.275
-33.25
-33.225
-33.2
-33.175
-33.15
-33.125
-33.1
-33.075
-33.05
-33.025
-33
-32.975
-32.95
-32.925
-32.9
-32.875
-32.85
-32.825
-32.8
-32.775
-32.75
-32.725
-32.7
-32.675
-32.65
-32.625
-32.6
-32.575
-32.55
-32.525
-32.5
-32.475
-32.45
-32.425
-32.4
-32.375
-32.35
-32.325
-32.3
-32.275
-32.25
-32.225
-32.2
-32.175
-32.15
-32.125
-32.1
-32.075
-32.05
-32.025
-32
-31.975
-31.95
-31.925
-31.9
-31.875
-31.85
-31.825
-31.8
-31.775
-31.75
-31.725
-31.7
-31.675
-31.65
-31.625
-31.6
-31.575
-31.55
-31.525
-31.5
-31.475
-31.45
-31.425
-31.4
-31.375
-31.35
-31.325
-31.3
-31.275
-31.25
-31.225
-31.2
-31.175
-31.15
-31.125
-31.1
-31.075
-31.05
-31.025
-31
-30.975
-30.95
-30.925
-30.9
-30.875
-30.85
-30.825
-30.8
-30.775
-30.75
-30.725
-30.7
-30.675
-30.65
-30.625
-30.6
-30.575
-30.55
-30.525
-30.5
-30.475
-30.45
-30.425
-30.4
-30.375
-30.35
-30.325
-30.3
-30.275
-30.25
-30.225
-30.2
-30.175
-30.15
-30.125
-30.1
-30.075
-30.05
-30.025
-30
-29.975
-29.95
-29.925
-29.9
-29.875
-29.85
-29.825
-29.8
-29.775
-29.75
-29.725
-29.7
-29.675
-29.65
-29.625
-29.6
-29.575
-29.55
-29.525
-29.5
-29.475
-29.45
-29.425
-29.4
-29.375
-29.35
-29.325
-29.3
-29.275
-29.25
-29.225
-29.2
-29.175
-29.15
-29.125
-29.1
-29.075
-29.05
-29.025
-29
-28.975
-28.95
-28.925
-28.9
-28.875
-28.85
-28.825
-28.8
-28.775
-28.75
-28.725
-28.7
-28.675
-28.65
-28.625
-28.6
-28.575
-28.55
-28.525
-28.5
-28.475
-28.45
-28.425
-28.4
-28.375
-28.35
-28.325
-28.3
-28.275
-28.25
-28.225
-28.2
-28.175
-28.15
-28.125
-28.1
-28.075
-28.05
-28.025
-28
-27.975
-27.95
-27.925
-27.9
-27.875
-27.85
-27.825
-27.8
-27.775
-27.75
-27.725
-27.7
-27.675
-27.65
-27.625
-27.6
-27.575
-27.55
-27.525
-27.5
-27.475
-27.45
-27.425
-27.4
-27.375
-27.35
-27.325
-27.3
-27.275
-27.25
-27.225
-27.2
-27.175
-27.15
-27.125
-27.1
-27.075
-27.05
-27.025
-27
-26.975
-26.95
-26.925
-26.9
-26.875
-26.85
-26.825
-26.8
-26.775
-26.75
-26.725
-26.7
-26.675
-26.65
-26.625
-26.6
-26.575
-26.55
-26.525
-26.5
-26.475
-26.45
-26.425
-26.4
-26.375
-26.35
-26.325
-26.3
-26.275
-26.25
-26.225
-26.2
-26.175
-26.15
-26.125
-26.1
-26.075
-26.05
-26.025
-26
-25.975
-25.95
-25.925
-25.9
-25.875
-25.85
-25.825
-25.8
-25.775
-25.75
-25.725
-25.7
-25.675
-25.65
-25.625
-25.6
-25.575
-25.55
-25.525
-25.5
-25.475
-25.45
-25.425
-25.4
-25.375
-25.35
-25.325
-25.3
-25.275
-25.25
-25.225
-25.2
-25.175
-25.15
-25.125
-25.1
-25.075
-25.05
-25.025
-25
-24.975
-24.95
-24.925
-24.9
-24.875
-24.85
-24.825
-24.8
-24.775
-24.75
-24.725
-24.7
-24.675
-24.65
-24.625
-24.6
-24.575
-24.55
-24.525
-24.5
-24.475
-24.45
-24.425
-24.4
-24.375
-24.35
-24.325
-24.3
-24.275
-24.25
-24.225
-24.2
-24.175
-24.15
-24.125
-24.1
-24.075
-24.05
-24.025
-24
-23.975
-23.95
-23.925
-23.9
-23.875
-23.85
-23.825
-23.8
-23.775
-23.75
-23.725
-23.7
-23.675
-23.65
-23.625
-23.6
-23.575
-23.55
-23.525
-23.5
-23.475
-23.45
-23.425
-23.4
-23.375
-23.35
-23.325
-23.3
-23.275
-23.25
-23.225
-23.2
-23.175
-23.15
-23.125
-23.1
-23.075
-23.05
-23.025
-23
-22.975
-22.95
-22.925
-22.9
-22.875
-22.85
-22.825
-22.8
-22.775
-22.75
-22.725
-22.7
-22.675
-22.65
-22.625
-22.6
-22.575
-22.55
-22.525
-22.5
-22.475
-22.45
-22.425
-22.4
-22.375
-22.35
-22.325
-22.3
-22.275
-22.25
-22.225
-22.2
-22.175
-22.15
-22.125
-22.1
-22.075
-22.05
-22.025
-22
-21.975
-21.95
-21.925
-21.9
-21.875
-21.85
-21.825
-21.8
-21.775
-21.75
-21.725
-21.7
-21.675
-21.65
-21.625
-21.6
-21.575
-21.55
-21.525
-21.5
-21.475
-21.45
-21.425
-21.4
-21.375
-21.35
-21.325
-21.3
-21.275
-21.25
-21.225
-21.2
-21.175
-21.15
-21.125
-21.1
-21.075
-21.05
-21.025
-21
-20.975
-20.95
-20.925
-20.9
-20.875
-20.85
-20.825
-20.8
-20.775
-20.75
-20.725
-20.7
-20.675
-20.65
-20.625
-20.6
-20.575
-20.55
-20.525
-20.5
-20.475
-20.45
-20.425
-20.4
-20.375
-20.35
-20.325
-20.3
-20.275
-20.25
-20.225
-20.2
-20.175
-20.15
-20.125
-20.1
-20.075
-20.05
-20.025
-20
VAR_LIST_END
BEGIN
-15.294434,-157.54504
-15.188132,-163.25677
-14.726094,-152.49284
-16.345869,-159.16936
-15.701341,-154.868
-14.606841,-164.31438
-14.720755,-163.30246
-15.3253,-151.37492
-16.209236,-164.86073
-15.872849,-157.26622
-13.823444,-158.84123
-15.404153,-160.11548
-14.40281,-158.17726
-15.064213,-160.74982
-14.871791,-159.99368
-14.839549,-158.77061
-14.773944,-161.85425
-15.77361,-159.57948
-14.964972,-159.80229
-14.022951,-162.515
-15.051989,-156.61967
-15.89157,-154.85544
-14.753925,-158.65105
-14.445282,-156.47156
-14.974868,-159.02435
-14.546769,-156.41798
-13.828766,-166.47343
-14.595882,-154.87968
-15.035131,-158.78741
-15.300653,-158.22263
-16.032612,-158.14403
-15.428251,-149.97264
-14.308459,-158.63179
-14.892169,-153.52094
-15.464786,-164.54765
-15.610841,-163.74214
-14.641952,-158.31531
-14.684887,-163.18604
-14.657985,-161.19044
-15.354658,-153.44298
-14.989797,-156.46425
-15.117821,-160.58173
-15.951353,-159.56059
-15.222951,-155.70161
-15.717171,-159.84859
-15.344211,-166.57286
-14.783693,-161.2746
-14.325365,-156.30864
-15.894667,-156.07755
-15.007567,-167.22876
-14.862341,-159.67952
-15.523732,-160.40015
-14.851753,-159.68579
-15.149776,-159.89548
-14.799765,-164.7146
-14.040118,-158.17975
-15.691088,-160.13605
-15.009227,-163.88103
-14.376198,-162.39902
-14.710731,-160.06819
-15.992504,-163.7283
-15.788977,-153.56187
-14.728528,-157.38959
-15.292209,-163.23613
-14.515448,-165.36484
-15.15755,-164.29214
-14.961113,-157.95644
-14.910978,-157.60097
-15.395666,-154.7318
-14.537485,-159.98112
-15.657333,-158.61577
-14.751523,-160.28131
-16.473536,-159.80222
-13.799433,-162.66772
-13.871468,-151.55571
-15.288633,-161.76863
-14.050804,-159.08237
-16.2945,-162.67517
-15.69895,-161.81187
-15.12376,-160.66164
-15.067326,-158.6819
-15.252603,-159.4588
-16.258726,-162.87877
-14.719805,-156.36014
-15.461839,-159.17857
-15.638952,-159.03848
-14.809938,-158.96227
-14.441053,-159.14777
-15.724795,-164.13651
-14.112619,-160.1938
-15.527268,-148.61543
-15.152606,-162.13594
-14.679551,-154.64058
-14.979875,-153.18654
-15.489878,-159.70317
-14.478687,-166.1671
-14.732323,-157.48351
-16.32362,-163.37032
-15.71366,-158.91228
-15.122767,-158.6161
-16.268639,-157.6597
-16.162285,-162.50345
-15.240525,-160.47144
-15.470536,-157.05002
-14.963737,-160.69032
-15.526542,-156.12534
-15.589264,-156.22682
-14.494737,-159.7915
-15.116971,-165.03889
-14.987732,-162.72281
-15.017533,-155.47748
-14.410149,-160.38994
-14.749809,-158.75339
-14.743646,-161.44975
-15.128913,-159.10812
-15.910538,-155.86133
-14.448054,-158.5928
-15.081722,-161.41397
-15.352484,-157.99089
-15.034444,-157.0611
-15.426435,-156.41054
-15.404339,-159.00284
-15.308152,-159.65115
-15.89936,-163.93774
-15.875766,-162.47014
-14.73804,-157.63525
-14.69196,-155.43486
-14.713999,-151.31337
-15.240501,-162.00821
-15.524898,-155.61835
-16.132164,-163.53947
-14.990231,-163.23689
-15.323888,-164.94214
-15.523949,-158.20332
-15.91366,-164.07425
-15.040349,-152.97783
-14.511981,-161.28596
-14.729023,-156.53256
-15.466446,-150.97736
-15.449629,-159.89542
-15.349442,-166.38365
-15.300307,-159.89153
-15.772703,-160.6881
-14.753332,-157.24083
-15.494665,-158.85855
-14.105721,-159.26424
-15.212235,-158.53061
-15.290022,-156.12178
-14.763143,-160.03951
-15.496395,-155.33675
-15.012809,-163.64612
-15.658016,-156.80304
-15.875492,-160.83546
-15.55619,-160.88086
-16.683851,-158.13589
-14.722698,-158.90837
-15.184514,-152.48357
-15.433764,-163.30251
-14.898953,-156.98463
-15.363459,-161.1225
-15.036392,-160.7059
-15.30547,-154.04796
-15.878526,-164.08414
-15.752689,-153.51199
-14.756784,-156.60507
-14.523005,-161.29131
-15.287047,-157.15218
-15.232532,-161.66603
-15.355132,-155.52202
-14.99941,-159.75826
-15.613436,-161.41096
-16.213255,-159.05795
-14.841904,-157.04063
-15.880894,-153.81921
-15.214647,-163.34612
-15.425196,-161.27359
-14.747457,-161.96085
-15.44292,-162.01537
-15.820368,-160.37274
-14.343605,-163.04379
-14.857715,-158.33934
-15.033569,-155.82237
-14.863376,-154.96417
-14.24833,-161.32536
-14.198603,-160.72987
-15.319389,-156.28043
-14.932927,-165.30269
-16.238924,-159.4093
-15.60254,-161.31389
-15.557648,-157.60938
-15.355182,-160.24005
-14.753711,-160.25383
-14.717834,-160.95552
-15.9658,-156.73511
-15.528491,-156.48607
-15.205742,-154.90649
-14.57081,-158.85692
-15.069586,-156.76495
-15.871877,-157.69234
-15.949174,-158.3356
-15.311863,-159.71623
-15.901649,-158.16121
-15.124699,-159.46211
-15.025534,-154.77704
-14.835093,-154.00034
-15.019538,-160.81575
-14.863443,-159.47488
-15.565176,-162.15244
-14.813086,-160.39162
-16.476088,-158.19737
-14.730102,-159.85913
-14.675972,-156.96687
-14.896281,-160.30408
-14.694437,-163.06924
-15.254242,-160.99118
-15.277266,-157.89624
-15.723579,-159.13765
-14.682625,-161.58316
-15.38179,-161.76364
-14.721688,-160.7796
-15.092113,-154.87303
-15.177109,-159.62518
-14.891533,-155.12671
-15.395838,-158.74084
-14.873905,-158.35602
-15.200121,-158.82478
-14.469334,-159.26184
-14.75727,-160.65372
-14.773071,-156.98679
-15.424567,-162.629
-15.011523,-159.63173
-14.712814,-162.36905
-14.930066,-154.21574
-14.698761,-156.03755
-14.490009,-160.09889
-15.267673,-160.70708
-15.346587,-162.28854
-14.849296,-160.98996
-15.116541,-158.16527
-14.738658,-158.6282
-15.880826,-163.17178
-14.875222,-157.95874
-14.50819,-160.52921
-14.943311,-161.18886
-14.710145,-159.78773
-14.767735,-159.25706
-14.619249,-163.63206
-15.254899,-158.88664
-14.595716,-155.07066
-14.67517,-163.20313
-15.522987,-161.16476
-15.430476,-161.59743
-14.821661,-159.52313
-15.368563,-158.11499
-15.508034,-157.45988
-15.218352,-156.36272
-14.854559,-157.41484
-14.929614,-160.38809
-14.171182,-156.08673
-15.227143,-159.58391
-15.229456,-159.60854
-15.654748,-158.63988
-14.845993,-158.82866
-15.308226,-156.68681
-15.350334,-162.54945
-15.112514,-155.84589
-15.258316,-156.45419
-14.753528,-162.35791
-14.830972,-158.22581
-15.609492,-158.1692
-14.804861,-159.19955
-15.599615,-157.29808
-14.608396,-160.59956
-14.868504,-158.92218
-15.483279,-160.91716
-14.543227,-160.65712
-14.830809,-159.73499
-14.774713,-161.42578
-15.452703,-157.59218
-15.129375,-156.16603
-14.941968,-163.08859
-15.233659,-158.36308
-14.74028,-160.57674
-15.44921,-159.30711
-15.245605,-160.16699
-14.965879,-156.78926
-15.323669,-158.88394
-15.527953,-164.63368
-14.825741,-162.16476
-15.073203,-161.1882
-15.123261,-158.39975
-15.073674,-158.32561
-15.079525,-163.0405
-15.412947,-162.55008
-14.926235,-160.93712
-15.437331,-161.63506
-15.403189,-161.40601
-14.745083,-161.37512
-15.212723,-157.2354
-15.153182,-154.84853
-15.694255,-159.47191
-15.030579,-162.66151
-15.311201,-157.79985
-15.124851,-156.94144
-15.497828,-161.00674
-15.469894,-158.36736
-15.136516,-161.76018
-15.109174,-159.73628
-15.243615,-156.85378
-15.039964,-158.23015
-15.110984,-160.47893
-14.960492,-161.11035
-15.565198,-159.46646
-14.895894,-161.17482
-15.219664,-155.50732
-14.608677,-156.84189
-15.032537,-158.80684
-15.129455,-158.13861
-14.668675,-159.26796
-14.923115,-160.62036
-15.482017,-159.25363
-15.447979,-158.17538
-14.811064,-162.81013
-15.203611,-159.64038
-15.063105,-160.32204
-15.010257,-159.99641
-15.657833,-156.42264
-15.009196,-157.23262
-15.254627,-159.06046
-15.279204,-160.07359
-15.273728,-158.9821
-14.824079,-160.54196
-14.933985,-158.75668
-15.278471,-158.00897
-15.25445,-159.59547
-15.188348,-162.32719
-15.265514,-159.53255
-15.581876,-159.81404
-15.42085,-157.71977
-15.013777,-157.6104
-15.154085,-158.55115
-15.625161,-160.4183
-14.719417,-159.80287
-15.060919,-156.46004
-14.84459,-161.82112
-15.190135,-159.28822
-15.045363,-157.23326
-15.230917,-156.87366
-14.909365,-158.08318
-14.554956,-157.54562
-15.579883,-157.72092
-15.437814,-157.03053
-15.380228,-158.99001
-14.922195,-157.06931
-14.963505,-157.58118
-15.008891,-159.02559
-15.423628,-160.34341
-14.890409,-160.46593
-15.013776,-157.58202
-15.052625,-156.69177
-15.107801,-158.01784
-15.127586,-158.88399
-14.76658,-155.50404
-15.194412,-159.19531
-14.722505,-159.33495
-15.297262,-163.23199
-15.252174,-156.66179
-15.428558,-157.55232
-15.233807,-163.5253
-15.595387,-158.08891
-14.516394,-159.2616
-15.148432,-159.10799
-15.163038,-158.86299
-15.400497,-160.74033
-14.836291,-158.56845
-15.097739,-159.34843
-15.171143,-159.44856
-15.170353,-160.4097
-14.412302,-158.99019
-14.789577,-158.8511
-14.994477,-156.92534
-14.668658,-158.20448
-15.109161,-157.22194
-14.833201,-159.08653
-14.996922,-160.02133
-15.413331,-159.19127
-14.910623,-157.31761
-14.378676,-159.27666
-15.12362,-164.56177
-15.053877,-157.62357
-15.366369,-159.30811
-14.820152,-160.51894
-14.835427,-159.07843
-14.901946,-161.29465
-14.962962,-157.56433
-14.947076,-162.38193
-15.082159,-159.71579
-14.878592,-158.54817
-15.367575,-159.23619
-15.374416,-157.12766
-15.219705,-161.40399
-14.912428,-159.74876
-15.177249,-158.37505
-15.052307,-159.55484
-15.230919,-159.00079
-15.302136,-159.7666
-15.204206,-161.4566
-14.910959,-158.13824
-15.028884,-157.47823
-14.941169,-159.15248
-14.605651,-159.68039
-14.897058,-156.99277
-14.843709,-158.64241
-15.239206,-161.33907
-14.893679,-157.9057
-15.302947,-159.95348
-15.201901,-157.67581
-14.87207,-160.9823
-14.887598,-158.89525
-14.773074,-159.58301
-14.851982,-158.94241
-14.947795,-160.17722
-15.134519,-159.32285
-15.387508,-160.07626
-15.21198,-160.69048
-14.838516,-158.57907
-15.044383,-159.49806
-15.011442,-157.33011
-15.272981,-162.47772
-15.075812,-159.73401
-15.367238,-158.07207
-15.044783,-158.00711
-15.20163,-159.90668
-14.819197,-157.88805
-14.780725,-160.60236
-14.934704,-160.47331
-15.408597,-157.67563
-14.939889,-160.66563
-14.665945,-158.1138
-15.414515,-160.67917
-15.176961,-160.24271
-15.514623,-158.65741
-14.897072,-160.36969
-15.112132,-162.175
-15.434729,-157.99698
-15.2995,-159.08669
-15.113481,-156.40457
-15.139772,-158.13977
-15.040309,-158.65921
-14.68672,-157.9807
-14.878297,-159.62439
-15.375998,-161.50392
-14.766175,-157.29883
-15.163264,-159.40076
-15.294485,-159.18616
-15.121929,-161.58994
-14.897793,-161.87878
-15.163058,-159.97755
-15.201765,-160.1893
-15.015287,-160.65852
-15.145422,-159.20094
-15.257538,-157.50926
-14.941818,-156.44641
-15.303111,-160.42561
-15.004598,-159.13417
-14.983012,-159.8203
-15.250463,-158.88022
-15.093813,-158.78697
-15.052884,-159.75827
-15.204994,-161.24115
-15.016714,-160.43936
-14.940106,-157.09074
-15.018948,-158.67151
-14.950734,-159.21017
-15.142467,-158.30264
-15.344909,-160.32709
-15.151315,-157.07297
-14.823111,-161.36272
-15.048018,-160.74847
-15.207255,-158.5545
-15.283759,-161.3214
-15.007051,-157.57188
-15.381548,-159.38879
-15.264824,-159.40222
-14.834096,-157.40335
-14.722983,-160.27057
-15.203526,-159.64673
-15.087629,-159.49214
-14.866166,-158.07594
-15.102967,-159.8972
-15.250352,-157.40681
-15.115457,-158.95482
-15.346041,-158.85397
-15.14443,-159.76083
-14.829231,-161.0307
-14.844404,-162.91515
-14.925462,-158.58124
-14.854828,-159.52539
-15.152854,-158.91681
-15.40889,-160.03265
-14.997769,-162.53763
-15.305697,-158.90149
-14.962275,-158.22809
-14.825038,-158.18625
-14.897361,-159.58141
-15.136428,-157.50655
-14.986237,-158.01434
-15.08522,-159.0799
-14.9361,-160.33273
-15.586695,-158.45381
-15.329556,-158.8614
-15.256823,-159.22331
-14.982881,-160.29146
-15.401532,-158.8588
-15.455204,-158.46547
-15.093583,-157.88408
-15.071872,-160.53976
-15.264566,-158.74716
-15.417322,-157.37877
-15.229319,-159.27298
-15.018578,-160.41998
-15.269255,-159.92258
-14.93542,-159.90718
-14.849092,-160.70691
-15.085225,-159.7747
-14.949889,-158.76529
-15.066688,-158.31651
-15.105514,-159.51689
-15.319167,-162.17506
-15.068256,-160.90717
-15.227309,-159.79948
-15.213372,-158.57249
-15.288405,-161.2131
-15.086536,-158.84859
-15.216369,-159.14719
-15.278578,-159.6017
-15.015317,-159.7865
-15.232121,-157.27818
-15.336476,-158.90771
-15.261645,-159.53775
-15.094758,-158.59283
-15.015563,-160.18573
-14.803311,-160.29666
-15.130038,-159.96405
-14.967451,-160.21709
-14.97832,-159.08316
-14.996964,-157.82098
-15.298522,-158.7823
-15.154119,-158.41385
-15.421188,-159.83975
-15.0746,-160.14638
-15.114206,-160.08389
-15.292687,-160.90573
-14.9769,-159.68719
-15.081512,-159.03006
-15.208792,-159.61562
-15.248438,-159.94193
-14.924901,-158.43294
-15.120992,-159.62228
-15.103115,-159.80037
-15.246819,-158.80978
-15.07593,-159.27036
-15.13726,-160.084
-15.400338,-159.39029
-14.907483,-159.14478
-15.059902,-160.41866
-14.971457,-159.69879
-14.961126,-160.47777
-15.024921,-159.56523
-15.031237,-158.9641
-15.082118,-160.09959
-14.962608,-159.22635
-15.138254,-159.75601
-15.181017,-161.98663
-14.967513,-159.468
-15.265072,-160.30061
