CITIFILE A.01.01
!Agilent Technologies,N5230C,MY48100142,A.08.04.10
!Agilent N5230C: A.08.04.10
!Format: LogMag/Angle
!Date: Tuesday, August 25, 2020 16:19:47
NAME CH1_DATA
VAR Power MAG 801
DATA S11 DBANGLE
DATA S21 DBANGLE
DATA S12 DBANGLE
DATA S22 DBANGLE
VAR_LIST_BEGIN
-40
-39.975
-39.95
-39.925
-39.9
-39.875
-39.85
-39.825
-39.8
-39.775
-39.75
-39.725
-39.7
-39.675
-39.65
-39.625
-39.6
-39.575
-39.55
-39.525
-39.5
-39.475
-39.45
-39.425
-39.4
-39.375
-39.35
-39.325
-39.3
-39.275
-39.25
-39.225
-39.2
-39.175
-39.15
-39.125
-39.1
-39.075
-39.05
-39.025
-39
-38.975
-38.95
-38.925
-38.9
-38.875
-38.85
-38.825
-38.8
-38.775
-38.75
-38.725
-38.7
-38.675
-38.65
-38.625
-38.6
-38.575
-38.55
-38.525
-38.5
-38.475
-38.45
-38.425
-38.4
-38.375
-38.35
-38.325
-38.3
-38.275
-38.25
-38.225
-38.2
-38.175
-38.15
-38.125
-38.1
-38.075
-38.05
-38.025
-38
-37.975
-37.95
-37.925
-37.9
-37.875
-37.85
-37.825
-37.8
-37.775
-37.75
-37.725
-37.7
-37.675
-37.65
-37.625
-37.6
-37.575
-37.55
-37.525
-37.5
-37.475
-37.45
-37.425
-37.4
-37.375
-37.35
-37.325
-37.3
-37.275
-37.25
-37.225
-37.2
-37.175
-37.15
-37.125
-37.1
-37.075
-37.05
-37.025
-37
-36.975
-36.95
-36.925
-36.9
-36.875
-36.85
-36.825
-36.8
-36.775
-36.75
-36.725
-36.7
-36.675
-36.65
-36.625
-36.6
-36.575
-36.55
-36.525
-36.5
-36.475
-36.45
-36.425
-36.4
-36.375
-36.35
-36.325
-36.3
-36.275
-36.25
-36.225
-36.2
-36.175
-36.15
-36.125
-36.1
-36.075
-36.05
-36.025
-36
-35.975
-35.95
-35.925
-35.9
-35.875
-35.85
-35.825
-35.8
-35.775
-35.75
-35.725
-35.7
-35.675
-35.65
-35.625
-35.6
-35.575
-35.55
-35.525
-35.5
-35.475
-35.45
-35.425
-35.4
-35.375
-35.35
-35.325
-35.3
-35.275
-35.25
-35.225
-35.2
-35.175
-35.15
-35.125
-35.1
-35.075
-35.05
-35.025
-35
-34.975
-34.95
-34.925
-34.9
-34.875
-34.85
-34.825
-34.8
-34.775
-34.75
-34.725
-34.7
-34.675
-34.65
-34.625
-34.6
-34.575
-34.55
-34.525
-34.5
-34.475
-34.45
-34.425
-34.4
-34.375
-34.35
-34.325
-34.3
-34.275
-34.25
-34.225
-34.2
-34.175
-34.15
-34.125
-34.1
-34.075
-34.05
-34.025
-34
-33.975
-33.95
-33.925
-33.9
-33.875
-33.85
-33.825
-33.8
-33.775
-33.75
-33.725
-33.7
-33.675
-33.65
-33.625
-33.6
-33.575
-33.55
-33.525
-33.5
-33.475
-33.45
-33.425
-33.4
-33.375
-33.35
-33.325
-33.3
-33.275
-33.25
-33.225
-33.2
-33.175
-33.15
-33.125
-33.1
-33.075
-33.05
-33.025
-33
-32.975
-32.95
-32.925
-32.9
-32.875
-32.85
-32.825
-32.8
-32.775
-32.75
-32.725
-32.7
-32.675
-32.65
-32.625
-32.6
-32.575
-32.55
-32.525
-32.5
-32.475
-32.45
-32.425
-32.4
-32.375
-32.35
-32.325
-32.3
-32.275
-32.25
-32.225
-32.2
-32.175
-32.15
-32.125
-32.1
-32.075
-32.05
-32.025
-32
-31.975
-31.95
-31.925
-31.9
-31.875
-31.85
-31.825
-31.8
-31.775
-31.75
-31.725
-31.7
-31.675
-31.65
-31.625
-31.6
-31.575
-31.55
-31.525
-31.5
-31.475
-31.45
-31.425
-31.4
-31.375
-31.35
-31.325
-31.3
-31.275
-31.25
-31.225
-31.2
-31.175
-31.15
-31.125
-31.1
-31.075
-31.05
-31.025
-31
-30.975
-30.95
-30.925
-30.9
-30.875
-30.85
-30.825
-30.8
-30.775
-30.75
-30.725
-30.7
-30.675
-30.65
-30.625
-30.6
-30.575
-30.55
-30.525
-30.5
-30.475
-30.45
-30.425
-30.4
-30.375
-30.35
-30.325
-30.3
-30.275
-30.25
-30.225
-30.2
-30.175
-30.15
-30.125
-30.1
-30.075
-30.05
-30.025
-30
-29.975
-29.95
-29.925
-29.9
-29.875
-29.85
-29.825
-29.8
-29.775
-29.75
-29.725
-29.7
-29.675
-29.65
-29.625
-29.6
-29.575
-29.55
-29.525
-29.5
-29.475
-29.45
-29.425
-29.4
-29.375
-29.35
-29.325
-29.3
-29.275
-29.25
-29.225
-29.2
-29.175
-29.15
-29.125
-29.1
-29.075
-29.05
-29.025
-29
-28.975
-28.95
-28.925
-28.9
-28.875
-28.85
-28.825
-28.8
-28.775
-28.75
-28.725
-28.7
-28.675
-28.65
-28.625
-28.6
-28.575
-28.55
-28.525
-28.5
-28.475
-28.45
-28.425
-28.4
-28.375
-28.35
-28.325
-28.3
-28.275
-28.25
-28.225
-28.2
-28.175
-28.15
-28.125
-28.1
-28.075
-28.05
-28.025
-28
-27.975
-27.95
-27.925
-27.9
-27.875
-27.85
-27.825
-27.8
-27.775
-27.75
-27.725
-27.7
-27.675
-27.65
-27.625
-27.6
-27.575
-27.55
-27.525
-27.5
-27.475
-27.45
-27.425
-27.4
-27.375
-27.35
-27.325
-27.3
-27.275
-27.25
-27.225
-27.2
-27.175
-27.15
-27.125
-27.1
-27.075
-27.05
-27.025
-27
-26.975
-26.95
-26.925
-26.9
-26.875
-26.85
-26.825
-26.8
-26.775
-26.75
-26.725
-26.7
-26.675
-26.65
-26.625
-26.6
-26.575
-26.55
-26.525
-26.5
-26.475
-26.45
-26.425
-26.4
-26.375
-26.35
-26.325
-26.3
-26.275
-26.25
-26.225
-26.2
-26.175
-26.15
-26.125
-26.1
-26.075
-26.05
-26.025
-26
-25.975
-25.95
-25.925
-25.9
-25.875
-25.85
-25.825
-25.8
-25.775
-25.75
-25.725
-25.7
-25.675
-25.65
-25.625
-25.6
-25.575
-25.55
-25.525
-25.5
-25.475
-25.45
-25.425
-25.4
-25.375
-25.35
-25.325
-25.3
-25.275
-25.25
-25.225
-25.2
-25.175
-25.15
-25.125
-25.1
-25.075
-25.05
-25.025
-25
-24.975
-24.95
-24.925
-24.9
-24.875
-24.85
-24.825
-24.8
-24.775
-24.75
-24.725
-24.7
-24.675
-24.65
-24.625
-24.6
-24.575
-24.55
-24.525
-24.5
-24.475
-24.45
-24.425
-24.4
-24.375
-24.35
-24.325
-24.3
-24.275
-24.25
-24.225
-24.2
-24.175
-24.15
-24.125
-24.1
-24.075
-24.05
-24.025
-24
-23.975
-23.95
-23.925
-23.9
-23.875
-23.85
-23.825
-23.8
-23.775
-23.75
-23.725
-23.7
-23.675
-23.65
-23.625
-23.6
-23.575
-23.55
-23.525
-23.5
-23.475
-23.45
-23.425
-23.4
-23.375
-23.35
-23.325
-23.3
-23.275
-23.25
-23.225
-23.2
-23.175
-23.15
-23.125
-23.1
-23.075
-23.05
-23.025
-23
-22.975
-22.95
-22.925
-22.9
-22.875
-22.85
-22.825
-22.8
-22.775
-22.75
-22.725
-22.7
-22.675
-22.65
-22.625
-22.6
-22.575
-22.55
-22.525
-22.5
-22.475
-22.45
-22.425
-22.4
-22.375
-22.35
-22.325
-22.3
-22.275
-22.25
-22.225
-22.2
-22.175
-22.15
-22.125
-22.1
-22.075
-22.05
-22.025
-22
-21.975
-21.95
-21.925
-21.9
-21.875
-21.85
-21.825
-21.8
-21.775
-21.75
-21.725
-21.7
-21.675
-21.65
-21.625
-21.6
-21.575
-21.55
-21.525
-21.5
-21.475
-21.45
-21.425
-21.4
-21.375
-21.35
-21.325
-21.3
-21.275
-21.25
-21.225
-21.2
-21.175
-21.15
-21.125
-21.1
-21.075
-21.05
-21.025
-21
-20.975
-20.95
-20.925
-20.9
-20.875
-20.85
-20.825
-20.8
-20.775
-20.75
-20.725
-20.7
-20.675
-20.65
-20.625
-20.6
-20.575
-20.55
-20.525
-20.5
-20.475
-20.45
-20.425
-20.4
-20.375
-20.35
-20.325
-20.3
-20.275
-20.25
-20.225
-20.2
-20.175
-20.15
-20.125
-20.1
-20.075
-20.05
-20.025
-20
VAR_LIST_END
BEGIN
-15.056101,-159.15178
-15.10546,-159.04716
-14.97718,-159.2193
-15.226032,-157.92445
-15.168612,-159.36696
-15.225513,-160.59196
-14.954189,-157.97696
-15.270706,-157.99011
-15.035445,-160.15334
-14.885058,-159.59384
-14.83592,-159.39061
-14.956345,-158.45695
-15.255237,-160.21912
-15.097075,-157.19167
-15.327933,-158.83806
-14.871376,-158.43797
-15.103423,-157.63814
-15.036994,-160.34761
-15.319849,-158.90768
-15.015434,-159.00899
-14.907017,-159.38652
-15.350251,-156.70813
-14.859636,-159.29099
-15.247757,-159.19826
-15.152326,-158.52411
-15.127903,-157.67624
-15.202043,-158.15398
-15.231112,-160.04242
-15.048923,-158.76797
-15.324736,-158.99698
-15.057038,-159.72568
-15.203734,-159.18973
-15.126653,-159.67577
-15.217674,-159.44888
-15.027581,-157.41566
-14.942492,-158.30508
-15.057648,-159.30528
-15.043129,-158.50429
-15.111382,-158.60887
-14.714199,-158.80327
-14.946451,-158.36087
-14.995372,-157.9781
-15.157435,-158.29543
-15.02428,-157.71559
-15.016356,-158.80701
-14.925378,-160.14507
-15.086684,-159.27226
-15.048454,-158.21562
-15.169196,-157.90381
-15.096682,-158.73746
-14.904153,-158.68182
-14.842655,-157.94693
-15.101605,-161.16602
-15.214191,-158.65921
-14.963695,-158.81413
-14.961001,-158.90138
-15.210655,-158.75665
-15.197557,-158.4491
-15.170494,-158.87099
-15.026869,-158.15115
-15.427012,-157.35699
-15.048975,-158.20126
-15.000054,-158.68881
-15.175076,-157.50435
-15.205861,-160.45715
-15.032706,-158.8329
-15.069674,-159.46236
-15.330012,-158.83926
-14.898275,-157.70004
-14.928088,-159.24542
-14.906233,-159.32138
-15.242482,-158.29697
-15.158461,-156.68947
-14.978315,-159.39679
-14.969123,-158.13817
-15.042509,-158.85995
-14.92847,-160.50345
-15.104566,-156.03816
-15.139553,-159.84769
-15.109996,-158.1963
-15.114819,-159.00531
-15.01841,-159.36127
-15.010061,-159.06003
-14.949073,-158.95958
-14.983232,-159.8681
-15.181881,-158.65787
-15.016763,-157.97276
-14.97563,-157.31834
-15.18907,-158.52641
-15.088814,-159.29932
-14.972065,-158.42773
-15.06287,-158.16212
-15.249622,-158.87921
-14.968198,-159.45741
-15.127812,-158.74268
-15.233785,-158.73732
-15.073176,-160.30453
-15.105294,-158.05527
-15.074804,-158.07561
-15.013093,-158.24071
-14.837556,-158.46843
-15.065243,-158.09465
-15.068839,-158.3848
-15.239623,-159.42963
-14.991776,-159.24107
-15.021835,-158.93541
-15.076593,-159.54214
-15.080684,-158.96539
-14.847705,-158.12445
-14.962232,-158.84642
-15.118095,-158.25334
-15.123379,-159.68054
-14.941019,-157.51819
-15.039423,-159.12543
-14.978825,-157.90508
-14.927068,-161.11859
-14.763241,-158.80051
-15.203116,-158.36571
-15.062179,-158.49225
-15.122766,-158.63017
-14.877793,-159.78696
-15.229974,-159.62372
-15.026513,-159.50189
-15.179736,-159.16588
-15.098445,-158.5304
-15.059453,-158.97595
-14.971176,-158.91309
-14.998655,-158.63438
-15.029066,-158.9639
-15.230827,-158.52979
-15.001836,-159.0764
-15.059346,-158.15132
-15.049184,-157.97636
-15.036633,-159.16071
-15.065484,-159.00005
-15.458606,-158.77249
-15.038157,-158.07263
-15.022238,-158.34581
-15.114331,-158.55756
-14.997086,-160.24579
-15.115486,-159.50238
-15.113323,-159.16197
-15.16712,-158.74048
-15.151105,-159.56114
-15.004978,-159.32329
-15.059534,-159.71524
-15.091999,-157.52094
-15.222284,-159.8916
-15.13651,-157.77312
-15.242082,-158.96982
-15.059787,-158.26617
-15.02075,-158.75201
-15.178388,-158.36528
-15.027284,-159.88899
-15.168779,-159.79709
-15.00701,-158.37701
-14.909286,-159.04161
-15.077399,-160.00882
-15.057936,-159.90315
-15.018111,-158.1073
-15.055817,-158.24011
-15.153604,-157.82669
-15.099938,-157.82158
-15.012147,-159.4731
-14.992476,-158.88263
-15.15501,-158.78191
-14.972959,-158.61218
-15.019832,-158.88863
-15.22391,-159.1431
-15.051476,-158.24142
-15.090982,-160.56781
-15.066117,-159.69228
-15.042643,-158.94133
-14.930569,-158.65247
-15.156493,-158.75046
-15.188993,-159.20096
-15.146743,-158.1326
-15.028525,-158.97186
-15.058915,-158.37732
-14.869208,-158.54295
-15.195935,-158.91106
-15.224836,-157.90681
-15.003123,-157.98071
-15.023204,-159.19737
-14.981251,-158.96153
-15.028749,-159.0696
-15.258113,-158.81169
-15.176262,-158.98584
-15.34829,-159.22058
-15.004341,-157.35463
-15.048036,-159.47476
-15.157407,-158.04375
-15.177691,-158.05275
-15.129422,-159.21759
-15.036282,-159.3394
-15.08886,-159.75951
-15.142371,-158.57367
-15.261333,-159.12383
-15.186639,-159.36578
-15.141652,-159.20757
-14.998373,-158.04024
-15.112046,-158.99898
-15.092521,-158.92116
-15.120376,-159.63435
-15.083102,-159.07773
-14.994814,-158.83644
-15.025781,-159.30923
-15.063987,-158.82898
-15.150377,-159.01112
-15.178121,-158.62401
-15.127949,-159.56639
-15.111804,-157.33559
-15.115792,-158.78073
-15.137619,-159.58313
-15.066131,-158.64481
-14.867966,-158.59407
-15.063082,-159.6815
-15.019877,-159.37401
-14.996105,-159.23117
-15.111348,-158.59811
-15.026413,-160.125
-15.047531,-159.17139
-15.066651,-158.16391
-15.053419,-157.7094
-15.086979,-158.64214
-15.125935,-158.97375
-15.041635,-160.10362
-15.036885,-158.93188
-15.043304,-159.10107
-15.133545,-158.44272
-15.01155,-159.48592
-15.171431,-158.36479
-15.093251,-159.2373
-15.075987,-158.38002
-15.234954,-159.24895
-15.117286,-158.01202
-15.268944,-158.85191
-15.037622,-158.99135
-14.988134,-158.21242
-15.132996,-158.78941
-15.09407,-159.69862
-15.127818,-158.99983
-15.10218,-158.85425
-14.92945,-158.48686
-15.077359,-158.19051
-14.993265,-158.03403
-15.113034,-159.12903
-15.012139,-159.72377
-15.044011,-159.90219
-15.166279,-159.59653
-15.236904,-158.39075
-15.130145,-158.82289
-15.022898,-157.67615
-15.024858,-159.08429
-15.073936,-159.39519
-15.11874,-159.40912
-15.05495,-159.11777
-15.107371,-159.48897
-14.856355,-158.94858
-15.032248,-159.63443
-14.933148,-159.37149
-15.080068,-158.20865
-15.025695,-158.93311
-15.069519,-159.40166
-15.039087,-158.9182
-15.102401,-158.30963
-15.099261,-158.33842
-15.136971,-159.13989
-15.17873,-158.87407
-15.089652,-158.26347
-15.151862,-157.96046
-14.958649,-157.75423
-15.165319,-158.91354
-15.021609,-158.52402
-15.006297,-158.7251
-15.126227,-158.54668
-15.086276,-159.50473
-15.061611,-158.81163
-15.018634,-158.28676
-15.073552,-158.44115
-15.208271,-159.30431
-15.129519,-158.3605
-15.048242,-159.08353
-15.040504,-158.75043
-14.988008,-159.18315
-15.128504,-158.72644
-15.028857,-158.43156
-15.123227,-158.49739
-15.012839,-159.36882
-15.054004,-158.84634
-15.11723,-158.82042
-14.978739,-158.45398
-15.042951,-158.85367
-15.155703,-159.00897
-15.146244,-159.64807
-15.128376,-159.33176
-15.087031,-158.80241
-15.062904,-158.77551
-15.045202,-159.16812
-15.150524,-159.33849
-15.139377,-158.53964
-15.104728,-159.68726
-15.152858,-158.97421
-15.003907,-159.30936
-15.096721,-159.9001
-15.042497,-158.49118
-14.918645,-158.72935
-15.08168,-158.93898
-14.889787,-159.22931
-15.158481,-158.26421
-14.985295,-159.38458
-15.13094,-158.40337
-15.190384,-159.19363
-15.054014,-158.60181
-14.92082,-159.41574
-15.13051,-159.00902
-15.13772,-159.61458
-15.096717,-158.58965
-15.089177,-159.63139
-15.057631,-158.00835
-15.144271,-158.90016
-15.072759,-158.98732
-15.174727,-159.16234
-14.994084,-158.42308
-15.023061,-158.36812
-15.039845,-159.75475
-15.087854,-158.44978
-15.072259,-158.93933
-15.044958,-158.79742
-15.108747,-158.28131
-15.032646,-159.20662
-15.166416,-159.06621
-15.148694,-158.32603
-15.012831,-158.24606
-15.203402,-158.41716
-15.08005,-159.08694
-15.145771,-158.59145
-15.144088,-158.88524
-15.097377,-158.00679
-15.045639,-158.43994
-15.054955,-159.36459
-15.162677,-158.03822
-15.131639,-158.85579
-14.982542,-158.48749
-15.095566,-158.60065
-14.978344,-158.12587
-15.072512,-158.09377
-15.08925,-158.90456
-15.028445,-159.33072
-15.036055,-158.25769
-15.122321,-157.87572
-15.077805,-158.55856
-15.036708,-158.7618
-15.077444,-159.18405
-15.059516,-158.91113
-15.153924,-158.95442
-15.064833,-158.68021
-15.1548,-159.12177
-14.99832,-158.06519
-15.10858,-159.06334
-15.028831,-159.38635
-15.144875,-159.09375
-14.989734,-159.22713
-14.968128,-158.64618
-15.008044,-159.31235
-15.059529,-158.06767
-15.138056,-158.99774
-15.005439,-158.8631
-15.141665,-158.61681
-15.150695,-158.33699
-15.033577,-158.85158
-15.115315,-158.36028
-15.078837,-158.92506
-15.201236,-158.8503
-15.162945,-159.01836
-15.030021,-158.68793
-15.070528,-158.65523
-15.080564,-158.92847
-15.129123,-158.63878
-15.042618,-158.75908
-15.088662,-159.29221
-15.097871,-158.58221
-15.019423,-159.4175
-15.087082,-159.12471
-15.11532,-158.54181
-15.171432,-158.28249
-15.076412,-159.29185
-15.05424,-158.80586
-14.999104,-158.96922
-15.019208,-159.61166
-15.059112,-159.01718
-15.070102,-159.27263
-15.070735,-158.55473
-15.093655,-158.5864
-15.036109,-158.17296
-15.043264,-158.82513
-15.01188,-158.64572
-14.993999,-158.72572
-15.074484,-159.23404
-15.065228,-158.71634
-15.098583,-159.1342
-15.106351,-158.711
-15.094889,-158.56241
-15.03662,-158.1449
-15.058348,-158.86536
-14.970912,-159.02823
-15.068449,-158.87416
-15.146059,-159.4469
-15.090782,-158.29594
-15.085591,-158.60608
-15.067243,-158.43082
-15.07024,-158.66234
-15.084342,-158.56004
-15.106344,-158.77574
-15.055341,-159.08574
-15.127427,-158.76735
-15.114208,-158.45132
-15.077776,-158.5303
-15.129463,-158.74515
-15.103479,-159.27667
-15.077845,-158.84125
-15.122155,-159.42015
-15.133574,-158.69283
-15.09315,-158.7227
-14.995465,-158.22296
-15.041151,-158.41222
-15.133018,-158.87137
-15.034192,-158.30637
-15.175508,-158.61308
-15.110395,-158.58711
-15.084775,-159.05046
-15.069419,-158.82156
-15.211726,-158.87195
-15.150887,-158.69916
-15.058349,-159.14981
-15.110029,-158.88622
-15.028176,-158.81786
-15.119386,-158.88884
-15.134942,-159.09045
-15.044466,-158.42934
-15.140632,-158.23813
-15.063837,-158.95572
-15.07501,-158.83203
-15.037947,-158.82483
-15.130503,-158.84158
-15.063246,-158.81491
-15.070097,-158.81033
-15.182613,-158.93117
-15.132015,-158.95277
-14.971524,-158.57092
-15.050418,-159.0188
-14.939031,-158.6633
-15.097792,-158.98128
-15.128769,-158.53076
-15.073899,-159.35583
-15.082846,-158.53101
-15.101439,-158.57538
-15.057497,-158.92467
-15.049233,-158.57307
-15.122784,-158.78572
-15.131796,-158.6646
-15.021198,-159.84746
-15.066573,-158.8737
-15.02954,-158.62393
-15.132751,-159.09735
-15.095251,-158.68057
-15.066064,-158.83968
-14.975071,-158.88841
-15.040469,-158.93614
-15.073466,-158.02342
-15.114067,-158.87262
-15.099113,-158.72231
-15.093962,-158.78636
-15.099097,-158.81805
-15.084253,-158.47679
-14.948081,-159.00967
-14.998855,-158.94948
-15.027309,-159.23415
-15.095347,-158.97794
-15.040101,-158.42287
-15.133984,-158.85921
-15.086315,-158.41977
-15.053795,-158.84366
-15.050457,-158.854
-15.119155,-159.04207
-15.057866,-158.21371
-15.091573,-158.78508
-15.061789,-158.62146
-15.077887,-158.74651
-15.026324,-159.11812
-15.011482,-158.65372
-15.080052,-158.94562
-14.990759,-158.60574
-15.168923,-158.44223
-15.016981,-158.65395
-15.070651,-158.76035
-15.033982,-158.97992
-15.061697,-158.65895
-15.117583,-158.94319
-15.176447,-158.53581
-15.07012,-159.01878
-15.109423,-158.89287
-15.103355,-158.91098
-15.117913,-158.53676
-15.025852,-158.61183
-15.117016,-159.00327
-15.116815,-159.03595
-15.057093,-159.08745
-15.092308,-158.92798
-15.095423,-159.11398
-15.036377,-159.10121
-15.117379,-158.88817
-15.029122,-159.47969
-15.067583,-158.93124
-15.058582,-158.52368
-15.11829,-158.86235
-15.100599,-159.1109
-15.008701,-158.53151
-15.114962,-158.90672
-15.088567,-159.14417
-15.072186,-158.6288
-15.153208,-158.95016
-15.05286,-158.85664
-15.06587,-159.20442
-15.071678,-159.2673
-15.05055,-158.59708
-15.062811,-158.68472
-15.09361,-158.93466
-15.10076,-158.16241
-15.064552,-158.87766
-15.098425,-159.10466
-15.089418,-158.83403
-15.025095,-159.10205
-15.042599,-158.70825
-15.094301,-158.95038
-15.095958,-158.46519
-15.047169,-158.91115
-15.093582,-159.09076
-15.06592,-158.18204
-15.051286,-158.92778
-15.037299,-158.48785
-15.10085,-158.84099
-15.020906,-158.63623
-15.056691,-158.56129
-15.025003,-158.9481
-15.143352,-158.79465
-15.079025,-158.38458
-15.062421,-158.95219
-15.032267,-158.58293
-15.098946,-159.21902
-15.093276,-159.01483
-14.986614,-158.54123
-15.052514,-158.91495
-15.121808,-158.5051
-15.069839,-158.66127
-15.082229,-158.89668
-15.037675,-159.09343
-15.087543,-158.72099
-15.040935,-158.66927
-15.077452,-158.75154
-15.065372,-158.71776
-15.03902,-158.70451
-15.055249,-158.73917
-15.142769,-158.7197
-15.083633,-158.98013
-15.11968,-158.90578
-14.978749,-158.81436
-15.063565,-158.47968
-15.081369,-159.0704
-15.058814,-158.92108
-15.040077,-158.77524
-15.114631,-158.60278
-15.080896,-158.67039
-15.063001,-158.7067
-15.054832,-158.58846
