CITIFILE A.01.01
!Agilent Technologies,N5230C,MY48100142,A.08.04.10
!Agilent N5230C: A.08.04.10
!Format: LogMag/Angle
!Date: Thursday, September 12, 2019 14:09:56
NAME CH1_DATA
VAR Power MAG 801
DATA S11 DBANGLE
DATA S21 DBANGLE
DATA S12 DBANGLE
DATA S22 DBANGLE
VAR_LIST_BEGIN
-40
-39.975
-39.95
-39.925
-39.9
-39.875
-39.85
-39.825
-39.8
-39.775
-39.75
-39.725
-39.7
-39.675
-39.65
-39.625
-39.6
-39.575
-39.55
-39.525
-39.5
-39.475
-39.45
-39.425
-39.4
-39.375
-39.35
-39.325
-39.3
-39.275
-39.25
-39.225
-39.2
-39.175
-39.15
-39.125
-39.1
-39.075
-39.05
-39.025
-39
-38.975
-38.95
-38.925
-38.9
-38.875
-38.85
-38.825
-38.8
-38.775
-38.75
-38.725
-38.7
-38.675
-38.65
-38.625
-38.6
-38.575
-38.55
-38.525
-38.5
-38.475
-38.45
-38.425
-38.4
-38.375
-38.35
-38.325
-38.3
-38.275
-38.25
-38.225
-38.2
-38.175
-38.15
-38.125
-38.1
-38.075
-38.05
-38.025
-38
-37.975
-37.95
-37.925
-37.9
-37.875
-37.85
-37.825
-37.8
-37.775
-37.75
-37.725
-37.7
-37.675
-37.65
-37.625
-37.6
-37.575
-37.55
-37.525
-37.5
-37.475
-37.45
-37.425
-37.4
-37.375
-37.35
-37.325
-37.3
-37.275
-37.25
-37.225
-37.2
-37.175
-37.15
-37.125
-37.1
-37.075
-37.05
-37.025
-37
-36.975
-36.95
-36.925
-36.9
-36.875
-36.85
-36.825
-36.8
-36.775
-36.75
-36.725
-36.7
-36.675
-36.65
-36.625
-36.6
-36.575
-36.55
-36.525
-36.5
-36.475
-36.45
-36.425
-36.4
-36.375
-36.35
-36.325
-36.3
-36.275
-36.25
-36.225
-36.2
-36.175
-36.15
-36.125
-36.1
-36.075
-36.05
-36.025
-36
-35.975
-35.95
-35.925
-35.9
-35.875
-35.85
-35.825
-35.8
-35.775
-35.75
-35.725
-35.7
-35.675
-35.65
-35.625
-35.6
-35.575
-35.55
-35.525
-35.5
-35.475
-35.45
-35.425
-35.4
-35.375
-35.35
-35.325
-35.3
-35.275
-35.25
-35.225
-35.2
-35.175
-35.15
-35.125
-35.1
-35.075
-35.05
-35.025
-35
-34.975
-34.95
-34.925
-34.9
-34.875
-34.85
-34.825
-34.8
-34.775
-34.75
-34.725
-34.7
-34.675
-34.65
-34.625
-34.6
-34.575
-34.55
-34.525
-34.5
-34.475
-34.45
-34.425
-34.4
-34.375
-34.35
-34.325
-34.3
-34.275
-34.25
-34.225
-34.2
-34.175
-34.15
-34.125
-34.1
-34.075
-34.05
-34.025
-34
-33.975
-33.95
-33.925
-33.9
-33.875
-33.85
-33.825
-33.8
-33.775
-33.75
-33.725
-33.7
-33.675
-33.65
-33.625
-33.6
-33.575
-33.55
-33.525
-33.5
-33.475
-33.45
-33.425
-33.4
-33.375
-33.35
-33.325
-33.3
-33.275
-33.25
-33.225
-33.2
-33.175
-33.15
-33.125
-33.1
-33.075
-33.05
-33.025
-33
-32.975
-32.95
-32.925
-32.9
-32.875
-32.85
-32.825
-32.8
-32.775
-32.75
-32.725
-32.7
-32.675
-32.65
-32.625
-32.6
-32.575
-32.55
-32.525
-32.5
-32.475
-32.45
-32.425
-32.4
-32.375
-32.35
-32.325
-32.3
-32.275
-32.25
-32.225
-32.2
-32.175
-32.15
-32.125
-32.1
-32.075
-32.05
-32.025
-32
-31.975
-31.95
-31.925
-31.9
-31.875
-31.85
-31.825
-31.8
-31.775
-31.75
-31.725
-31.7
-31.675
-31.65
-31.625
-31.6
-31.575
-31.55
-31.525
-31.5
-31.475
-31.45
-31.425
-31.4
-31.375
-31.35
-31.325
-31.3
-31.275
-31.25
-31.225
-31.2
-31.175
-31.15
-31.125
-31.1
-31.075
-31.05
-31.025
-31
-30.975
-30.95
-30.925
-30.9
-30.875
-30.85
-30.825
-30.8
-30.775
-30.75
-30.725
-30.7
-30.675
-30.65
-30.625
-30.6
-30.575
-30.55
-30.525
-30.5
-30.475
-30.45
-30.425
-30.4
-30.375
-30.35
-30.325
-30.3
-30.275
-30.25
-30.225
-30.2
-30.175
-30.15
-30.125
-30.1
-30.075
-30.05
-30.025
-30
-29.975
-29.95
-29.925
-29.9
-29.875
-29.85
-29.825
-29.8
-29.775
-29.75
-29.725
-29.7
-29.675
-29.65
-29.625
-29.6
-29.575
-29.55
-29.525
-29.5
-29.475
-29.45
-29.425
-29.4
-29.375
-29.35
-29.325
-29.3
-29.275
-29.25
-29.225
-29.2
-29.175
-29.15
-29.125
-29.1
-29.075
-29.05
-29.025
-29
-28.975
-28.95
-28.925
-28.9
-28.875
-28.85
-28.825
-28.8
-28.775
-28.75
-28.725
-28.7
-28.675
-28.65
-28.625
-28.6
-28.575
-28.55
-28.525
-28.5
-28.475
-28.45
-28.425
-28.4
-28.375
-28.35
-28.325
-28.3
-28.275
-28.25
-28.225
-28.2
-28.175
-28.15
-28.125
-28.1
-28.075
-28.05
-28.025
-28
-27.975
-27.95
-27.925
-27.9
-27.875
-27.85
-27.825
-27.8
-27.775
-27.75
-27.725
-27.7
-27.675
-27.65
-27.625
-27.6
-27.575
-27.55
-27.525
-27.5
-27.475
-27.45
-27.425
-27.4
-27.375
-27.35
-27.325
-27.3
-27.275
-27.25
-27.225
-27.2
-27.175
-27.15
-27.125
-27.1
-27.075
-27.05
-27.025
-27
-26.975
-26.95
-26.925
-26.9
-26.875
-26.85
-26.825
-26.8
-26.775
-26.75
-26.725
-26.7
-26.675
-26.65
-26.625
-26.6
-26.575
-26.55
-26.525
-26.5
-26.475
-26.45
-26.425
-26.4
-26.375
-26.35
-26.325
-26.3
-26.275
-26.25
-26.225
-26.2
-26.175
-26.15
-26.125
-26.1
-26.075
-26.05
-26.025
-26
-25.975
-25.95
-25.925
-25.9
-25.875
-25.85
-25.825
-25.8
-25.775
-25.75
-25.725
-25.7
-25.675
-25.65
-25.625
-25.6
-25.575
-25.55
-25.525
-25.5
-25.475
-25.45
-25.425
-25.4
-25.375
-25.35
-25.325
-25.3
-25.275
-25.25
-25.225
-25.2
-25.175
-25.15
-25.125
-25.1
-25.075
-25.05
-25.025
-25
-24.975
-24.95
-24.925
-24.9
-24.875
-24.85
-24.825
-24.8
-24.775
-24.75
-24.725
-24.7
-24.675
-24.65
-24.625
-24.6
-24.575
-24.55
-24.525
-24.5
-24.475
-24.45
-24.425
-24.4
-24.375
-24.35
-24.325
-24.3
-24.275
-24.25
-24.225
-24.2
-24.175
-24.15
-24.125
-24.1
-24.075
-24.05
-24.025
-24
-23.975
-23.95
-23.925
-23.9
-23.875
-23.85
-23.825
-23.8
-23.775
-23.75
-23.725
-23.7
-23.675
-23.65
-23.625
-23.6
-23.575
-23.55
-23.525
-23.5
-23.475
-23.45
-23.425
-23.4
-23.375
-23.35
-23.325
-23.3
-23.275
-23.25
-23.225
-23.2
-23.175
-23.15
-23.125
-23.1
-23.075
-23.05
-23.025
-23
-22.975
-22.95
-22.925
-22.9
-22.875
-22.85
-22.825
-22.8
-22.775
-22.75
-22.725
-22.7
-22.675
-22.65
-22.625
-22.6
-22.575
-22.55
-22.525
-22.5
-22.475
-22.45
-22.425
-22.4
-22.375
-22.35
-22.325
-22.3
-22.275
-22.25
-22.225
-22.2
-22.175
-22.15
-22.125
-22.1
-22.075
-22.05
-22.025
-22
-21.975
-21.95
-21.925
-21.9
-21.875
-21.85
-21.825
-21.8
-21.775
-21.75
-21.725
-21.7
-21.675
-21.65
-21.625
-21.6
-21.575
-21.55
-21.525
-21.5
-21.475
-21.45
-21.425
-21.4
-21.375
-21.35
-21.325
-21.3
-21.275
-21.25
-21.225
-21.2
-21.175
-21.15
-21.125
-21.1
-21.075
-21.05
-21.025
-21
-20.975
-20.95
-20.925
-20.9
-20.875
-20.85
-20.825
-20.8
-20.775
-20.75
-20.725
-20.7
-20.675
-20.65
-20.625
-20.6
-20.575
-20.55
-20.525
-20.5
-20.475
-20.45
-20.425
-20.4
-20.375
-20.35
-20.325
-20.3
-20.275
-20.25
-20.225
-20.2
-20.175
-20.15
-20.125
-20.1
-20.075
-20.05
-20.025
-20
VAR_LIST_END
BEGIN
-13.771256,-162.16599
-14.04882,-163.54228
-14.183039,-153.63454
-14.209898,-162.56316
-14.660762,-162.9572
-13.58539,-163.46118
-14.293497,-159.6869
-13.553082,-157.11836
-13.958384,-169.0257
-14.564926,-161.78752
-14.059447,-163.5468
-14.379961,-167.21979
-13.925559,-165.35069
-14.690871,-159.81409
-14.254704,-164.23647
-13.508968,-164.57484
-14.381699,-161.48131
-14.197634,-162.08627
-13.867331,-161.67802
-14.193756,-162.66811
-13.662111,-161.65022
-14.404587,-167.29062
-13.861544,-166.40427
-14.505278,-160.45506
-14.077546,-163.80278
-12.939011,-160.6339
-13.75508,-164.62877
-13.566605,-163.53937
-13.32388,-162.38695
-14.065417,-159.37216
-14.265898,-166.634
-14.670963,-162.36601
-14.507684,-162.92375
-14.734226,-161.29312
-13.542984,-162.31502
-13.840524,-164.54048
-14.254151,-162.20442
-14.318549,-159.99541
-13.950496,-165.9144
-14.27983,-166.7549
-14.624024,-166.59766
-14.00586,-161.11296
-14.085987,-160.63795
-13.660123,-162.90791
-14.829297,-166.36322
-13.84589,-161.73195
-14.76032,-160.90912
-13.795426,-161.19421
-13.179349,-165.96613
-13.624696,-159.84404
-13.506081,-161.86136
-13.904677,-163.68642
-13.696377,-161.04053
-14.198789,-156.82176
-14.203846,-169.71832
-14.163921,-161.6245
-14.782444,-157.99559
-13.980474,-166.0546
-14.74085,-161.10497
-13.63484,-158.25456
-13.939856,-162.1516
-14.64183,-162.96756
-13.595104,-160.92317
-14.876161,-160.15216
-14.021276,-161.30832
-14.671139,-165.92809
-14.613606,-154.40353
-13.634469,-163.33116
-14.568881,-161.87196
-14.708267,-161.19473
-13.361729,-162.61082
-14.124288,-162.63097
-14.490982,-164.14046
-14.059014,-162.37643
-14.184237,-168.54361
-14.02245,-160.98645
-14.281298,-161.76833
-14.744691,-164.30315
-14.19796,-161.91501
-14.04958,-159.98343
-13.488984,-157.46944
-13.673761,-157.35449
-13.655801,-164.14496
-14.022125,-161.74199
-13.543488,-163.67421
-14.239697,-165.70227
-13.637341,-163.86757
-13.426606,-160.8616
-14.057417,-163.04088
-13.58767,-158.80093
-14.202392,-161.78273
-14.098998,-159.93327
-13.716807,-161.69966
-13.173586,-162.23735
-14.384788,-165.9249
-13.931432,-162.31755
-14.225588,-157.6461
-13.820355,-166.86565
-14.356888,-162.68607
-13.686809,-164.29341
-14.291133,-160.04834
-13.585297,-159.55522
-13.927094,-165.78311
-13.916371,-163.80949
-14.105758,-163.05058
-14.299308,-165.75648
-13.623202,-161.61784
-13.832415,-161.53824
-13.533829,-163.52843
-13.636916,-162.46831
-13.564115,-164.97707
-13.382195,-157.79808
-13.972469,-163.53601
-14.174899,-162.0717
-13.775187,-165.90225
-14.055038,-161.35101
-13.710806,-165.68185
-14.903626,-159.63803
-13.707544,-168.56485
-14.114062,-164.26454
-13.823659,-160.66978
-13.33632,-159.30882
-14.048034,-160.65254
-13.727943,-162.446
-14.10152,-162.6391
-14.255423,-162.05168
-13.687835,-161.25043
-13.351147,-159.05777
-14.20664,-164.56424
-13.958861,-164.01295
-14.266952,-161.12347
-14.327216,-163.03542
-14.11875,-164.37447
-13.999483,-162.05646
-14.249146,-160.73531
-13.811166,-163.91487
-14.325529,-160.77261
-13.684832,-166.44794
-14.025165,-161.51434
-14.511711,-162.9498
-14.907722,-167.66795
-13.539537,-164.04761
-14.009917,-162.3179
-13.825613,-160.07065
-13.688324,-162.90517
-13.703314,-163.65594
-14.234115,-166.63765
-13.883422,-162.40331
-13.399465,-164.44838
-13.785633,-159.39314
-14.047769,-163.60954
-13.729997,-163.74924
-14.574811,-159.04184
-14.189079,-162.21727
-13.770284,-161.32925
-14.601432,-161.63792
-13.66872,-163.5844
-14.608318,-164.37741
-13.684875,-159.09602
-14.152949,-160.67886
-14.094992,-162.4034
-14.08877,-161.95485
-14.373725,-162.38618
-14.076755,-164.63802
-14.125735,-162.51041
-14.054612,-160.33385
-13.631551,-164.54927
-14.280285,-160.55515
-13.849785,-163.76163
-13.964911,-161.91772
-14.119249,-159.55814
-14.091336,-161.67363
-14.306402,-163.36919
-14.153193,-162.92459
-13.633595,-161.53986
-13.916862,-161.32843
-13.656829,-164.32176
-14.407101,-162.07014
-14.167437,-165.18881
-13.867001,-162.73653
-13.990146,-164.86339
-13.789946,-165.03041
-14.154161,-164.63307
-14.28133,-165.57173
-13.621374,-163.34596
-14.025495,-165.92787
-14.15561,-163.0937
-13.897769,-161.5502
-13.694659,-160.31154
-13.965013,-159.92415
-13.661187,-163.72729
-14.326827,-161.18037
-13.79952,-167.59271
-13.909498,-161.47701
-13.766727,-163.47632
-13.646836,-163.07693
-13.914481,-164.68739
-14.162116,-161.36134
-13.678712,-161.14053
-13.937473,-160.07999
-13.866222,-162.96538
-13.746429,-162.48654
-14.085471,-160.87604
-13.527735,-160.90526
-14.054432,-159.86897
-13.876225,-162.24379
-13.778036,-162.21809
-13.631618,-161.49823
-14.476185,-160.43683
-14.618694,-165.9697
-14.002654,-166.46637
-13.85598,-166.02516
-14.480222,-162.68477
-13.320788,-161.16516
-14.415848,-163.5127
-13.848178,-161.24084
-14.81035,-164.92581
-14.039614,-161.17053
-14.212353,-158.59399
-13.904248,-161.91238
-14.708759,-161.32906
-14.274037,-163.61581
-14.291935,-162.00642
-13.978108,-161.82158
-13.891464,-162.08052
-13.924393,-161.07269
-13.939776,-160.10858
-13.826305,-162.86852
-13.883646,-164.38115
-13.803044,-163.32808
-14.029689,-160.57703
-14.203371,-161.56584
-14.253724,-162.1442
-14.010249,-162.95497
-13.826143,-160.60085
-14.302852,-162.9617
-13.814075,-162.54948
-14.095293,-160.34172
-13.930868,-162.28552
-13.823721,-161.77179
-13.804024,-159.69365
-14.876659,-160.82417
-14.087108,-161.51733
-13.852672,-163.03958
-13.826286,-164.52637
-13.822725,-160.08252
-13.68158,-163.26146
-13.953442,-161.51874
-13.942964,-159.23195
-13.70647,-163.93768
-14.133209,-162.88988
-13.93066,-160.42853
-14.055013,-162.18732
-13.975168,-165.02661
-14.377106,-161.93143
-14.110244,-160.91319
-14.125597,-160.59177
-13.991067,-160.68285
-13.801002,-164.22394
-13.757346,-161.96452
-14.033092,-160.61354
-13.635528,-161.21919
-14.309952,-162.41779
-14.260898,-161.03696
-13.879564,-163.88094
-14.254739,-163.63017
-14.018376,-163.0249
-13.898316,-163.41245
-13.8269,-162.56853
-14.236105,-159.16402
-13.86116,-163.74451
-13.721715,-164.62976
-13.833763,-163.83629
-14.046111,-159.08621
-13.630218,-159.62469
-13.938655,-163.22536
-13.900808,-161.49361
-13.669285,-161.6113
-14.082183,-161.60815
-13.948543,-161.3791
-14.069966,-161.62538
-13.462602,-161.62552
-14.004138,-161.22961
-13.553523,-162.15329
-14.189708,-161.30026
-13.919541,-160.55299
-13.91825,-164.89345
-13.752489,-162.84906
-14.383758,-163.52492
-14.102804,-163.46002
-14.067582,-164.43338
-14.028135,-161.62517
-13.758246,-162.74799
-14.207372,-164.45602
-14.156137,-163.07785
-14.096242,-161.83264
-14.035832,-162.57712
-14.050434,-161.37701
-14.582708,-163.88472
-14.007729,-162.14618
-14.056552,-161.05351
-13.723869,-163.09734
-13.834806,-161.55911
-14.074512,-161.6181
-13.895391,-162.03796
-13.466529,-161.18175
-14.357353,-163.56686
-13.955246,-165.05264
-14.053323,-164.73178
-13.79997,-161.59721
-13.946681,-162.64882
-13.721865,-162.64867
-13.889746,-162.48473
-14.184827,-161.84254
-13.942884,-164.03242
-13.884904,-165.00075
-13.986606,-160.30338
-14.013258,-164.94611
-14.026791,-160.36832
-13.856455,-158.63063
-13.966927,-161.53101
-13.904716,-162.22603
-14.331837,-161.23672
-14.085416,-161.28786
-14.277598,-161.70303
-13.981856,-161.38275
-13.722316,-163.1118
-13.801524,-161.94595
-13.979188,-163.99506
-14.282709,-162.22047
-14.193103,-161.54575
-13.948668,-162.53143
-14.118977,-161.85101
-14.357753,-161.39706
-14.066328,-165.44351
-14.072681,-165.74881
-13.699666,-160.10431
-13.928417,-163.74397
-13.798806,-162.80626
-13.693501,-161.70547
-14.411459,-160.60457
-14.123434,-164.52411
-13.830894,-162.87729
-13.676007,-161.80148
-14.095233,-162.6295
-13.981204,-162.25539
-14.056003,-162.16241
-13.991345,-163.20168
-14.152374,-163.72658
-13.738337,-162.09669
-14.009439,-164.16292
-13.966334,-161.87869
-14.176667,-162.51743
-14.299088,-161.21048
-13.900801,-161.11034
-13.394772,-162.77467
-13.764735,-162.01216
-14.110824,-162.51007
-14.120962,-162.42125
-14.019244,-163.8786
-13.927709,-161.3241
-14.429385,-162.15308
-13.968587,-162.11728
-14.07191,-164.77911
-14.195842,-163.91505
-14.120842,-162.67282
-13.829352,-161.93973
-14.086449,-163.12631
-14.025568,-164.14189
-13.843751,-160.94038
-14.098058,-161.62886
-14.087779,-163.82649
-13.885902,-161.24207
-14.067436,-163.47018
-13.928007,-163.67993
-13.964131,-161.63312
-13.806378,-161.444
-14.295694,-161.76546
-14.131042,-163.3116
-13.823634,-160.80617
-14.4237,-161.6646
-13.814895,-161.35756
-13.978001,-162.4733
-13.799008,-162.67688
-14.069182,-163.07631
-14.109712,-161.81326
-14.195699,-162.4041
-14.109622,-163.33632
-13.986912,-160.87965
-13.817758,-161.05554
-13.874806,-163.88202
-14.006425,-161.98302
-14.251602,-160.33003
-14.066761,-161.44688
-14.300018,-162.43692
-14.124804,-161.33044
-14.032607,-162.64642
-13.891971,-161.77055
-13.959669,-162.55595
-14.001114,-162.77899
-13.802505,-161.74327
-14.130862,-161.83281
-14.407358,-163.25493
-13.822949,-162.34958
-13.952147,-162.66737
-14.440795,-160.66154
-14.115716,-164.0686
-14.036886,-162.60242
-14.010054,-162.14485
-13.966023,-162.17424
-14.095362,-162.87962
-14.029367,-163.11769
-14.032811,-161.40981
-13.949466,-163.44577
-14.112649,-161.22762
-13.708949,-161.13417
-13.92047,-160.87558
-13.903718,-162.89345
-14.095491,-162.7738
-13.891128,-162.88986
-14.036918,-161.71944
-13.879619,-161.2766
-13.853684,-162.47205
-14.000897,-160.87093
-14.080984,-162.48152
-13.85681,-162.15923
-13.826465,-164.07419
-13.972618,-163.97153
-14.065501,-163.88206
-13.896639,-162.71991
-14.018633,-163.72041
-14.224509,-162.37837
-13.855636,-160.62621
-14.218079,-162.09529
-13.920231,-162.90875
-13.807595,-162.2253
-13.943421,-163.1897
-13.902691,-161.16017
-13.929914,-162.6368
-13.968989,-163.93732
-13.702623,-162.87605
-14.305113,-161.52391
-13.993382,-162.8717
-13.949783,-161.71313
-14.018051,-161.74786
-13.855011,-162.21927
-14.074127,-162.62778
-13.776213,-161.68958
-14.028271,-161.60284
-14.027824,-161.92223
-13.832002,-163.09474
-13.9072,-163.52823
-13.958892,-163.2309
-14.047194,-163.14665
-13.987931,-160.38463
-14.008085,-161.97884
-14.182942,-162.77803
-13.929491,-162.26062
-13.886555,-163.476
-14.005452,-162.66585
-14.145136,-160.74527
-13.890844,-160.79648
-14.055414,-161.27541
-13.980575,-161.22441
-13.978886,-162.8035
-13.854774,-162.19736
-13.985511,-163.74619
-14.088135,-162.91701
-13.969821,-161.62773
-13.844011,-161.94196
-14.143482,-162.55652
-14.061083,-162.96449
-13.84419,-162.81197
-13.921852,-163.17032
-13.921504,-161.72331
-13.724132,-161.4541
-13.92977,-162.31805
-13.903389,-162.46829
-14.118358,-162.43694
-14.166823,-161.9346
-14.229183,-161.38246
-14.063967,-161.76125
-14.129208,-162.62361
-13.950439,-162.26675
-14.020617,-162.95781
-13.945508,-163.61342
-13.923649,-163.23395
-13.829933,-162.22151
-13.967421,-161.84067
-13.98391,-161.53105
-13.944753,-162.51347
-13.95095,-160.55536
-13.890023,-163.57051
-14.057542,-163.29875
-14.135093,-161.83214
-13.970702,-161.28244
-13.876916,-160.2007
-13.996841,-160.96916
-13.860387,-161.21646
-14.173162,-163.26653
-14.177811,-161.10635
-13.90083,-162.23112
-14.071377,-162.76141
-13.767972,-162.21654
-14.282194,-162.4131
-14.027716,-160.72192
-13.99111,-160.91154
-13.933453,-162.56749
-14.210827,-163.13235
-13.846866,-162.51851
-14.105542,-163.07486
-13.951299,-161.80693
-13.818609,-162.56306
-13.961104,-162.06631
-14.004213,-162.59892
-13.653487,-163.18698
-13.980086,-163.67159
-13.786157,-162.48848
-13.930063,-162.80444
-14.174281,-160.89598
-13.9303,-162.57884
-13.958316,-163.2374
-13.941775,-161.72452
-14.034289,-163.3652
-13.805995,-161.63507
-14.148551,-163.17188
-13.89932,-163.60835
-13.956571,-162.96806
-13.920627,-163.11369
-14.051302,-162.071
-14.060688,-161.8289
-13.856147,-163.9877
-13.737709,-161.6284
-14.152477,-162.62247
-13.659328,-162.92668
-14.034324,-162.33813
-13.915734,-162.26401
-13.976684,-162.10847
-13.786787,-162.7419
-14.031116,-161.92322
-14.106796,-162.04414
-13.929551,-163.92836
-14.063687,-161.30873
-13.843131,-161.47198
-13.889033,-162.15309
-13.826695,-162.7823
-14.136487,-162.6084
-14.057576,-163.49139
-13.98613,-162.95111
-13.996095,-163.76831
-13.867547,-162.50198
-14.14115,-162.34903
-13.936985,-162.15656
-13.955115,-162.38368
-14.073097,-163.79919
-14.193272,-160.39238
-13.876684,-163.29224
-13.859095,-162.3519
-13.991399,-161.75288
-14.1491,-161.1353
-13.953963,-161.37048
-13.905758,-162.06108
-14.147856,-162.52307
-13.886888,-162.90717
-13.944685,-162.82133
-13.9181,-162.1393
-13.921227,-161.31926
-13.887511,-163.65984
-13.999106,-163.3246
-14.023102,-162.98268
-14.037884,-162.45726
-14.110213,-163.21611
-14.016574,-164.10173
-13.86891,-163.02135
-14.034112,-162.69551
-14.185612,-161.0849
