CITIFILE A.01.01
!Agilent Technologies,N5230C,MY48100142,A.08.04.10
!Agilent N5230C: A.08.04.10
!Format: LogMag/Angle
!Date: Thursday, September 12, 2019 12:08:51
NAME CH1_DATA
VAR Power MAG 801
DATA S11 DBANGLE
DATA S21 DBANGLE
DATA S12 DBANGLE
DATA S22 DBANGLE
VAR_LIST_BEGIN
-40
-39.975
-39.95
-39.925
-39.9
-39.875
-39.85
-39.825
-39.8
-39.775
-39.75
-39.725
-39.7
-39.675
-39.65
-39.625
-39.6
-39.575
-39.55
-39.525
-39.5
-39.475
-39.45
-39.425
-39.4
-39.375
-39.35
-39.325
-39.3
-39.275
-39.25
-39.225
-39.2
-39.175
-39.15
-39.125
-39.1
-39.075
-39.05
-39.025
-39
-38.975
-38.95
-38.925
-38.9
-38.875
-38.85
-38.825
-38.8
-38.775
-38.75
-38.725
-38.7
-38.675
-38.65
-38.625
-38.6
-38.575
-38.55
-38.525
-38.5
-38.475
-38.45
-38.425
-38.4
-38.375
-38.35
-38.325
-38.3
-38.275
-38.25
-38.225
-38.2
-38.175
-38.15
-38.125
-38.1
-38.075
-38.05
-38.025
-38
-37.975
-37.95
-37.925
-37.9
-37.875
-37.85
-37.825
-37.8
-37.775
-37.75
-37.725
-37.7
-37.675
-37.65
-37.625
-37.6
-37.575
-37.55
-37.525
-37.5
-37.475
-37.45
-37.425
-37.4
-37.375
-37.35
-37.325
-37.3
-37.275
-37.25
-37.225
-37.2
-37.175
-37.15
-37.125
-37.1
-37.075
-37.05
-37.025
-37
-36.975
-36.95
-36.925
-36.9
-36.875
-36.85
-36.825
-36.8
-36.775
-36.75
-36.725
-36.7
-36.675
-36.65
-36.625
-36.6
-36.575
-36.55
-36.525
-36.5
-36.475
-36.45
-36.425
-36.4
-36.375
-36.35
-36.325
-36.3
-36.275
-36.25
-36.225
-36.2
-36.175
-36.15
-36.125
-36.1
-36.075
-36.05
-36.025
-36
-35.975
-35.95
-35.925
-35.9
-35.875
-35.85
-35.825
-35.8
-35.775
-35.75
-35.725
-35.7
-35.675
-35.65
-35.625
-35.6
-35.575
-35.55
-35.525
-35.5
-35.475
-35.45
-35.425
-35.4
-35.375
-35.35
-35.325
-35.3
-35.275
-35.25
-35.225
-35.2
-35.175
-35.15
-35.125
-35.1
-35.075
-35.05
-35.025
-35
-34.975
-34.95
-34.925
-34.9
-34.875
-34.85
-34.825
-34.8
-34.775
-34.75
-34.725
-34.7
-34.675
-34.65
-34.625
-34.6
-34.575
-34.55
-34.525
-34.5
-34.475
-34.45
-34.425
-34.4
-34.375
-34.35
-34.325
-34.3
-34.275
-34.25
-34.225
-34.2
-34.175
-34.15
-34.125
-34.1
-34.075
-34.05
-34.025
-34
-33.975
-33.95
-33.925
-33.9
-33.875
-33.85
-33.825
-33.8
-33.775
-33.75
-33.725
-33.7
-33.675
-33.65
-33.625
-33.6
-33.575
-33.55
-33.525
-33.5
-33.475
-33.45
-33.425
-33.4
-33.375
-33.35
-33.325
-33.3
-33.275
-33.25
-33.225
-33.2
-33.175
-33.15
-33.125
-33.1
-33.075
-33.05
-33.025
-33
-32.975
-32.95
-32.925
-32.9
-32.875
-32.85
-32.825
-32.8
-32.775
-32.75
-32.725
-32.7
-32.675
-32.65
-32.625
-32.6
-32.575
-32.55
-32.525
-32.5
-32.475
-32.45
-32.425
-32.4
-32.375
-32.35
-32.325
-32.3
-32.275
-32.25
-32.225
-32.2
-32.175
-32.15
-32.125
-32.1
-32.075
-32.05
-32.025
-32
-31.975
-31.95
-31.925
-31.9
-31.875
-31.85
-31.825
-31.8
-31.775
-31.75
-31.725
-31.7
-31.675
-31.65
-31.625
-31.6
-31.575
-31.55
-31.525
-31.5
-31.475
-31.45
-31.425
-31.4
-31.375
-31.35
-31.325
-31.3
-31.275
-31.25
-31.225
-31.2
-31.175
-31.15
-31.125
-31.1
-31.075
-31.05
-31.025
-31
-30.975
-30.95
-30.925
-30.9
-30.875
-30.85
-30.825
-30.8
-30.775
-30.75
-30.725
-30.7
-30.675
-30.65
-30.625
-30.6
-30.575
-30.55
-30.525
-30.5
-30.475
-30.45
-30.425
-30.4
-30.375
-30.35
-30.325
-30.3
-30.275
-30.25
-30.225
-30.2
-30.175
-30.15
-30.125
-30.1
-30.075
-30.05
-30.025
-30
-29.975
-29.95
-29.925
-29.9
-29.875
-29.85
-29.825
-29.8
-29.775
-29.75
-29.725
-29.7
-29.675
-29.65
-29.625
-29.6
-29.575
-29.55
-29.525
-29.5
-29.475
-29.45
-29.425
-29.4
-29.375
-29.35
-29.325
-29.3
-29.275
-29.25
-29.225
-29.2
-29.175
-29.15
-29.125
-29.1
-29.075
-29.05
-29.025
-29
-28.975
-28.95
-28.925
-28.9
-28.875
-28.85
-28.825
-28.8
-28.775
-28.75
-28.725
-28.7
-28.675
-28.65
-28.625
-28.6
-28.575
-28.55
-28.525
-28.5
-28.475
-28.45
-28.425
-28.4
-28.375
-28.35
-28.325
-28.3
-28.275
-28.25
-28.225
-28.2
-28.175
-28.15
-28.125
-28.1
-28.075
-28.05
-28.025
-28
-27.975
-27.95
-27.925
-27.9
-27.875
-27.85
-27.825
-27.8
-27.775
-27.75
-27.725
-27.7
-27.675
-27.65
-27.625
-27.6
-27.575
-27.55
-27.525
-27.5
-27.475
-27.45
-27.425
-27.4
-27.375
-27.35
-27.325
-27.3
-27.275
-27.25
-27.225
-27.2
-27.175
-27.15
-27.125
-27.1
-27.075
-27.05
-27.025
-27
-26.975
-26.95
-26.925
-26.9
-26.875
-26.85
-26.825
-26.8
-26.775
-26.75
-26.725
-26.7
-26.675
-26.65
-26.625
-26.6
-26.575
-26.55
-26.525
-26.5
-26.475
-26.45
-26.425
-26.4
-26.375
-26.35
-26.325
-26.3
-26.275
-26.25
-26.225
-26.2
-26.175
-26.15
-26.125
-26.1
-26.075
-26.05
-26.025
-26
-25.975
-25.95
-25.925
-25.9
-25.875
-25.85
-25.825
-25.8
-25.775
-25.75
-25.725
-25.7
-25.675
-25.65
-25.625
-25.6
-25.575
-25.55
-25.525
-25.5
-25.475
-25.45
-25.425
-25.4
-25.375
-25.35
-25.325
-25.3
-25.275
-25.25
-25.225
-25.2
-25.175
-25.15
-25.125
-25.1
-25.075
-25.05
-25.025
-25
-24.975
-24.95
-24.925
-24.9
-24.875
-24.85
-24.825
-24.8
-24.775
-24.75
-24.725
-24.7
-24.675
-24.65
-24.625
-24.6
-24.575
-24.55
-24.525
-24.5
-24.475
-24.45
-24.425
-24.4
-24.375
-24.35
-24.325
-24.3
-24.275
-24.25
-24.225
-24.2
-24.175
-24.15
-24.125
-24.1
-24.075
-24.05
-24.025
-24
-23.975
-23.95
-23.925
-23.9
-23.875
-23.85
-23.825
-23.8
-23.775
-23.75
-23.725
-23.7
-23.675
-23.65
-23.625
-23.6
-23.575
-23.55
-23.525
-23.5
-23.475
-23.45
-23.425
-23.4
-23.375
-23.35
-23.325
-23.3
-23.275
-23.25
-23.225
-23.2
-23.175
-23.15
-23.125
-23.1
-23.075
-23.05
-23.025
-23
-22.975
-22.95
-22.925
-22.9
-22.875
-22.85
-22.825
-22.8
-22.775
-22.75
-22.725
-22.7
-22.675
-22.65
-22.625
-22.6
-22.575
-22.55
-22.525
-22.5
-22.475
-22.45
-22.425
-22.4
-22.375
-22.35
-22.325
-22.3
-22.275
-22.25
-22.225
-22.2
-22.175
-22.15
-22.125
-22.1
-22.075
-22.05
-22.025
-22
-21.975
-21.95
-21.925
-21.9
-21.875
-21.85
-21.825
-21.8
-21.775
-21.75
-21.725
-21.7
-21.675
-21.65
-21.625
-21.6
-21.575
-21.55
-21.525
-21.5
-21.475
-21.45
-21.425
-21.4
-21.375
-21.35
-21.325
-21.3
-21.275
-21.25
-21.225
-21.2
-21.175
-21.15
-21.125
-21.1
-21.075
-21.05
-21.025
-21
-20.975
-20.95
-20.925
-20.9
-20.875
-20.85
-20.825
-20.8
-20.775
-20.75
-20.725
-20.7
-20.675
-20.65
-20.625
-20.6
-20.575
-20.55
-20.525
-20.5
-20.475
-20.45
-20.425
-20.4
-20.375
-20.35
-20.325
-20.3
-20.275
-20.25
-20.225
-20.2
-20.175
-20.15
-20.125
-20.1
-20.075
-20.05
-20.025
-20
VAR_LIST_END
BEGIN
-13.630561,-162.72215
-13.697829,-161.07211
-13.22926,-157.13647
-13.977873,-166.67548
-14.003471,-162.90025
-13.082255,-165.76555
-14.220276,-161.46777
-12.943021,-164.66737
-14.342248,-171.25002
-14.375037,-167.31004
-14.684047,-157.82903
-14.007894,-162.80255
-13.89205,-166.06387
-13.823956,-167.1073
-14.305324,-166.90114
-14.601347,-159.11002
-14.567784,-169.26634
-14.421112,-164.04144
-14.650355,-159.21649
-13.439215,-165.58018
-15.097319,-163.51045
-14.488522,-163.13097
-14.716084,-160.82732
-13.754869,-160.53625
-15.109109,-157.99738
-15.471548,-162.16173
-13.372842,-163.48486
-13.806909,-163.99864
-13.655992,-165.15216
-14.175138,-166.48962
-14.6447,-163.56993
-13.985636,-167.00795
-14.510787,-163.49908
-14.360612,-164.9962
-14.085332,-163.1375
-14.013195,-163.1322
-14.069871,-162.40718
-13.868992,-159.06569
-14.137738,-161.89722
-14.390104,-162.24242
-13.311658,-165.09813
-14.191479,-158.53238
-13.370758,-161.63286
-14.704744,-163.18118
-13.858494,-164.13986
-13.699082,-165.05965
-14.801228,-163.02435
-13.438354,-164.61082
-13.486965,-162.45967
-13.583045,-161.19682
-14.031687,-164.13979
-13.786505,-162.73372
-13.23879,-163.532
-14.260155,-160.23636
-13.74708,-160.78503
-13.781835,-164.61098
-14.282582,-165.59569
-13.868935,-160.39218
-13.37876,-159.13452
-13.777309,-170.60266
-13.188579,-165.48357
-13.73958,-163.16028
-13.395628,-164.45142
-14.627767,-168.7912
-14.526314,-160.19798
-14.771902,-163.02374
-14.509192,-161.13986
-13.98749,-164.45042
-13.602922,-162.13881
-14.357921,-162.70425
-13.443275,-159.77806
-13.705498,-161.84236
-14.069612,-159.52957
-13.51,-164.18938
-13.724911,-163.6671
-13.282163,-160.66988
-13.487728,-160.90367
-14.373632,-159.85988
-14.023105,-162.57652
-14.341162,-160.06395
-14.68453,-158.98393
-14.406618,-164.82228
-13.598026,-159.18753
-13.580744,-165.3364
-14.306039,-165.11311
-14.029914,-163.23058
-13.590788,-166.89413
-14.036373,-162.49449
-13.598337,-160.0321
-14.534709,-161.34703
-13.799317,-164.3347
-14.828518,-162.52109
-13.593579,-164.02159
-13.579041,-162.3981
-13.992224,-161.57727
-13.79936,-159.63695
-13.782711,-164.94943
-13.843966,-159.94672
-14.836589,-164.76033
-14.080516,-166.33311
-13.929472,-165.45415
-13.826084,-162.79201
-15.038663,-164.71875
-14.381303,-162.11404
-14.305379,-165.59407
-14.192225,-163.40027
-13.320412,-160.01176
-14.123863,-167.74146
-14.305815,-162.26768
-13.524906,-163.06306
-13.841345,-158.0695
-14.257156,-162.90689
-15.202124,-163.62505
-14.178338,-160.16765
-14.137438,-164.93697
-14.013154,-161.27097
-13.927135,-161.46877
-14.131146,-162.45084
-13.096916,-162.07469
-14.108068,-164.19228
-13.518108,-163.19063
-13.725257,-163.09129
-13.984492,-163.3159
-14.117283,-162.20673
-14.015124,-161.37852
-14.480545,-163.14214
-13.868069,-166.56221
-13.934407,-164.5285
-13.930627,-161.79593
-14.172543,-161.63652
-13.96107,-162.58575
-14.056869,-163.06732
-14.127601,-164.24586
-14.305245,-163.35892
-14.040462,-163.1969
-13.305967,-161.65834
-13.784259,-161.01395
-14.028259,-163.35466
-14.281265,-161.52892
-14.014273,-162.70555
-14.301663,-161.13753
-13.99267,-166.14145
-14.363681,-159.92474
-14.40401,-164.66632
-14.005414,-165.20433
-14.015373,-161.43097
-14.189185,-163.59009
-13.70824,-163.4171
-13.983375,-162.8837
-14.236666,-162.10625
-14.261866,-164.74835
-13.872486,-165.47205
-13.979891,-160.36378
-13.981463,-164.46237
-14.234718,-161.89835
-13.511359,-163.87936
-14.405588,-158.59518
-14.2626,-161.58798
-14.069864,-159.26242
-13.532915,-162.68495
-13.954832,-160.96172
-13.646892,-163.76901
-13.960394,-169.38934
-13.825638,-161.52539
-14.205283,-163.92793
-13.694223,-161.03984
-14.33533,-166.18355
-13.646342,-162.10748
-14.546207,-160.32985
-14.45542,-163.46129
-14.011473,-163.32788
-14.102402,-158.321
-13.539265,-164.65039
-14.159878,-158.37657
-14.109237,-161.25626
-13.726551,-158.25874
-13.968147,-163.97517
-13.918499,-163.4567
-13.983032,-163.65297
-14.312029,-159.19856
-13.38518,-163.9696
-13.864885,-163.10355
-13.774747,-163.69435
-13.54318,-161.63857
-14.064353,-161.11044
-14.083285,-160.98569
-13.665409,-159.5387
-14.202133,-165.22954
-13.448232,-163.13469
-14.54563,-164.127
-13.938526,-161.11659
-14.302915,-163.76405
-14.123079,-159.89563
-14.185182,-164.21413
-13.857275,-161.58316
-14.068984,-164.91734
-13.446706,-166.28741
-14.064632,-161.27576
-14.049063,-164.45663
-14.461977,-162.38693
-14.214723,-165.86618
-13.830463,-164.49265
-14.05222,-163.82196
-14.548619,-160.56757
-13.977422,-161.49945
-13.840906,-163.71411
-13.470654,-165.78008
-14.296612,-163.23286
-14.033926,-167.8546
-13.656919,-161.49553
-14.843597,-164.41797
-14.369173,-163.4106
-14.196009,-159.59209
-14.119965,-159.92194
-13.302738,-164.004
-13.772073,-163.7887
-14.060116,-160.67606
-13.907309,-161.16846
-14.209,-161.77408
-14.042154,-162.2998
-13.612946,-160.92378
-13.909634,-164.96765
-13.809432,-164.04105
-13.77663,-162.79674
-14.065063,-164.85716
-14.441738,-163.63492
-14.036771,-166.16615
-14.093964,-162.49313
-13.945875,-164.05289
-14.312597,-163.18593
-14.064039,-162.08977
-14.476653,-165.52061
-14.246104,-164.68216
-14.316239,-159.81825
-14.360701,-163.79004
-14.116859,-163.75926
-13.807304,-159.33195
-14.110028,-161.9696
-14.567709,-162.17455
-13.569608,-163.97784
-14.393418,-165.33922
-13.914911,-160.54858
-14.067771,-162.03752
-13.919581,-162.63269
-13.885582,-164.35071
-14.025487,-160.99203
-13.89451,-163.31073
-14.209424,-165.98497
-14.560136,-162.61841
-13.731547,-163.8992
-13.704608,-164.81198
-13.775228,-161.82719
-13.960399,-165.48116
-13.681017,-163.8308
-14.082577,-164.46877
-14.310869,-160.28514
-14.035975,-161.62733
-14.145927,-159.98563
-14.103686,-161.77417
-14.111248,-162.87663
-13.746073,-164.53818
-14.338899,-162.07716
-13.835234,-161.31435
-14.167345,-160.64432
-13.875799,-159.74057
-14.220583,-164.61096
-14.07774,-164.91263
-14.426471,-165.06888
-14.299074,-164.0033
-14.561767,-162.9817
-13.950614,-162.09386
-13.915002,-163.1338
-13.859099,-164.54158
-14.175317,-164.10164
-14.337713,-162.32364
-13.831816,-164.44527
-13.937053,-163.84415
-13.507065,-162.95337
-14.116903,-161.1846
-13.852238,-160.10387
-13.798454,-165.50835
-14.157589,-162.41684
-13.864148,-160.37379
-13.754435,-160.82086
-14.155358,-161.57072
-14.079602,-163.96527
-14.340629,-161.48119
-14.257509,-160.58577
-13.594337,-162.16895
-13.761642,-161.66815
-13.861691,-160.74657
-14.312254,-162.09869
-13.87324,-163.88634
-13.951645,-162.33228
-14.061619,-164.56865
-14.390848,-162.91016
-14.007042,-163.02191
-13.732271,-162.37965
-13.698182,-164.30782
-13.83525,-165.26022
-14.00855,-161.54057
-13.736835,-163.32269
-13.952565,-164.74574
-14.024352,-162.6106
-14.39314,-159.91063
-14.159972,-162.1864
-14.284945,-164.94398
-13.826225,-163.44789
-14.089612,-161.74809
-13.672407,-160.55255
-13.764178,-163.20331
-13.669721,-162.21567
-14.279188,-162.17722
-14.347253,-162.91681
-14.110356,-163.24039
-13.74913,-163.33664
-14.143195,-164.07315
-14.145102,-161.88985
-14.346968,-163.88376
-13.818195,-163.79277
-13.923458,-162.84015
-13.995272,-163.98991
-13.730479,-162.98039
-13.967478,-163.13002
-14.029672,-162.85747
-14.261359,-162.36168
-14.246497,-162.09175
-14.345538,-163.55121
-13.775126,-163.86366
-14.125385,-163.53139
-13.772598,-162.38199
-14.239925,-163.43449
-13.743266,-162.15147
-13.734231,-164.60402
-13.737077,-163.86424
-13.871291,-160.30843
-13.614009,-164.01175
-14.696759,-161.34375
-14.000726,-161.44174
-14.277675,-163.94449
-14.099875,-163.36725
-14.119693,-164.10435
-14.192993,-160.6684
-13.95871,-162.85889
-13.744447,-163.65373
-14.371437,-165.07768
-14.067438,-162.34097
-13.867719,-162.47726
-13.937557,-161.79773
-13.879851,-163.20328
-14.326313,-160.84407
-14.030175,-161.14183
-13.884969,-162.50424
-14.204367,-160.40797
-14.022945,-161.89809
-13.701646,-162.79105
-14.242546,-162.99179
-14.119637,-164.50319
-14.141235,-163.55592
-14.088214,-160.98726
-13.784681,-161.49348
-14.060087,-159.22952
-14.121812,-161.60139
-14.330267,-161.63531
-14.005708,-162.87067
-14.371395,-163.49945
-13.846003,-163.0892
-14.052928,-162.99765
-14.038398,-162.48761
-14.188247,-162.55247
-14.404358,-164.0687
-13.94754,-160.34058
-14.021519,-161.95839
-14.16234,-164.73064
-13.859698,-164.31668
-14.254612,-164.04442
-14.099895,-162.95784
-13.973555,-162.98579
-14.171422,-164.16917
-14.073814,-161.41756
-13.999355,-163.05173
-14.29864,-163.57817
-14.077677,-162.92914
-14.181784,-164.1769
-14.160364,-161.05746
-13.856857,-163.56892
-14.154813,-161.90254
-14.250065,-162.4028
-13.879872,-163.70992
-14.060956,-162.5784
-13.661817,-163.11179
-13.8906,-162.91301
-14.285428,-165.25078
-13.998344,-161.96759
-13.8777,-163.68098
-14.07468,-163.5871
-14.172891,-165.72548
-13.823743,-162.74574
-14.213923,-161.85538
-14.127733,-161.60976
-14.034146,-161.74034
-14.175792,-159.66035
-14.107286,-162.01805
-14.144545,-162.28513
-14.09819,-162.18842
-14.158893,-163.48891
-13.758904,-162.0527
-14.160946,-162.41728
-13.831995,-162.7762
-14.274372,-162.69475
-13.980705,-161.68117
-13.994925,-162.88795
-13.987101,-159.86528
-13.899477,-161.86983
-13.947859,-162.2867
-13.925596,-161.38701
-14.106604,-162.45035
-13.747172,-160.51932
-13.857924,-164.31802
-13.793896,-162.20901
-13.948458,-162.75133
-13.775954,-164.96136
-14.273489,-162.89531
-14.05674,-162.27264
-13.984009,-162.03227
-14.030562,-163.29495
-14.191989,-160.26788
-14.060675,-163.29858
-14.144902,-162.98775
-13.967073,-163.72202
-13.998121,-164.53781
-13.860855,-162.95171
-13.923567,-163.75412
-14.167565,-162.334
-13.977651,-161.07343
-14.077579,-163.54901
-14.108805,-162.457
-14.083483,-163.91161
-13.880593,-164.24329
-13.849377,-162.6823
-14.135429,-163.1237
-13.978697,-162.66248
-14.179177,-163.29979
-13.989693,-162.26965
-14.274542,-165.06306
-14.042998,-162.62207
-14.159046,-161.34828
-13.786833,-163.48946
-14.037335,-163.60236
-13.910563,-162.27469
-13.982072,-163.89005
-13.959189,-162.19933
-13.992292,-163.22131
-14.023551,-163.59171
-14.052973,-163.06264
-13.899833,-161.85445
-14.129783,-162.29601
-13.968012,-162.61075
-14.022092,-163.97363
-13.912041,-162.45183
-14.060959,-160.79434
-13.904878,-163.89897
-14.222119,-162.48193
-13.940043,-161.81721
-14.078864,-163.36165
-14.058262,-162.56009
-13.961356,-162.6362
-13.907573,-162.24521
-14.367598,-162.37196
-14.015152,-163.24808
-13.958906,-163.50876
-14.310714,-163.05542
-14.031766,-163.47221
-14.254669,-163.06815
-14.171007,-162.43983
-13.962591,-161.93874
-13.906773,-161.12843
-14.082144,-163.22777
-14.013606,-163.84361
-14.054553,-163.12422
-14.072289,-163.07513
-13.987994,-163.2153
-13.786345,-162.62294
-14.288278,-163.84816
-13.972444,-161.08904
-13.986362,-163.59506
-14.012289,-162.96738
-13.662807,-163.00833
-14.172301,-162.88518
-14.13988,-163.53246
-13.959971,-163.88318
-14.264195,-163.46655
-14.168811,-163.34038
-14.019332,-163.31912
-14.059671,-162.97845
-14.167157,-163.88205
-13.941905,-162.67438
-14.041776,-162.4855
-14.124282,-162.02386
-13.998869,-163.50629
-13.986274,-163.79951
-14.014862,-162.53534
-14.051824,-162.14677
-14.08213,-162.84589
-13.81904,-162.90343
-13.757318,-162.92816
-13.943537,-162.81569
-13.919007,-161.68503
-14.026271,-161.97206
-14.165044,-162.35236
-14.265058,-161.28397
-13.900018,-162.56569
-13.744493,-162.09367
-14.003808,-164.10844
-14.027103,-163.03709
-13.820144,-162.51167
-13.901496,-161.26355
-13.865856,-163.78194
-13.995585,-163.05685
-13.972882,-162.75427
-14.111581,-163.58769
-14.034659,-162.85239
-14.149305,-161.97113
-13.987462,-163.24464
-14.02909,-163.06209
-14.119343,-164.53992
-13.972706,-162.4623
-13.792064,-162.88121
-14.115114,-164.46126
-14.065977,-162.81415
-14.084213,-159.83011
-14.015916,-162.0531
-14.064436,-161.69418
-13.973722,-162.86559
-14.102591,-163.35675
-14.243288,-162.62257
-13.985929,-162.92633
-13.966316,-162.21851
-14.046663,-164.26337
-14.222669,-161.9055
-14.071613,-163.14775
-13.964651,-162.61234
-13.760626,-163.9382
-14.024084,-163.00574
-13.823934,-162.63518
-13.990679,-162.77963
-13.95504,-162.93076
-14.007822,-163.32713
-14.074981,-161.31218
-14.016783,-163.74107
-13.829005,-162.78053
-14.033138,-162.85918
-14.132665,-162.34454
-14.003159,-163.52225
-14.124015,-162.24216
-14.143127,-162.63727
-13.993916,-163.10248
-14.072112,-163.03133
-13.895318,-162.11896
-14.080497,-161.85687
-14.063118,-163.1261
-14.128361,-163.43387
-14.153631,-162.96658
-13.989374,-163.68346
-14.001972,-162.47858
-13.904299,-163.44586
-13.949518,-162.67738
-14.056928,-163.52689
-14.100425,-162.58415
-13.96069,-162.16377
-13.926887,-163.17441
-13.914817,-161.35158
-14.047766,-161.55179
-14.027646,-162.16267
-13.945643,-162.3028
