CITIFILE A.01.01
!Agilent Technologies,N5230C,MY48100142,A.08.04.10
!Agilent N5230C: A.08.04.10
!Format: LogMag/Angle
!Date: Thursday, July 23, 2020 15:57:57
NAME CH1_DATA
VAR Power MAG 801
DATA S11 DBANGLE
DATA S21 DBANGLE
DATA S12 DBANGLE
DATA S22 DBANGLE
VAR_LIST_BEGIN
-40
-39.975
-39.95
-39.925
-39.9
-39.875
-39.85
-39.825
-39.8
-39.775
-39.75
-39.725
-39.7
-39.675
-39.65
-39.625
-39.6
-39.575
-39.55
-39.525
-39.5
-39.475
-39.45
-39.425
-39.4
-39.375
-39.35
-39.325
-39.3
-39.275
-39.25
-39.225
-39.2
-39.175
-39.15
-39.125
-39.1
-39.075
-39.05
-39.025
-39
-38.975
-38.95
-38.925
-38.9
-38.875
-38.85
-38.825
-38.8
-38.775
-38.75
-38.725
-38.7
-38.675
-38.65
-38.625
-38.6
-38.575
-38.55
-38.525
-38.5
-38.475
-38.45
-38.425
-38.4
-38.375
-38.35
-38.325
-38.3
-38.275
-38.25
-38.225
-38.2
-38.175
-38.15
-38.125
-38.1
-38.075
-38.05
-38.025
-38
-37.975
-37.95
-37.925
-37.9
-37.875
-37.85
-37.825
-37.8
-37.775
-37.75
-37.725
-37.7
-37.675
-37.65
-37.625
-37.6
-37.575
-37.55
-37.525
-37.5
-37.475
-37.45
-37.425
-37.4
-37.375
-37.35
-37.325
-37.3
-37.275
-37.25
-37.225
-37.2
-37.175
-37.15
-37.125
-37.1
-37.075
-37.05
-37.025
-37
-36.975
-36.95
-36.925
-36.9
-36.875
-36.85
-36.825
-36.8
-36.775
-36.75
-36.725
-36.7
-36.675
-36.65
-36.625
-36.6
-36.575
-36.55
-36.525
-36.5
-36.475
-36.45
-36.425
-36.4
-36.375
-36.35
-36.325
-36.3
-36.275
-36.25
-36.225
-36.2
-36.175
-36.15
-36.125
-36.1
-36.075
-36.05
-36.025
-36
-35.975
-35.95
-35.925
-35.9
-35.875
-35.85
-35.825
-35.8
-35.775
-35.75
-35.725
-35.7
-35.675
-35.65
-35.625
-35.6
-35.575
-35.55
-35.525
-35.5
-35.475
-35.45
-35.425
-35.4
-35.375
-35.35
-35.325
-35.3
-35.275
-35.25
-35.225
-35.2
-35.175
-35.15
-35.125
-35.1
-35.075
-35.05
-35.025
-35
-34.975
-34.95
-34.925
-34.9
-34.875
-34.85
-34.825
-34.8
-34.775
-34.75
-34.725
-34.7
-34.675
-34.65
-34.625
-34.6
-34.575
-34.55
-34.525
-34.5
-34.475
-34.45
-34.425
-34.4
-34.375
-34.35
-34.325
-34.3
-34.275
-34.25
-34.225
-34.2
-34.175
-34.15
-34.125
-34.1
-34.075
-34.05
-34.025
-34
-33.975
-33.95
-33.925
-33.9
-33.875
-33.85
-33.825
-33.8
-33.775
-33.75
-33.725
-33.7
-33.675
-33.65
-33.625
-33.6
-33.575
-33.55
-33.525
-33.5
-33.475
-33.45
-33.425
-33.4
-33.375
-33.35
-33.325
-33.3
-33.275
-33.25
-33.225
-33.2
-33.175
-33.15
-33.125
-33.1
-33.075
-33.05
-33.025
-33
-32.975
-32.95
-32.925
-32.9
-32.875
-32.85
-32.825
-32.8
-32.775
-32.75
-32.725
-32.7
-32.675
-32.65
-32.625
-32.6
-32.575
-32.55
-32.525
-32.5
-32.475
-32.45
-32.425
-32.4
-32.375
-32.35
-32.325
-32.3
-32.275
-32.25
-32.225
-32.2
-32.175
-32.15
-32.125
-32.1
-32.075
-32.05
-32.025
-32
-31.975
-31.95
-31.925
-31.9
-31.875
-31.85
-31.825
-31.8
-31.775
-31.75
-31.725
-31.7
-31.675
-31.65
-31.625
-31.6
-31.575
-31.55
-31.525
-31.5
-31.475
-31.45
-31.425
-31.4
-31.375
-31.35
-31.325
-31.3
-31.275
-31.25
-31.225
-31.2
-31.175
-31.15
-31.125
-31.1
-31.075
-31.05
-31.025
-31
-30.975
-30.95
-30.925
-30.9
-30.875
-30.85
-30.825
-30.8
-30.775
-30.75
-30.725
-30.7
-30.675
-30.65
-30.625
-30.6
-30.575
-30.55
-30.525
-30.5
-30.475
-30.45
-30.425
-30.4
-30.375
-30.35
-30.325
-30.3
-30.275
-30.25
-30.225
-30.2
-30.175
-30.15
-30.125
-30.1
-30.075
-30.05
-30.025
-30
-29.975
-29.95
-29.925
-29.9
-29.875
-29.85
-29.825
-29.8
-29.775
-29.75
-29.725
-29.7
-29.675
-29.65
-29.625
-29.6
-29.575
-29.55
-29.525
-29.5
-29.475
-29.45
-29.425
-29.4
-29.375
-29.35
-29.325
-29.3
-29.275
-29.25
-29.225
-29.2
-29.175
-29.15
-29.125
-29.1
-29.075
-29.05
-29.025
-29
-28.975
-28.95
-28.925
-28.9
-28.875
-28.85
-28.825
-28.8
-28.775
-28.75
-28.725
-28.7
-28.675
-28.65
-28.625
-28.6
-28.575
-28.55
-28.525
-28.5
-28.475
-28.45
-28.425
-28.4
-28.375
-28.35
-28.325
-28.3
-28.275
-28.25
-28.225
-28.2
-28.175
-28.15
-28.125
-28.1
-28.075
-28.05
-28.025
-28
-27.975
-27.95
-27.925
-27.9
-27.875
-27.85
-27.825
-27.8
-27.775
-27.75
-27.725
-27.7
-27.675
-27.65
-27.625
-27.6
-27.575
-27.55
-27.525
-27.5
-27.475
-27.45
-27.425
-27.4
-27.375
-27.35
-27.325
-27.3
-27.275
-27.25
-27.225
-27.2
-27.175
-27.15
-27.125
-27.1
-27.075
-27.05
-27.025
-27
-26.975
-26.95
-26.925
-26.9
-26.875
-26.85
-26.825
-26.8
-26.775
-26.75
-26.725
-26.7
-26.675
-26.65
-26.625
-26.6
-26.575
-26.55
-26.525
-26.5
-26.475
-26.45
-26.425
-26.4
-26.375
-26.35
-26.325
-26.3
-26.275
-26.25
-26.225
-26.2
-26.175
-26.15
-26.125
-26.1
-26.075
-26.05
-26.025
-26
-25.975
-25.95
-25.925
-25.9
-25.875
-25.85
-25.825
-25.8
-25.775
-25.75
-25.725
-25.7
-25.675
-25.65
-25.625
-25.6
-25.575
-25.55
-25.525
-25.5
-25.475
-25.45
-25.425
-25.4
-25.375
-25.35
-25.325
-25.3
-25.275
-25.25
-25.225
-25.2
-25.175
-25.15
-25.125
-25.1
-25.075
-25.05
-25.025
-25
-24.975
-24.95
-24.925
-24.9
-24.875
-24.85
-24.825
-24.8
-24.775
-24.75
-24.725
-24.7
-24.675
-24.65
-24.625
-24.6
-24.575
-24.55
-24.525
-24.5
-24.475
-24.45
-24.425
-24.4
-24.375
-24.35
-24.325
-24.3
-24.275
-24.25
-24.225
-24.2
-24.175
-24.15
-24.125
-24.1
-24.075
-24.05
-24.025
-24
-23.975
-23.95
-23.925
-23.9
-23.875
-23.85
-23.825
-23.8
-23.775
-23.75
-23.725
-23.7
-23.675
-23.65
-23.625
-23.6
-23.575
-23.55
-23.525
-23.5
-23.475
-23.45
-23.425
-23.4
-23.375
-23.35
-23.325
-23.3
-23.275
-23.25
-23.225
-23.2
-23.175
-23.15
-23.125
-23.1
-23.075
-23.05
-23.025
-23
-22.975
-22.95
-22.925
-22.9
-22.875
-22.85
-22.825
-22.8
-22.775
-22.75
-22.725
-22.7
-22.675
-22.65
-22.625
-22.6
-22.575
-22.55
-22.525
-22.5
-22.475
-22.45
-22.425
-22.4
-22.375
-22.35
-22.325
-22.3
-22.275
-22.25
-22.225
-22.2
-22.175
-22.15
-22.125
-22.1
-22.075
-22.05
-22.025
-22
-21.975
-21.95
-21.925
-21.9
-21.875
-21.85
-21.825
-21.8
-21.775
-21.75
-21.725
-21.7
-21.675
-21.65
-21.625
-21.6
-21.575
-21.55
-21.525
-21.5
-21.475
-21.45
-21.425
-21.4
-21.375
-21.35
-21.325
-21.3
-21.275
-21.25
-21.225
-21.2
-21.175
-21.15
-21.125
-21.1
-21.075
-21.05
-21.025
-21
-20.975
-20.95
-20.925
-20.9
-20.875
-20.85
-20.825
-20.8
-20.775
-20.75
-20.725
-20.7
-20.675
-20.65
-20.625
-20.6
-20.575
-20.55
-20.525
-20.5
-20.475
-20.45
-20.425
-20.4
-20.375
-20.35
-20.325
-20.3
-20.275
-20.25
-20.225
-20.2
-20.175
-20.15
-20.125
-20.1
-20.075
-20.05
-20.025
-20
VAR_LIST_END
BEGIN
-13.778771,-137.07521
-14.278057,-138.99596
-12.296728,-137.3779
-15.593525,-139.20932
-16.370602,-140.86179
-13.92413,-140.70467
-15.409036,-135.9133
-15.277041,-142.52895
-14.620364,-146.35924
-14.960298,-150.32332
-12.785176,-143.65788
-14.122835,-145.78989
-13.675753,-144.61914
-14.796262,-142.22252
-13.125459,-127.14799
-15.664533,-133.93359
-15.555724,-142.01308
-14.387895,-143.75706
-13.630737,-141.53706
-15.252291,-149.02554
-11.97096,-139.58443
-12.755322,-128.47253
-15.421124,-136.99089
-15.886119,-139.37126
-15.635864,-122.23563
-14.316113,-144.44908
-14.894345,-153.62653
-15.495399,-134.89943
-13.697262,-142.10384
-16.119743,-143.24455
-14.945938,-151.20912
-13.654082,-157.15276
-16.670153,-139.08891
-13.151675,-125.65437
-14.343033,-139.36592
-13.36748,-145.97556
-16.417587,-127.52215
-15.231051,-154.72
-15.588293,-162.94397
-13.289433,-157.27397
-15.766346,-142.91037
-13.719275,-142.3562
-15.149265,-141.10526
-13.726092,-141.03444
-13.459757,-139.93852
-14.128777,-143.43872
-13.89944,-145.07835
-15.791312,-139.88693
-16.010206,-152.1785
-14.722741,-127.21252
-15.303085,-150.93491
-14.726116,-144.90013
-14.706196,-143.48662
-15.314415,-141.53989
-16.057003,-145.30965
-14.653331,-132.6808
-13.481633,-138.52893
-14.549698,-147.93964
-13.352253,-139.46559
-13.192629,-160.26619
-15.221115,-148.94357
-16.140848,-143.76118
-15.068809,-148.37122
-14.449322,-138.89764
-14.835687,-145.87225
-12.128053,-138.06892
-14.859885,-151.19879
-15.015624,-135.79161
-15.018545,-142.39723
-15.427655,-150.64981
-14.704177,-140.03087
-16.114969,-152.23721
-13.263418,-141.46404
-15.733541,-155.63239
-16.471672,-154.67943
-16.574287,-144.17317
-14.736523,-150.28206
-12.371998,-140.22127
-14.093243,-150.60881
-13.750987,-145.88644
-14.419191,-151.36703
-17.090979,-129.30409
-14.075872,-145.74632
-13.902933,-142.02214
-13.444585,-149.05563
-13.549167,-150.57487
-13.365476,-151.98322
-11.953176,-152.39305
-15.100164,-148.67084
-15.654668,-146.84467
-15.092048,-138.93941
-13.757481,-141.26396
-15.167148,-141.79608
-13.107677,-138.6268
-14.358891,-154.84511
-13.398339,-140.05252
-14.258149,-152.21547
-14.800979,-139.95779
-14.282464,-144.89783
-15.589651,-135.58781
-14.326407,-150.9751
-12.609241,-146.11713
-15.309474,-144.77408
-16.281927,-143.31841
-15.109592,-155.29817
-16.296068,-132.59227
-14.667161,-142.35675
-17.620104,-145.09456
-15.428926,-147.2211
-15.161908,-131.26198
-15.981929,-143.59859
-14.626081,-151.01692
-14.486254,-141.2049
-15.327172,-131.83105
-13.847396,-135.12236
-14.900578,-155.69681
-13.758027,-147.97958
-14.105057,-147.56241
-15.87585,-133.17856
-13.374539,-138.20482
-16.047363,-143.33324
-14.594415,-155.03436
-14.183834,-140.37215
-14.089578,-144.04213
-14.968196,-149.01028
-13.749705,-148.19945
-14.310743,-135.18929
-14.468172,-146.50323
-13.817068,-145.59497
-14.854276,-144.72609
-14.114675,-147.56909
-13.668582,-143.73586
-14.497802,-157.95541
-16.140903,-148.18013
-16.395126,-150.99939
-14.885108,-134.23372
-14.693922,-151.3549
-14.245646,-147.14354
-14.643826,-133.9312
-14.007557,-147.95938
-14.327445,-150.96179
-14.704955,-142.12022
-14.969136,-143.85416
-16.714735,-146.90157
-13.737655,-136.10706
-16.383604,-149.87686
-15.068008,-139.99417
-14.435487,-144.46605
-16.58511,-157.28412
-14.360765,-137.5397
-16.167452,-147.09669
-13.940697,-142.6097
-13.466665,-146.42865
-16.327812,-145.90324
-13.111584,-142.08208
-13.804178,-150.4321
-15.273443,-149.0195
-15.499806,-147.36696
-14.389166,-148.60965
-14.635311,-142.54208
-14.874483,-148.97076
-14.176561,-140.17441
-14.265331,-139.38478
-14.206429,-144.50403
-13.628775,-142.35814
-15.103505,-140.71188
-14.541329,-139.03055
-14.482651,-147.77753
-14.126191,-136.11348
-14.478266,-138.79402
-14.310386,-152.25595
-14.455458,-141.03639
-14.868363,-146.53099
-15.501312,-145.19141
-14.338019,-155.83376
-13.49149,-142.7635
-14.813807,-155.96277
-13.882743,-142.54398
-16.154554,-141.14148
-14.058465,-141.33372
-14.444994,-152.37531
-14.958307,-137.27907
-15.187449,-150.05743
-14.053947,-137.27347
-15.895343,-144.78931
-14.80845,-135.19589
-13.636584,-152.26793
-14.726429,-135.11354
-14.848829,-142.44492
-13.895706,-146.32529
-14.333438,-139.90535
-16.245531,-143.44334
-15.950084,-138.41597
-13.807296,-147.31699
-15.714709,-142.4254
-14.180218,-146.20596
-14.391713,-142.57864
-13.765857,-141.53299
-14.687678,-154.00949
-16.307552,-134.70213
-14.373767,-147.28741
-14.276104,-138.27647
-14.322682,-151.71928
-13.739211,-140.44691
-14.58792,-137.96626
-15.00567,-148.93311
-15.342746,-138.47913
-15.367264,-146.59029
-15.946727,-149.97787
-14.193813,-139.97687
-15.008961,-147.61473
-14.299223,-151.01437
-15.54956,-146.57941
-16.574932,-149.22511
-13.679758,-148.7782
-14.911735,-139.96069
-14.790276,-145.72186
-14.118363,-144.40419
-15.012636,-143.97475
-14.72598,-141.56209
-15.312885,-152.26553
-12.840077,-136.78883
-16.514963,-132.94833
-15.211432,-142.73445
-14.965071,-143.13994
-15.862611,-141.10629
-14.756944,-147.34673
-13.923838,-148.40903
-14.084636,-151.91867
-14.917236,-145.09114
-15.118783,-146.18411
-14.909745,-144.77643
-15.452134,-152.59035
-13.063577,-151.78722
-13.450641,-143.42441
-14.75441,-146.68365
-14.756291,-146.68378
-15.138254,-151.96283
-13.553568,-149.45361
-14.200558,-132.65794
-14.584081,-139.8197
-14.787096,-137.8076
-14.517645,-136.68988
-14.72432,-147.86055
-15.311471,-144.70071
-14.286713,-140.55388
-15.073989,-141.40341
-13.519814,-134.43594
-14.416639,-147.29976
-14.114996,-144.23784
-13.422855,-139.64502
-14.167979,-137.20522
-14.556788,-145.25926
-14.418893,-146.82181
-13.985054,-140.61446
-15.077122,-145.88499
-15.943071,-136.81825
-14.642337,-142.07169
-14.184522,-145.74136
-14.057433,-147.66606
-14.672187,-143.83801
-14.468391,-143.7114
-13.519234,-144.80104
-15.357731,-141.20364
-15.996763,-143.14296
-14.578338,-145.19409
-13.78441,-139.3535
-15.372128,-147.96104
-14.681926,-139.9883
-13.961965,-146.92351
-14.88973,-149.5125
-14.918469,-142.37704
-14.109547,-140.48407
-13.547763,-141.61443
-15.39638,-141.58911
-15.733161,-145.43452
-15.09732,-144.81596
-14.143921,-143.77065
-13.957342,-143.69637
-13.599432,-142.09862
-13.914668,-148.36765
-14.389755,-142.68779
-14.623105,-144.10143
-14.882771,-143.10458
-15.224525,-144.32941
-15.328192,-140.87076
-14.905441,-145.37883
-14.169785,-144.23068
-14.737675,-147.43715
-14.40936,-147.95294
-14.780421,-134.37366
-14.581974,-138.55905
-13.857384,-145.76463
-15.188695,-137.18076
-14.064124,-146.88025
-13.44076,-144.01988
-14.247915,-145.00125
-14.719907,-146.08606
-14.595095,-149.54654
-14.092631,-148.39944
-14.501629,-144.25455
-14.275128,-141.61685
-14.653599,-141.38489
-15.615508,-142.12001
-14.708605,-140.23428
-14.524355,-141.24106
-15.297539,-142.42274
-13.253636,-143.38071
-14.221376,-147.51599
-13.77538,-146.5407
-15.490936,-146.86308
-14.513947,-144.95702
-14.697985,-137.90865
-13.252208,-144.5849
-14.668775,-147.46188
-13.821433,-152.63866
-14.832063,-132.06703
-14.535317,-147.19167
-14.166829,-142.72935
-14.398498,-143.7847
-14.154055,-139.491
-14.642083,-139.48
-14.970485,-142.32491
-14.092368,-146.17476
-14.446871,-149.90201
-14.754856,-144.72285
-14.548748,-147.20961
-14.333727,-143.26294
-15.197615,-145.77112
-13.557085,-141.99541
-14.591889,-142.35179
-14.462503,-147.65027
-14.330024,-135.92126
-14.119083,-141.9657
-14.835511,-138.68863
-14.553501,-144.84669
-16.158396,-150.75352
-14.112109,-145.20871
-14.95847,-148.26767
-14.526385,-139.83192
-14.699539,-141.46779
-14.413117,-148.11624
-14.514647,-144.4416
-14.663514,-140.55899
-13.604162,-147.26169
-14.793515,-139.33113
-15.216502,-146.44243
-16.133139,-145.1239
-14.790165,-143.63705
-15.007647,-145.51057
-14.606947,-145.30051
-15.171277,-147.07298
-14.693209,-145.32388
-14.4861,-145.26703
-15.046191,-143.90594
-13.891387,-137.42854
-13.993443,-140.7641
-15.628151,-148.36279
-14.845,-142.26176
-15.469096,-148.03796
-14.695609,-149.28101
-14.051559,-142.90511
-15.463394,-142.70908
-14.423585,-140.37512
-13.657917,-142.10718
-14.497271,-148.37981
-14.716289,-138.93736
-14.561147,-146.80678
-14.731275,-145.3707
-14.218457,-144.77197
-14.052935,-141.32048
-14.30835,-142.38202
-15.160159,-143.9986
-14.926858,-147.26064
-14.836119,-144.50464
-14.476888,-145.89391
-14.04387,-144.97046
-14.688332,-141.6909
-14.523249,-148.03812
-14.70037,-149.8004
-14.203198,-147.11459
-14.12362,-143.72955
-14.690186,-148.90411
-14.512047,-148.2112
-14.21915,-139.71376
-14.508105,-147.44902
-14.754842,-143.84114
-14.163601,-144.54286
-13.689712,-147.56918
-14.994641,-140.82254
-15.02641,-145.52718
-14.71234,-144.17851
-14.894621,-143.82574
-14.440258,-144.84476
-15.314141,-144.59099
-15.133762,-151.71657
-14.859185,-143.36465
-14.72129,-144.56947
-15.328531,-147.71527
-14.668829,-146.94727
-14.39592,-143.85185
-14.503657,-145.84421
-14.417142,-144.60115
-14.509995,-145.08542
-14.681271,-148.45959
-14.983522,-146.55646
-14.750478,-146.85718
-15.459602,-146.28801
-14.436223,-145.71239
-14.318626,-141.67401
-14.386866,-138.47368
-13.551786,-145.03502
-15.214181,-138.8197
-15.869441,-137.40971
-15.16733,-142.19115
-15.057499,-132.36205
-14.844643,-147.63585
-14.385798,-148.59398
-15.122227,-144.40471
-15.23457,-144.46799
-14.600195,-144.61113
-14.739028,-142.28442
-14.742246,-142.84514
-15.246573,-142.39223
-14.361504,-145.2774
-14.742885,-143.26411
-14.552337,-145.63518
-14.941145,-143.05382
-13.994757,-148.15251
-14.233547,-141.41809
-14.281886,-147.92264
-14.587357,-143.80302
-15.250831,-145.43845
-14.5172,-145.45757
-14.471432,-146.3105
-14.879106,-142.87135
-14.137239,-141.95889
-14.917307,-144.68427
-15.166981,-147.74913
-14.757961,-144.56168
-14.834517,-140.63832
-14.654801,-148.70735
-14.360018,-141.06416
-14.497347,-146.30522
-14.412026,-142.34926
-15.680164,-147.40033
-14.669775,-145.55794
-14.322141,-145.34039
-14.506363,-139.23492
-14.182168,-144.2813
-14.362613,-146.96938
-15.091782,-144.7538
-14.246587,-146.33971
-14.708834,-147.59682
-14.008366,-143.48776
-13.895991,-145.59547
-14.966725,-142.56908
-14.127295,-147.84587
-14.834833,-143.74168
-14.406631,-147.49902
-14.359825,-141.84792
-14.321619,-148.07501
-15.104821,-142.22552
-14.677363,-143.12503
-14.846079,-143.04976
-14.955935,-144.77917
-14.513233,-139.62663
-14.775112,-147.44164
-13.913297,-140.13705
-14.405645,-145.67635
-15.122586,-142.52513
-14.546224,-144.53477
-14.206295,-144.28441
-14.913848,-147.67905
-14.770494,-140.79266
-15.337252,-146.72603
-15.325863,-142.68808
-14.308055,-147.86583
-14.8279,-141.50035
-14.420099,-143.50075
-14.391378,-141.89816
-14.600525,-142.44765
-14.329438,-139.55122
-14.580821,-143.26105
-14.714772,-142.93919
-14.859106,-146.13605
-15.123115,-146.31027
-14.381968,-147.56
-15.023409,-144.12155
-14.148914,-143.35825
-14.845459,-150.13004
-14.902283,-142.35161
-14.766349,-147.21657
-14.599231,-148.27708
-14.898827,-144.42139
-14.039337,-146.39207
-14.578788,-141.07666
-14.870687,-146.97736
-15.049119,-145.44965
-15.255895,-143.83678
-14.743527,-143.81487
-14.470736,-146.60704
-14.811064,-148.11612
-14.948597,-150.29015
-14.201492,-144.82388
-14.548687,-144.71017
-14.24834,-140.60419
-14.189767,-142.5143
-14.72119,-144.15541
-14.521701,-145.14542
-14.378155,-146.04921
-14.765239,-143.84131
-14.334038,-145.05409
-14.119708,-140.70848
-14.681664,-147.52855
-14.19176,-144.49593
-14.310847,-144.14902
-14.723808,-142.80934
-14.681549,-146.67247
-14.303415,-146.53271
-14.245707,-144.66055
-14.773179,-145.72308
-14.519289,-145.00789
-14.185975,-146.36417
-14.400835,-144.49846
-14.665524,-148.11504
-14.618795,-143.77536
-14.240984,-144.49713
-14.992003,-143.95364
-14.767393,-144.0114
-14.783955,-144.40446
-14.719464,-143.58437
-13.903573,-147.41576
-14.788433,-143.29532
-14.617686,-142.32021
-14.577835,-141.70888
-14.870127,-146.69417
-14.91808,-148.00482
-15.189116,-142.66573
-14.463838,-144.59683
-14.577458,-144.44589
-14.468318,-143.32603
-14.746311,-146.58293
-14.425845,-144.97363
-14.089042,-144.33231
-14.758879,-143.65259
-14.793361,-140.38043
-14.438085,-141.60956
-14.355025,-143.27467
-14.375367,-143.59995
-14.452764,-145.59938
-14.505601,-145.73993
-14.236682,-145.20363
-15.136904,-142.87486
-14.38984,-143.36256
-14.935209,-146.47464
-14.826081,-143.41286
-14.253247,-147.14603
-15.15206,-143.50142
-14.848068,-145.15988
-14.061175,-143.23399
-14.892497,-141.06824
-14.686043,-145.94261
-13.792109,-143.22108
-13.986054,-144.04976
-14.754645,-147.47722
-14.213552,-146.32376
-14.411561,-145.81509
-14.826754,-144.36301
-14.835639,-150.06226
-14.306737,-145.75211
-14.397521,-145.86844
-14.821139,-139.70349
-14.798036,-146.31578
-14.670621,-144.56143
