CITIFILE A.01.01
!Agilent Technologies,N5230C,MY48100142,A.08.04.10
!Agilent N5230C: A.08.04.10
!Format: LogMag/Angle
!Date: Thursday, July 23, 2020 16:06:16
NAME CH1_DATA
VAR Power MAG 801
DATA S11 DBANGLE
DATA S21 DBANGLE
DATA S12 DBANGLE
DATA S22 DBANGLE
VAR_LIST_BEGIN
-40
-39.975
-39.95
-39.925
-39.9
-39.875
-39.85
-39.825
-39.8
-39.775
-39.75
-39.725
-39.7
-39.675
-39.65
-39.625
-39.6
-39.575
-39.55
-39.525
-39.5
-39.475
-39.45
-39.425
-39.4
-39.375
-39.35
-39.325
-39.3
-39.275
-39.25
-39.225
-39.2
-39.175
-39.15
-39.125
-39.1
-39.075
-39.05
-39.025
-39
-38.975
-38.95
-38.925
-38.9
-38.875
-38.85
-38.825
-38.8
-38.775
-38.75
-38.725
-38.7
-38.675
-38.65
-38.625
-38.6
-38.575
-38.55
-38.525
-38.5
-38.475
-38.45
-38.425
-38.4
-38.375
-38.35
-38.325
-38.3
-38.275
-38.25
-38.225
-38.2
-38.175
-38.15
-38.125
-38.1
-38.075
-38.05
-38.025
-38
-37.975
-37.95
-37.925
-37.9
-37.875
-37.85
-37.825
-37.8
-37.775
-37.75
-37.725
-37.7
-37.675
-37.65
-37.625
-37.6
-37.575
-37.55
-37.525
-37.5
-37.475
-37.45
-37.425
-37.4
-37.375
-37.35
-37.325
-37.3
-37.275
-37.25
-37.225
-37.2
-37.175
-37.15
-37.125
-37.1
-37.075
-37.05
-37.025
-37
-36.975
-36.95
-36.925
-36.9
-36.875
-36.85
-36.825
-36.8
-36.775
-36.75
-36.725
-36.7
-36.675
-36.65
-36.625
-36.6
-36.575
-36.55
-36.525
-36.5
-36.475
-36.45
-36.425
-36.4
-36.375
-36.35
-36.325
-36.3
-36.275
-36.25
-36.225
-36.2
-36.175
-36.15
-36.125
-36.1
-36.075
-36.05
-36.025
-36
-35.975
-35.95
-35.925
-35.9
-35.875
-35.85
-35.825
-35.8
-35.775
-35.75
-35.725
-35.7
-35.675
-35.65
-35.625
-35.6
-35.575
-35.55
-35.525
-35.5
-35.475
-35.45
-35.425
-35.4
-35.375
-35.35
-35.325
-35.3
-35.275
-35.25
-35.225
-35.2
-35.175
-35.15
-35.125
-35.1
-35.075
-35.05
-35.025
-35
-34.975
-34.95
-34.925
-34.9
-34.875
-34.85
-34.825
-34.8
-34.775
-34.75
-34.725
-34.7
-34.675
-34.65
-34.625
-34.6
-34.575
-34.55
-34.525
-34.5
-34.475
-34.45
-34.425
-34.4
-34.375
-34.35
-34.325
-34.3
-34.275
-34.25
-34.225
-34.2
-34.175
-34.15
-34.125
-34.1
-34.075
-34.05
-34.025
-34
-33.975
-33.95
-33.925
-33.9
-33.875
-33.85
-33.825
-33.8
-33.775
-33.75
-33.725
-33.7
-33.675
-33.65
-33.625
-33.6
-33.575
-33.55
-33.525
-33.5
-33.475
-33.45
-33.425
-33.4
-33.375
-33.35
-33.325
-33.3
-33.275
-33.25
-33.225
-33.2
-33.175
-33.15
-33.125
-33.1
-33.075
-33.05
-33.025
-33
-32.975
-32.95
-32.925
-32.9
-32.875
-32.85
-32.825
-32.8
-32.775
-32.75
-32.725
-32.7
-32.675
-32.65
-32.625
-32.6
-32.575
-32.55
-32.525
-32.5
-32.475
-32.45
-32.425
-32.4
-32.375
-32.35
-32.325
-32.3
-32.275
-32.25
-32.225
-32.2
-32.175
-32.15
-32.125
-32.1
-32.075
-32.05
-32.025
-32
-31.975
-31.95
-31.925
-31.9
-31.875
-31.85
-31.825
-31.8
-31.775
-31.75
-31.725
-31.7
-31.675
-31.65
-31.625
-31.6
-31.575
-31.55
-31.525
-31.5
-31.475
-31.45
-31.425
-31.4
-31.375
-31.35
-31.325
-31.3
-31.275
-31.25
-31.225
-31.2
-31.175
-31.15
-31.125
-31.1
-31.075
-31.05
-31.025
-31
-30.975
-30.95
-30.925
-30.9
-30.875
-30.85
-30.825
-30.8
-30.775
-30.75
-30.725
-30.7
-30.675
-30.65
-30.625
-30.6
-30.575
-30.55
-30.525
-30.5
-30.475
-30.45
-30.425
-30.4
-30.375
-30.35
-30.325
-30.3
-30.275
-30.25
-30.225
-30.2
-30.175
-30.15
-30.125
-30.1
-30.075
-30.05
-30.025
-30
-29.975
-29.95
-29.925
-29.9
-29.875
-29.85
-29.825
-29.8
-29.775
-29.75
-29.725
-29.7
-29.675
-29.65
-29.625
-29.6
-29.575
-29.55
-29.525
-29.5
-29.475
-29.45
-29.425
-29.4
-29.375
-29.35
-29.325
-29.3
-29.275
-29.25
-29.225
-29.2
-29.175
-29.15
-29.125
-29.1
-29.075
-29.05
-29.025
-29
-28.975
-28.95
-28.925
-28.9
-28.875
-28.85
-28.825
-28.8
-28.775
-28.75
-28.725
-28.7
-28.675
-28.65
-28.625
-28.6
-28.575
-28.55
-28.525
-28.5
-28.475
-28.45
-28.425
-28.4
-28.375
-28.35
-28.325
-28.3
-28.275
-28.25
-28.225
-28.2
-28.175
-28.15
-28.125
-28.1
-28.075
-28.05
-28.025
-28
-27.975
-27.95
-27.925
-27.9
-27.875
-27.85
-27.825
-27.8
-27.775
-27.75
-27.725
-27.7
-27.675
-27.65
-27.625
-27.6
-27.575
-27.55
-27.525
-27.5
-27.475
-27.45
-27.425
-27.4
-27.375
-27.35
-27.325
-27.3
-27.275
-27.25
-27.225
-27.2
-27.175
-27.15
-27.125
-27.1
-27.075
-27.05
-27.025
-27
-26.975
-26.95
-26.925
-26.9
-26.875
-26.85
-26.825
-26.8
-26.775
-26.75
-26.725
-26.7
-26.675
-26.65
-26.625
-26.6
-26.575
-26.55
-26.525
-26.5
-26.475
-26.45
-26.425
-26.4
-26.375
-26.35
-26.325
-26.3
-26.275
-26.25
-26.225
-26.2
-26.175
-26.15
-26.125
-26.1
-26.075
-26.05
-26.025
-26
-25.975
-25.95
-25.925
-25.9
-25.875
-25.85
-25.825
-25.8
-25.775
-25.75
-25.725
-25.7
-25.675
-25.65
-25.625
-25.6
-25.575
-25.55
-25.525
-25.5
-25.475
-25.45
-25.425
-25.4
-25.375
-25.35
-25.325
-25.3
-25.275
-25.25
-25.225
-25.2
-25.175
-25.15
-25.125
-25.1
-25.075
-25.05
-25.025
-25
-24.975
-24.95
-24.925
-24.9
-24.875
-24.85
-24.825
-24.8
-24.775
-24.75
-24.725
-24.7
-24.675
-24.65
-24.625
-24.6
-24.575
-24.55
-24.525
-24.5
-24.475
-24.45
-24.425
-24.4
-24.375
-24.35
-24.325
-24.3
-24.275
-24.25
-24.225
-24.2
-24.175
-24.15
-24.125
-24.1
-24.075
-24.05
-24.025
-24
-23.975
-23.95
-23.925
-23.9
-23.875
-23.85
-23.825
-23.8
-23.775
-23.75
-23.725
-23.7
-23.675
-23.65
-23.625
-23.6
-23.575
-23.55
-23.525
-23.5
-23.475
-23.45
-23.425
-23.4
-23.375
-23.35
-23.325
-23.3
-23.275
-23.25
-23.225
-23.2
-23.175
-23.15
-23.125
-23.1
-23.075
-23.05
-23.025
-23
-22.975
-22.95
-22.925
-22.9
-22.875
-22.85
-22.825
-22.8
-22.775
-22.75
-22.725
-22.7
-22.675
-22.65
-22.625
-22.6
-22.575
-22.55
-22.525
-22.5
-22.475
-22.45
-22.425
-22.4
-22.375
-22.35
-22.325
-22.3
-22.275
-22.25
-22.225
-22.2
-22.175
-22.15
-22.125
-22.1
-22.075
-22.05
-22.025
-22
-21.975
-21.95
-21.925
-21.9
-21.875
-21.85
-21.825
-21.8
-21.775
-21.75
-21.725
-21.7
-21.675
-21.65
-21.625
-21.6
-21.575
-21.55
-21.525
-21.5
-21.475
-21.45
-21.425
-21.4
-21.375
-21.35
-21.325
-21.3
-21.275
-21.25
-21.225
-21.2
-21.175
-21.15
-21.125
-21.1
-21.075
-21.05
-21.025
-21
-20.975
-20.95
-20.925
-20.9
-20.875
-20.85
-20.825
-20.8
-20.775
-20.75
-20.725
-20.7
-20.675
-20.65
-20.625
-20.6
-20.575
-20.55
-20.525
-20.5
-20.475
-20.45
-20.425
-20.4
-20.375
-20.35
-20.325
-20.3
-20.275
-20.25
-20.225
-20.2
-20.175
-20.15
-20.125
-20.1
-20.075
-20.05
-20.025
-20
VAR_LIST_END
BEGIN
-13.960924,-142.68616
-14.556122,-143.28911
-14.467107,-149.28282
-15.114098,-147.7429
-14.762757,-145.39973
-14.939672,-146.90004
-14.66008,-143.47316
-14.502645,-145.58339
-14.927584,-146.43919
-14.688371,-146.61189
-15.008831,-144.82187
-14.247516,-146.54189
-14.179136,-147.59724
-14.507271,-146.54442
-15.304678,-147.26674
-14.93287,-143.92763
-15.06373,-146.8181
-14.07832,-143.52859
-14.650833,-144.08736
-15.327669,-146.77519
-14.61321,-148.55437
-14.705081,-148.15573
-14.71861,-141.13786
-14.448337,-145.15277
-15.112819,-141.53038
-14.591145,-144.11363
-14.291071,-146.1481
-14.591546,-144.80034
-14.434739,-145.81877
-14.861713,-144.08389
-14.800606,-142.74664
-14.532743,-144.21568
-15.100791,-145.80824
-14.811813,-139.45001
-14.502497,-144.44963
-15.077036,-144.73569
-14.662416,-140.89462
-14.93926,-147.69977
-14.335531,-144.63292
-14.938951,-147.26799
-14.246318,-143.41318
-14.42233,-147.42099
-14.320004,-144.72282
-15.538924,-141.49004
-14.663498,-146.93213
-14.62777,-146.36726
-15.144118,-141.43803
-14.642351,-141.68932
-14.3926,-143.49525
-15.069459,-143.19598
-14.325718,-142.96823
-15.015874,-141.48091
-14.258698,-144.55542
-14.796124,-145.62653
-14.737994,-144.93346
-15.254584,-145.99562
-14.262718,-144.78577
-14.935289,-146.2709
-15.007583,-148.47121
-14.322054,-147.45671
-14.955564,-146.6496
-14.672235,-144.6156
-14.505523,-144.45081
-14.067074,-145.75211
-14.023689,-141.69096
-14.898401,-143.01129
-14.877162,-145.91353
-14.071692,-144.61967
-15.451837,-142.88046
-14.781676,-143.53227
-14.462957,-146.05801
-14.789854,-142.53368
-15.123964,-145.33237
-14.585087,-143.53535
-14.502959,-143.83337
-14.468408,-143.28456
-14.378418,-145.63797
-14.713471,-141.54581
-14.933805,-144.82976
-14.103303,-146.84464
-14.602363,-145.09685
-14.605773,-147.49252
-14.729135,-144.41154
-14.512063,-148.32579
-14.534061,-144.52518
-14.799619,-146.1631
-14.081249,-142.36722
-14.738671,-143.24101
-14.436837,-140.5688
-14.359447,-141.74379
-14.873886,-142.29207
-14.347913,-144.84149
-14.086604,-146.5118
-14.572304,-144.35262
-14.748066,-144.84583
-14.906661,-144.68188
-14.937535,-144.44539
-14.632481,-147.39355
-14.754793,-140.5213
-14.400667,-142.67825
-15.315961,-147.49484
-14.575197,-144.81517
-14.705335,-141.61359
-14.62916,-144.52373
-14.830726,-145.24619
-14.632641,-141.44287
-14.647384,-144.41096
-14.753429,-144.36043
-14.927454,-147.4189
-14.756678,-144.67123
-14.369905,-144.07213
-14.984422,-143.19421
-14.786566,-141.67264
-14.621428,-145.44014
-14.000929,-145.46043
-14.633884,-145.35602
-14.682608,-145.72952
-14.468472,-138.68265
-14.816166,-142.97821
-14.599629,-145.17186
-15.492657,-145.02208
-14.495744,-141.49901
-14.231133,-144.62581
-14.557029,-143.87259
-15.227177,-143.18495
-14.800568,-147.6515
-14.373445,-144.98428
-14.806634,-144.59392
-14.791259,-146.00986
-14.696596,-143.58362
-14.485936,-142.54692
-14.306706,-144.90511
-14.922194,-144.06464
-14.587932,-145.94566
-14.312696,-143.05389
-14.643508,-144.42746
-14.512585,-148.00372
-14.49017,-143.68803
-14.298635,-142.35167
-14.857057,-141.93765
-14.661888,-143.28198
-15.238604,-148.39725
-14.422636,-145.2937
-14.63375,-146.31584
-14.554117,-146.02312
-14.144685,-140.75069
-14.432841,-146.53305
-14.497626,-145.23671
-14.505505,-144.63446
-14.813134,-144.52757
-14.509651,-145.15276
-14.746256,-146.10367
-14.445868,-145.53345
-14.72293,-146.54344
-14.191525,-141.10023
-14.383979,-145.31546
-14.824625,-141.91623
-14.449396,-143.62248
-14.259579,-141.8806
-14.556582,-147.02003
-14.265572,-145.43816
-14.382437,-145.8017
-14.567015,-146.24271
-14.886782,-146.79056
-14.355332,-148.37469
-14.534022,-142.01637
-14.282827,-143.91139
-14.405824,-142.37038
-14.382053,-144.80861
-14.868768,-142.63887
-15.129728,-145.78888
-14.542467,-144.55135
-14.898094,-144.1823
-14.474283,-147.83235
-15.003279,-144.36263
-14.54779,-146.23096
-15.066802,-145.40855
-14.519632,-145.08681
-14.552068,-144.10251
-14.6939,-144.71021
-15.099709,-146.17998
-14.651428,-143.05495
-14.993533,-144.76434
-14.537704,-144.4906
-14.441476,-144.64714
-14.592499,-144.15758
-14.68657,-143.12897
-14.646933,-143.95825
-14.838613,-145.46457
-14.830464,-146.24387
-14.376629,-144.23894
-14.444973,-147.94443
-14.285411,-143.97882
-14.684838,-142.55373
-14.758945,-145.14175
-14.891691,-144.20859
-15.000789,-144.99051
-14.756685,-141.95117
-14.702129,-143.77281
-14.534514,-146.56305
-14.543004,-142.98048
-14.491711,-144.14201
-14.583806,-145.50024
-14.965837,-142.843
-14.465449,-145.23921
-14.547615,-143.00604
-14.344994,-142.42548
-14.741577,-143.38136
-14.72147,-143.89108
-14.673052,-143.3185
-14.51084,-145.2625
-14.634857,-146.06201
-14.841002,-141.42868
-14.673223,-142.90286
-14.402726,-143.80644
-14.782785,-145.29533
-14.310898,-142.48747
-14.976454,-142.96327
-14.662156,-145.09848
-14.551092,-144.01524
-14.497185,-143.1823
-14.507229,-145.45396
-14.600801,-144.91217
-14.771631,-145.32053
-14.597866,-147.81952
-14.840769,-143.0385
-14.333206,-146.2715
-14.601552,-142.60478
-14.78487,-144.69902
-14.774407,-142.13521
-14.651724,-143.93929
-14.701036,-144.0159
-14.46214,-144.7682
-14.472626,-142.38457
-14.620679,-143.59627
-14.829501,-142.91605
-14.681498,-145.89822
-15.11241,-142.40616
-14.758297,-145.76711
-14.510244,-142.8367
-14.622701,-141.17274
-14.793976,-143.41919
-14.803223,-146.31046
-14.777516,-145.45375
-14.498261,-143.92953
-14.730504,-140.82286
-14.68733,-143.7645
-14.600188,-143.82549
-14.630096,-143.05869
-14.580126,-143.19966
-14.733898,-144.27588
-14.863174,-142.08159
-14.701825,-146.79776
-14.733618,-144.02499
-14.634886,-144.32217
-14.972683,-146.99916
-14.888337,-141.24948
-14.167503,-144.52454
-14.687039,-144.41808
-14.760736,-144.43015
-14.442059,-142.30965
-14.763733,-145.7536
-14.895084,-145.54181
-14.797003,-144.29768
-14.247295,-142.32675
-14.55576,-143.82544
-14.540192,-142.87889
-14.585853,-145.07913
-14.869516,-142.76289
-14.446133,-146.23134
-14.655664,-145.5576
-14.818009,-143.98572
-14.517284,-146.06879
-14.832932,-145.8907
-14.66597,-145.94128
-14.506753,-144.86089
-14.510618,-146.31923
-14.640788,-144.7341
-14.602962,-144.19507
-14.728614,-143.09796
-14.87017,-144.76834
-14.781763,-142.0894
-14.688498,-146.27095
-14.485679,-144.29918
-14.731896,-145.96086
-14.483515,-143.96466
-14.627118,-144.82802
-14.572737,-143.56204
-14.707364,-143.55368
-14.756503,-145.42221
-14.406511,-144.45018
-14.395697,-142.61902
-14.716456,-142.02522
-14.210857,-143.22986
-14.612259,-146.63776
-14.646247,-145.09282
-14.77979,-144.81184
-14.351818,-142.99773
-14.7901,-144.71765
-14.476927,-144.88297
-14.601335,-144.81894
-14.701829,-146.36223
-14.771173,-143.96559
-14.369366,-143.51036
-14.715466,-143.41013
-14.48722,-142.57973
-14.698475,-145.61188
-14.56816,-142.79231
-14.365521,-144.01862
-14.453379,-144.45546
-14.427251,-144.44049
-14.38768,-143.80939
-14.439748,-144.81566
-14.948378,-143.93597
-14.447496,-148.11195
-14.439612,-145.25766
-14.930492,-142.85982
-14.522584,-142.10638
-14.532677,-143.606
-14.52407,-144.33078
-15.088838,-144.75391
-14.781053,-145.30647
-14.734982,-144.77155
-14.737263,-146.31232
-14.440667,-144.69785
-14.600858,-145.87
-14.471989,-146.55148
-14.517083,-146.29465
-14.470558,-143.19144
-14.81893,-143.29736
-14.453678,-144.93187
-14.477508,-143.67944
-14.526237,-143.92459
-14.641439,-143.84296
-14.567631,-145.35257
-14.65442,-143.2326
-14.733228,-145.20311
-14.540095,-144.97626
-14.608932,-144.78735
-14.717801,-144.70547
-14.995818,-145.07323
-14.5484,-145.10759
-14.751459,-145.40353
-14.538741,-144.99728
-14.437704,-144.43581
-14.567825,-145.15341
-14.55588,-143.81207
-14.62884,-145.56042
-14.555433,-143.91673
-14.525243,-145.07887
-14.572838,-145.22575
-14.811277,-144.72652
-14.672944,-144.6412
-14.62639,-144.80014
-14.52695,-144.99902
-14.672519,-144.44501
-14.419481,-145.52507
-14.94089,-144.93704
-14.807919,-144.22586
-14.801229,-143.83444
-14.66488,-145.45323
-14.53936,-144.41985
-14.807125,-143.42874
-14.698067,-145.58183
-14.562799,-144.55917
-14.654205,-144.06871
-14.423176,-145.33269
-14.80948,-144.35915
-14.532184,-144.86806
-14.793165,-144.71745
-14.677497,-142.84962
-14.628917,-143.94069
-14.708645,-146.16609
-14.597548,-143.62463
-14.704118,-144.65495
-14.616321,-146.05331
-14.370114,-144.4774
-14.837832,-145.16862
-14.418385,-144.61021
-14.636646,-144.57961
-14.797767,-144.07361
-14.316716,-145.84396
-14.515667,-144.87305
-14.678843,-145.89319
-14.595874,-144.13037
-14.610201,-144.88815
-14.783002,-145.31999
-14.579209,-144.98874
-14.59637,-144.94751
-14.569842,-145.33005
-14.616454,-143.21312
-14.678165,-144.95956
-14.63381,-143.48935
-14.727749,-145.38205
-14.617806,-144.27725
-14.777816,-143.71672
-14.526499,-144.0891
-14.491027,-143.88562
-14.548291,-144.35966
-14.468732,-145.55385
-14.652312,-145.20013
-14.760077,-144.71475
-14.627544,-145.45195
-14.691648,-144.29935
-14.705847,-144.86588
-14.557199,-143.75475
-14.621532,-144.99181
-14.667545,-145.91917
-14.901289,-144.39569
-14.802764,-144.6955
-14.715388,-143.2254
-14.603455,-143.78061
-14.561286,-145.14482
-14.658887,-143.6199
-14.530417,-145.80457
-14.568784,-143.17136
-14.87089,-144.49789
-14.573669,-145.59393
-14.643078,-144.59151
-14.533652,-145.75177
-14.751952,-144.39064
-14.562677,-145.19986
-14.523529,-144.31908
-14.708832,-143.68703
-14.489745,-145.84615
-14.758198,-145.02393
-14.499279,-143.39203
-15.003553,-144.84082
-14.557082,-145.48012
-14.59235,-144.99318
-14.508064,-144.57281
-14.658612,-145.11943
-14.735952,-144.76216
-14.483546,-145.05733
-14.549748,-143.30923
-14.634665,-144.16586
-14.510191,-144.43256
-14.766503,-144.99277
-14.537542,-144.2823
-14.473071,-144.80252
-14.524284,-144.01045
-14.738588,-142.38098
-14.766215,-144.70073
-14.408385,-145.49675
-14.832784,-143.62726
-14.720497,-143.79884
-14.580536,-145.06172
-14.563064,-144.75186
-14.532474,-144.74551
-14.633385,-144.08652
-14.650566,-144.84428
-14.449452,-145.61592
-14.61281,-146.60899
-14.503436,-144.8447
-14.77436,-145.53087
-14.50595,-144.89072
-14.714618,-143.84244
-14.661927,-144.17528
-14.544275,-144.89499
-14.70187,-145.12199
-14.69203,-144.09705
-14.557203,-144.30351
-14.769863,-145.12689
-14.607959,-143.3107
-14.799681,-143.90295
-14.542082,-143.93179
-14.676202,-144.12177
-14.510858,-145.08363
-14.390668,-145.61908
-14.712357,-144.51573
-14.582737,-144.74471
-14.535037,-143.3797
-14.511205,-144.06949
-14.635794,-144.15813
-14.633209,-144.93396
-14.486322,-145.35182
-14.63343,-144.13039
-14.668777,-145.60168
-14.853312,-144.02893
-14.611652,-144.62277
-14.578717,-143.64215
-14.446899,-143.33107
-14.544425,-145.08607
-14.621191,-143.9696
-14.408219,-144.12865
-14.65263,-144.29814
-14.600266,-143.59933
-14.548377,-144.17957
-14.773976,-145.31834
-14.560186,-144.56233
-14.548755,-145.05106
-14.545558,-143.32115
-14.633217,-143.02116
-14.624991,-145.37256
-14.367538,-143.72897
-14.663085,-143.60143
-14.644484,-144.2077
-14.602833,-144.10506
-14.656075,-144.52136
-14.58402,-145.1216
-14.738395,-143.04617
-14.5097,-144.50191
-14.624514,-145.95251
-14.577895,-144.0056
-14.541184,-143.85098
-14.626551,-144.82814
-14.41951,-143.65109
-14.663811,-144.35446
-14.615108,-143.40419
-14.544371,-144.46159
-14.738439,-144.55673
-14.630561,-143.1573
-14.571926,-144.86301
-14.716924,-143.78145
-14.812987,-144.60811
-14.65654,-144.02698
-14.622392,-144.4778
-14.696437,-143.31668
-14.680341,-144.16066
-14.564479,-144.50945
-14.653169,-144.84537
-14.657328,-143.8387
-14.681376,-143.92796
-14.672237,-144.01082
-14.625471,-144.18422
-14.59463,-142.96706
-14.618999,-143.75917
-14.565409,-143.46669
-14.71643,-143.60802
-14.583448,-144.62273
-14.555451,-145.47955
-14.728153,-144.36394
-14.509768,-144.75568
-14.573002,-145.37373
-14.599942,-143.8532
-14.677397,-143.63934
-14.58758,-144.22951
-14.643676,-143.41293
-14.619974,-145.23407
-14.569122,-144.99911
-14.724162,-144.33292
-14.714531,-145.04784
-14.749045,-144.40443
-14.661526,-144.28162
-14.872684,-144.26361
-14.496731,-145.22028
-14.59682,-145.42618
-14.409925,-145.5027
-14.48597,-144.41731
-14.570317,-144.02106
-14.565421,-145.23695
-14.496891,-145.00874
-14.553168,-144.57129
-14.640614,-143.85863
-14.667193,-144.07962
-14.755829,-144.11723
-14.632382,-144.68787
-14.649719,-144.46507
-14.613872,-144.4787
-14.521377,-144.7885
-14.833515,-142.38681
-14.490952,-144.18384
-14.532056,-144.29004
-14.53791,-144.47025
-14.416649,-144.13689
-14.709815,-144.64832
-14.65687,-144.9155
-14.608245,-144.15543
-14.627416,-144.39233
-14.58555,-143.77692
-14.525015,-144.7323
-14.612306,-144.23196
-14.769276,-144.05644
-14.597516,-144.64043
-14.736778,-143.34834
-14.582641,-144.71143
