CITIFILE A.01.01
!Agilent Technologies,N5230C,MY48100142,A.08.04.10
!Agilent N5230C: A.08.04.10
!Format: LogMag/Angle
!Date: Saturday, August 22, 2020 15:45:06
NAME CH1_DATA
VAR Power MAG 801
DATA S11 DBANGLE
DATA S21 DBANGLE
DATA S12 DBANGLE
DATA S22 DBANGLE
VAR_LIST_BEGIN
-40
-39.975
-39.95
-39.925
-39.9
-39.875
-39.85
-39.825
-39.8
-39.775
-39.75
-39.725
-39.7
-39.675
-39.65
-39.625
-39.6
-39.575
-39.55
-39.525
-39.5
-39.475
-39.45
-39.425
-39.4
-39.375
-39.35
-39.325
-39.3
-39.275
-39.25
-39.225
-39.2
-39.175
-39.15
-39.125
-39.1
-39.075
-39.05
-39.025
-39
-38.975
-38.95
-38.925
-38.9
-38.875
-38.85
-38.825
-38.8
-38.775
-38.75
-38.725
-38.7
-38.675
-38.65
-38.625
-38.6
-38.575
-38.55
-38.525
-38.5
-38.475
-38.45
-38.425
-38.4
-38.375
-38.35
-38.325
-38.3
-38.275
-38.25
-38.225
-38.2
-38.175
-38.15
-38.125
-38.1
-38.075
-38.05
-38.025
-38
-37.975
-37.95
-37.925
-37.9
-37.875
-37.85
-37.825
-37.8
-37.775
-37.75
-37.725
-37.7
-37.675
-37.65
-37.625
-37.6
-37.575
-37.55
-37.525
-37.5
-37.475
-37.45
-37.425
-37.4
-37.375
-37.35
-37.325
-37.3
-37.275
-37.25
-37.225
-37.2
-37.175
-37.15
-37.125
-37.1
-37.075
-37.05
-37.025
-37
-36.975
-36.95
-36.925
-36.9
-36.875
-36.85
-36.825
-36.8
-36.775
-36.75
-36.725
-36.7
-36.675
-36.65
-36.625
-36.6
-36.575
-36.55
-36.525
-36.5
-36.475
-36.45
-36.425
-36.4
-36.375
-36.35
-36.325
-36.3
-36.275
-36.25
-36.225
-36.2
-36.175
-36.15
-36.125
-36.1
-36.075
-36.05
-36.025
-36
-35.975
-35.95
-35.925
-35.9
-35.875
-35.85
-35.825
-35.8
-35.775
-35.75
-35.725
-35.7
-35.675
-35.65
-35.625
-35.6
-35.575
-35.55
-35.525
-35.5
-35.475
-35.45
-35.425
-35.4
-35.375
-35.35
-35.325
-35.3
-35.275
-35.25
-35.225
-35.2
-35.175
-35.15
-35.125
-35.1
-35.075
-35.05
-35.025
-35
-34.975
-34.95
-34.925
-34.9
-34.875
-34.85
-34.825
-34.8
-34.775
-34.75
-34.725
-34.7
-34.675
-34.65
-34.625
-34.6
-34.575
-34.55
-34.525
-34.5
-34.475
-34.45
-34.425
-34.4
-34.375
-34.35
-34.325
-34.3
-34.275
-34.25
-34.225
-34.2
-34.175
-34.15
-34.125
-34.1
-34.075
-34.05
-34.025
-34
-33.975
-33.95
-33.925
-33.9
-33.875
-33.85
-33.825
-33.8
-33.775
-33.75
-33.725
-33.7
-33.675
-33.65
-33.625
-33.6
-33.575
-33.55
-33.525
-33.5
-33.475
-33.45
-33.425
-33.4
-33.375
-33.35
-33.325
-33.3
-33.275
-33.25
-33.225
-33.2
-33.175
-33.15
-33.125
-33.1
-33.075
-33.05
-33.025
-33
-32.975
-32.95
-32.925
-32.9
-32.875
-32.85
-32.825
-32.8
-32.775
-32.75
-32.725
-32.7
-32.675
-32.65
-32.625
-32.6
-32.575
-32.55
-32.525
-32.5
-32.475
-32.45
-32.425
-32.4
-32.375
-32.35
-32.325
-32.3
-32.275
-32.25
-32.225
-32.2
-32.175
-32.15
-32.125
-32.1
-32.075
-32.05
-32.025
-32
-31.975
-31.95
-31.925
-31.9
-31.875
-31.85
-31.825
-31.8
-31.775
-31.75
-31.725
-31.7
-31.675
-31.65
-31.625
-31.6
-31.575
-31.55
-31.525
-31.5
-31.475
-31.45
-31.425
-31.4
-31.375
-31.35
-31.325
-31.3
-31.275
-31.25
-31.225
-31.2
-31.175
-31.15
-31.125
-31.1
-31.075
-31.05
-31.025
-31
-30.975
-30.95
-30.925
-30.9
-30.875
-30.85
-30.825
-30.8
-30.775
-30.75
-30.725
-30.7
-30.675
-30.65
-30.625
-30.6
-30.575
-30.55
-30.525
-30.5
-30.475
-30.45
-30.425
-30.4
-30.375
-30.35
-30.325
-30.3
-30.275
-30.25
-30.225
-30.2
-30.175
-30.15
-30.125
-30.1
-30.075
-30.05
-30.025
-30
-29.975
-29.95
-29.925
-29.9
-29.875
-29.85
-29.825
-29.8
-29.775
-29.75
-29.725
-29.7
-29.675
-29.65
-29.625
-29.6
-29.575
-29.55
-29.525
-29.5
-29.475
-29.45
-29.425
-29.4
-29.375
-29.35
-29.325
-29.3
-29.275
-29.25
-29.225
-29.2
-29.175
-29.15
-29.125
-29.1
-29.075
-29.05
-29.025
-29
-28.975
-28.95
-28.925
-28.9
-28.875
-28.85
-28.825
-28.8
-28.775
-28.75
-28.725
-28.7
-28.675
-28.65
-28.625
-28.6
-28.575
-28.55
-28.525
-28.5
-28.475
-28.45
-28.425
-28.4
-28.375
-28.35
-28.325
-28.3
-28.275
-28.25
-28.225
-28.2
-28.175
-28.15
-28.125
-28.1
-28.075
-28.05
-28.025
-28
-27.975
-27.95
-27.925
-27.9
-27.875
-27.85
-27.825
-27.8
-27.775
-27.75
-27.725
-27.7
-27.675
-27.65
-27.625
-27.6
-27.575
-27.55
-27.525
-27.5
-27.475
-27.45
-27.425
-27.4
-27.375
-27.35
-27.325
-27.3
-27.275
-27.25
-27.225
-27.2
-27.175
-27.15
-27.125
-27.1
-27.075
-27.05
-27.025
-27
-26.975
-26.95
-26.925
-26.9
-26.875
-26.85
-26.825
-26.8
-26.775
-26.75
-26.725
-26.7
-26.675
-26.65
-26.625
-26.6
-26.575
-26.55
-26.525
-26.5
-26.475
-26.45
-26.425
-26.4
-26.375
-26.35
-26.325
-26.3
-26.275
-26.25
-26.225
-26.2
-26.175
-26.15
-26.125
-26.1
-26.075
-26.05
-26.025
-26
-25.975
-25.95
-25.925
-25.9
-25.875
-25.85
-25.825
-25.8
-25.775
-25.75
-25.725
-25.7
-25.675
-25.65
-25.625
-25.6
-25.575
-25.55
-25.525
-25.5
-25.475
-25.45
-25.425
-25.4
-25.375
-25.35
-25.325
-25.3
-25.275
-25.25
-25.225
-25.2
-25.175
-25.15
-25.125
-25.1
-25.075
-25.05
-25.025
-25
-24.975
-24.95
-24.925
-24.9
-24.875
-24.85
-24.825
-24.8
-24.775
-24.75
-24.725
-24.7
-24.675
-24.65
-24.625
-24.6
-24.575
-24.55
-24.525
-24.5
-24.475
-24.45
-24.425
-24.4
-24.375
-24.35
-24.325
-24.3
-24.275
-24.25
-24.225
-24.2
-24.175
-24.15
-24.125
-24.1
-24.075
-24.05
-24.025
-24
-23.975
-23.95
-23.925
-23.9
-23.875
-23.85
-23.825
-23.8
-23.775
-23.75
-23.725
-23.7
-23.675
-23.65
-23.625
-23.6
-23.575
-23.55
-23.525
-23.5
-23.475
-23.45
-23.425
-23.4
-23.375
-23.35
-23.325
-23.3
-23.275
-23.25
-23.225
-23.2
-23.175
-23.15
-23.125
-23.1
-23.075
-23.05
-23.025
-23
-22.975
-22.95
-22.925
-22.9
-22.875
-22.85
-22.825
-22.8
-22.775
-22.75
-22.725
-22.7
-22.675
-22.65
-22.625
-22.6
-22.575
-22.55
-22.525
-22.5
-22.475
-22.45
-22.425
-22.4
-22.375
-22.35
-22.325
-22.3
-22.275
-22.25
-22.225
-22.2
-22.175
-22.15
-22.125
-22.1
-22.075
-22.05
-22.025
-22
-21.975
-21.95
-21.925
-21.9
-21.875
-21.85
-21.825
-21.8
-21.775
-21.75
-21.725
-21.7
-21.675
-21.65
-21.625
-21.6
-21.575
-21.55
-21.525
-21.5
-21.475
-21.45
-21.425
-21.4
-21.375
-21.35
-21.325
-21.3
-21.275
-21.25
-21.225
-21.2
-21.175
-21.15
-21.125
-21.1
-21.075
-21.05
-21.025
-21
-20.975
-20.95
-20.925
-20.9
-20.875
-20.85
-20.825
-20.8
-20.775
-20.75
-20.725
-20.7
-20.675
-20.65
-20.625
-20.6
-20.575
-20.55
-20.525
-20.5
-20.475
-20.45
-20.425
-20.4
-20.375
-20.35
-20.325
-20.3
-20.275
-20.25
-20.225
-20.2
-20.175
-20.15
-20.125
-20.1
-20.075
-20.05
-20.025
-20
VAR_LIST_END
BEGIN
-16.350168,-155.56825
-15.988825,-158.40723
-15.309587,-164.26456
-14.557434,-156.86267
-15.16254,-151.27872
-14.481215,-151.46904
-15.852224,-162.51746
-15.149468,-160.38179
-15.564753,-155.14017
-14.960969,-157.61269
-14.752976,-158.32115
-15.21034,-168.01797
-14.641346,-160.16725
-14.74085,-160.87207
-14.964198,-157.05579
-16.259338,-160.79137
-15.278084,-157.86685
-15.232044,-158.00737
-15.380276,-161.69359
-15.177014,-161.27736
-14.679188,-155.97202
-14.434587,-157.84613
-14.329014,-154.42484
-14.795578,-154.77832
-14.567615,-163.30173
-15.373202,-162.57567
-13.885436,-160.04147
-14.995524,-156.08725
-15.583422,-157.04544
-15.014344,-152.22586
-14.795634,-157.85373
-15.389022,-156.01222
-15.657514,-160.7103
-15.460376,-161.17236
-15.775858,-155.9035
-14.697569,-156.2998
-15.164695,-156.06721
-15.002242,-157.07828
-14.938788,-157.06262
-14.766838,-159.68454
-14.054186,-162.87959
-15.454473,-156.27675
-14.784281,-157.12177
-15.393163,-153.09836
-14.680183,-162.55481
-14.846502,-158.91418
-14.956733,-157.10677
-15.41343,-162.38084
-15.627494,-159.55682
-15.103545,-160.68608
-14.875154,-160.47772
-14.831133,-152.14256
-14.95365,-159.58456
-15.368462,-159.12877
-15.547931,-157.95551
-14.825266,-154.74765
-16.104958,-161.47116
-15.601542,-163.14854
-13.567874,-157.91327
-14.552068,-157.16821
-14.123773,-160.70241
-14.785409,-159.43999
-15.338216,-154.21556
-14.855133,-159.00478
-15.099251,-155.18993
-14.54064,-155.81755
-15.523655,-161.61084
-15.833261,-154.08479
-14.474522,-162.46829
-14.672275,-159.70653
-14.173425,-162.05092
-14.940969,-156.20036
-15.463201,-156.47139
-14.65291,-156.25737
-15.542139,-160.76724
-15.27915,-159.29683
-14.584376,-159.77341
-14.908875,-164.02191
-14.796349,-163.03334
-14.783611,-159.8298
-15.086021,-158.79788
-14.700271,-166.90605
-15.390418,-158.81485
-15.126991,-161.34337
-14.648851,-162.70985
-15.293652,-165.32265
-14.324567,-157.5777
-15.9288,-154.61868
-15.178119,-163.42972
-15.593476,-161.82428
-15.961259,-154.94662
-15.067147,-161.09869
-14.817819,-157.44273
-14.859921,-158.0788
-14.848456,-155.37321
-14.975287,-157.58759
-14.954372,-161.04381
-15.505474,-158.81914
-15.059051,-159.18365
-14.689672,-159.48845
-15.054556,-160.29404
-15.156717,-164.80014
-14.843129,-159.51506
-14.502142,-161.84544
-15.554444,-152.78659
-15.202716,-155.31232
-15.409849,-159.02919
-14.997994,-155.4373
-15.150083,-158.29797
-15.151104,-158.3002
-14.344484,-157.48557
-15.277008,-162.41385
-15.31013,-161.14056
-14.378081,-162.71677
-14.490891,-158.35379
-14.321807,-158.01578
-15.221464,-156.08429
-15.144252,-154.66817
-15.491207,-160.94601
-14.790377,-153.36491
-15.388336,-162.33102
-15.510746,-159.33058
-15.28345,-158.681
-14.375762,-161.11002
-14.981936,-159.3145
-15.370589,-164.45534
-15.168618,-159.59984
-15.867267,-155.58316
-15.216443,-158.42633
-14.866729,-157.60773
-14.517831,-159.84845
-15.117373,-161.73148
-15.078501,-159.48993
-14.515313,-159.71701
-15.273741,-156.33487
-14.904754,-158.08327
-15.823875,-155.37119
-14.824509,-155.38251
-14.615651,-155.22517
-14.702604,-154.85324
-15.393975,-158.84192
-15.180528,-157.09581
-15.617494,-160.08037
-14.906489,-155.42821
-15.194975,-153.98474
-15.012224,-155.42476
-15.276917,-157.61069
-15.143559,-161.31358
-15.821585,-156.37794
-14.579723,-158.66951
-15.638122,-158.56891
-14.706629,-162.78302
-15.467115,-159.27902
-15.213505,-156.28148
-15.153304,-158.50389
-15.423429,-161.13483
-15.084031,-154.48056
-15.349833,-159.74651
-15.186817,-161.86691
-14.82039,-157.91409
-15.262094,-160.89143
-15.061299,-156.82939
-14.736152,-162.46918
-14.632837,-154.4037
-15.35253,-156.65868
-14.564731,-158.97243
-14.73555,-157.88438
-15.534901,-161.05542
-14.98952,-156.6015
-15.733024,-161.47115
-15.326453,-157.78557
-15.443402,-153.81485
-14.469899,-160.31688
-14.408542,-159.8232
-14.582705,-160.12376
-15.78308,-158.46983
-15.194189,-157.65175
-14.135216,-159.32715
-14.9326,-156.94159
-15.31776,-157.1174
-14.969915,-156.98462
-15.080703,-164.88177
-14.790108,-161.26154
-15.205025,-159.61885
-15.313463,-155.44507
-15.015864,-160.30107
-15.898007,-159.11433
-14.986936,-157.64003
-15.851558,-159.3941
-15.392225,-160.0556
-15.365346,-160.6956
-15.520633,-156.86313
-15.095448,-158.29367
-14.622427,-158.24809
-14.20897,-160.68913
-15.25257,-160.91026
-15.580826,-159.20882
-14.717378,-157.00208
-15.534422,-159.38148
-14.640932,-158.17497
-14.982078,-152.05946
-14.617623,-160.1459
-14.628015,-161.71629
-15.038,-162.63051
-15.45741,-159.57179
-15.479714,-163.28627
-14.720592,-161.69171
-14.787677,-155.35249
-15.123484,-153.88713
-14.950191,-156.76396
-15.065357,-161.22733
-15.147799,-154.41623
-15.096294,-157.91057
-14.876008,-154.41191
-15.170643,-154.61862
-14.531242,-159.41109
-15.010466,-160.33511
-15.275597,-160.83426
-14.93312,-159.19882
-15.040714,-156.90186
-14.957942,-158.53363
-15.245753,-156.67148
-15.042318,-158.05507
-14.854052,-159.93199
-14.868775,-159.72845
-15.365788,-157.60954
-15.573896,-156.78288
-14.986587,-158.27361
-14.631691,-160.96268
-15.756728,-159.94331
-15.298751,-160.39999
-15.44298,-159.18365
-14.880537,-158.03444
-15.170954,-160.58498
-15.007759,-159.76216
-15.230663,-159.98083
-14.618304,-160.59653
-15.326718,-156.21414
-15.306991,-155.53902
-15.622631,-155.50323
-14.759362,-156.28845
-14.711298,-157.43201
-15.078357,-158.48369
-14.649263,-158.14809
-15.16309,-158.22734
-15.165136,-160.12523
-14.840271,-155.12221
-15.473948,-160.31126
-15.029322,-158.819
-14.932356,-161.1147
-15.058974,-157.7386
-15.014902,-157.11174
-15.696242,-156.42683
-15.344419,-159.20447
-15.207923,-159.04756
-15.419361,-158.04811
-14.786969,-158.37383
-15.138963,-157.64122
-15.550302,-154.11609
-14.979446,-158.22966
-14.745457,-158.9561
-14.484916,-156.21252
-14.981169,-159.28333
-15.206923,-158.28984
-15.470978,-158.4772
-15.42242,-160.08156
-15.326732,-158.69473
-15.304781,-160.28621
-15.058932,-158.09883
-15.123034,-155.96831
-15.260099,-159.908
-15.219967,-157.11938
-15.117795,-158.40254
-15.031565,-157.56708
-14.932136,-155.3826
-14.892827,-156.74928
-15.132033,-159.85767
-14.780654,-160.93207
-14.760437,-160.62775
-15.081035,-156.58777
-15.256124,-157.42595
-15.056516,-159.23094
-15.070205,-160.40495
-14.870266,-160.37462
-15.398973,-161.15158
-15.196818,-159.12761
-14.839467,-158.10992
-15.672007,-159.91527
-15.248951,-159.95322
-15.24314,-158.3248
-14.777243,-159.50266
-15.214814,-160.04137
-14.843068,-160.323
-15.158652,-159.59236
-14.29211,-157.4986
-15.124711,-157.98862
-15.099355,-163.6425
-15.094304,-159.3158
-14.727924,-159.50511
-15.182007,-161.12442
-15.377892,-162.53448
-15.085116,-159.29688
-15.898677,-157.64075
-14.912108,-158.20403
-14.60381,-158.47028
-15.130879,-158.12881
-14.630658,-159.88907
-15.128749,-161.31038
-14.479701,-159.14801
-14.913553,-160.78946
-15.528769,-159.56595
-15.181965,-158.05217
-15.105064,-162.34824
-15.322267,-159.44688
-15.041639,-156.58875
-15.239917,-155.50693
-14.90747,-159.07126
-15.057032,-159.19336
-15.173486,-158.48097
-14.783311,-158.02406
-14.946493,-158.81906
-15.20636,-159.05013
-14.968362,-156.98277
-15.005046,-156.07951
-15.161459,-157.80533
-14.993773,-156.60684
-15.197181,-161.44585
-15.105381,-160.79294
-15.380842,-156.95685
-14.821484,-160.61789
-15.138041,-159.65762
-15.563467,-157.17207
-15.48852,-157.22762
-15.237655,-157.57039
-14.927762,-157.67937
-14.919343,-159.5641
-15.246964,-157.51813
-15.011889,-159.78062
-15.323463,-158.08623
-14.896804,-157.97379
-14.941444,-156.48694
-15.24108,-159.87553
-14.81354,-158.26445
-15.358103,-158.41739
-15.192897,-157.58182
-15.258534,-160.33711
-14.937232,-158.09904
-15.322848,-158.96809
-14.96425,-160.26659
-14.855186,-157.91225
-15.090616,-158.31065
-15.088085,-159.32411
-15.034704,-159.07771
-15.245113,-157.11629
-14.81737,-156.08714
-14.973238,-160.18767
-15.089394,-156.18893
-14.808253,-158.0954
-15.114852,-158.70844
-15.199348,-159.9682
-15.018837,-157.33182
-15.068491,-158.11929
-14.976047,-159.3616
-14.871444,-157.6075
-15.190324,-156.86852
-15.308228,-158.08591
-15.025275,-158.7287
-15.270959,-155.6066
-14.825138,-158.09293
-15.242025,-158.96544
-15.042668,-157.10957
-15.134756,-156.52357
-15.39675,-156.7222
-14.838497,-158.80302
-14.894953,-158.94728
-15.058058,-160.28685
-14.392825,-157.72562
-15.329008,-159.80606
-15.108936,-158.79597
-15.14404,-157.96436
-14.746759,-156.69449
-15.05881,-157.58714
-14.899521,-159.78
-15.26472,-157.85561
-15.140926,-157.944
-15.501637,-158.48349
-15.117428,-158.47682
-15.131295,-160.61008
-14.954897,-158.3109
-15.324939,-158.24722
-15.166579,-158.71678
-15.248524,-157.67491
-15.044464,-157.65567
-14.823451,-157.91959
-14.960876,-159.22733
-14.985204,-157.65482
-14.837681,-160.58366
-14.771812,-158.68773
-15.308354,-160.8965
-14.93837,-160.55348
-15.082555,-158.90282
-15.325031,-160.05014
-15.10163,-157.58452
-15.19407,-158.11084
-14.82794,-159.40643
-15.236637,-157.42371
-15.118035,-157.02859
-15.162765,-155.63457
-15.118436,-156.84384
-14.936549,-159.57988
-14.950213,-157.55653
-15.151639,-159.05086
-14.936072,-156.98425
-14.977856,-158.73364
-14.793591,-158.88074
-15.09246,-158.75786
-15.088813,-160.50378
-15.130749,-158.47237
-14.781859,-159.04549
-15.165746,-159.4772
-15.066059,-156.97069
-15.165124,-157.65352
-14.906013,-158.52132
-15.282873,-156.81575
-14.999883,-158.45358
-15.094038,-156.35153
-14.840502,-158.38568
-14.918629,-158.38161
-14.9817,-158.51062
-15.07279,-161.20219
-14.880746,-159.62425
-14.989397,-157.55023
-15.221763,-158.09352
-15.049954,-158.97134
-14.719083,-158.00331
-15.142697,-158.63908
-14.957928,-159.20975
-15.037229,-159.68823
-15.03499,-157.22728
-14.853065,-158.06406
-14.975068,-159.30539
-15.065915,-158.56976
-15.273685,-159.94868
-15.123161,-159.57671
-15.035693,-159.54552
-14.814663,-157.09964
-15.247663,-157.93533
-14.979542,-159.35895
-15.031102,-159.84079
-15.167958,-157.67604
-14.961653,-158.99088
-15.053392,-158.93217
-14.96113,-160.55205
-15.181769,-158.78485
-15.009943,-159.57195
-14.833975,-160.47121
-15.022566,-158.00912
-15.191543,-159.17012
-15.079956,-159.13756
-14.985869,-159.75291
-15.443389,-159.27968
-15.331242,-159.35497
-15.18298,-158.81818
-15.074163,-158.54312
-14.869631,-159.09944
-14.914912,-158.85202
-14.971378,-158.3723
-14.918217,-160.34084
-14.878529,-158.14586
-14.925735,-157.61092
-14.999544,-160.9149
-14.967386,-159.44295
-14.809233,-157.9252
-15.113537,-157.31995
-14.972926,-158.70915
-14.883532,-158.69115
-15.124211,-159.52054
-14.769182,-158.28365
-15.088657,-159.30482
-15.007154,-157.9635
-15.028106,-159.0593
-15.077621,-159.48717
-15.093592,-159.80595
-14.851119,-158.61778
-14.9342,-159.41624
-15.050315,-158.2083
-14.996712,-157.64491
-14.935182,-158.65929
-15.25453,-158.92154
-15.418238,-160.39015
-14.994485,-159.66519
-15.082167,-157.65523
-14.84909,-157.51126
-15.108834,-159.0677
-15.116843,-160.09099
-14.957354,-159.74327
-15.263983,-159.4285
-15.034242,-160.00154
-14.866403,-158.42052
-15.015856,-156.5504
-15.165413,-157.56618
-14.994424,-159.54456
-15.047088,-159.27356
-15.129642,-158.04709
-15.050577,-158.20935
-15.126474,-158.14079
-14.941799,-159.57899
-15.224406,-159.7616
-15.035874,-156.44115
-15.02003,-158.81908
-14.913751,-159.11981
-14.999807,-158.83334
-14.97447,-160.00975
-14.994545,-157.93596
-14.774127,-157.66805
-15.175299,-158.52527
-14.832294,-158.26526
-14.926651,-157.76216
-15.074295,-159.31645
-15.010962,-156.59578
-14.913432,-158.15178
-15.135118,-159.15105
-14.990947,-158.54425
-15.159097,-158.15984
-15.232488,-157.84676
-14.886669,-160.65781
-15.000624,-158.23676
-15.205908,-158.35515
-14.947816,-158.25433
-15.123079,-158.35187
-15.000418,-157.95911
-15.457411,-158.62257
-15.033694,-159.47409
-15.122195,-158.82744
-15.063291,-157.84138
-14.92896,-158.5985
-15.104384,-159.11722
-15.050734,-159.33142
-15.258241,-158.79997
-15.079859,-157.50198
-15.08736,-159.47299
-15.067479,-158.30838
-15.066214,-159.46053
-15.20833,-158.87724
-14.916571,-158.73328
-15.110917,-158.01547
-15.068202,-158.8195
-15.062734,-158.42387
-15.070019,-159.39024
-15.221269,-159.32115
-15.192672,-158.94733
-15.168749,-159.33434
-14.919505,-158.5392
-14.988729,-158.547
-15.115245,-158.79469
-15.152884,-158.67891
-15.19394,-158.07986
-15.036186,-157.89948
-15.106179,-157.70674
-15.151279,-159.18637
-14.880421,-159.88231
-14.992822,-157.86516
-15.203805,-159.04652
-15.069304,-159.15085
-14.943479,-159.20758
-15.285292,-158.55325
-15.151982,-158.70723
-15.037054,-158.74911
-15.173851,-157.67484
-15.073676,-157.92952
-15.031508,-158.31679
-15.020979,-159.11525
-15.244697,-158.28899
-14.908425,-159.16068
-14.935442,-158.71791
-15.149928,-159.78076
