CITIFILE A.01.01
!Agilent Technologies,N5230C,MY48100142,A.08.04.10
!Agilent N5230C: A.08.04.10
!Format: LogMag/Angle
!Date: Wednesday, September 02, 2020 15:10:20
NAME CH1_DATA
VAR Power MAG 801
DATA S11 DBANGLE
DATA S21 DBANGLE
DATA S12 DBANGLE
DATA S22 DBANGLE
VAR_LIST_BEGIN
-40
-39.975
-39.95
-39.925
-39.9
-39.875
-39.85
-39.825
-39.8
-39.775
-39.75
-39.725
-39.7
-39.675
-39.65
-39.625
-39.6
-39.575
-39.55
-39.525
-39.5
-39.475
-39.45
-39.425
-39.4
-39.375
-39.35
-39.325
-39.3
-39.275
-39.25
-39.225
-39.2
-39.175
-39.15
-39.125
-39.1
-39.075
-39.05
-39.025
-39
-38.975
-38.95
-38.925
-38.9
-38.875
-38.85
-38.825
-38.8
-38.775
-38.75
-38.725
-38.7
-38.675
-38.65
-38.625
-38.6
-38.575
-38.55
-38.525
-38.5
-38.475
-38.45
-38.425
-38.4
-38.375
-38.35
-38.325
-38.3
-38.275
-38.25
-38.225
-38.2
-38.175
-38.15
-38.125
-38.1
-38.075
-38.05
-38.025
-38
-37.975
-37.95
-37.925
-37.9
-37.875
-37.85
-37.825
-37.8
-37.775
-37.75
-37.725
-37.7
-37.675
-37.65
-37.625
-37.6
-37.575
-37.55
-37.525
-37.5
-37.475
-37.45
-37.425
-37.4
-37.375
-37.35
-37.325
-37.3
-37.275
-37.25
-37.225
-37.2
-37.175
-37.15
-37.125
-37.1
-37.075
-37.05
-37.025
-37
-36.975
-36.95
-36.925
-36.9
-36.875
-36.85
-36.825
-36.8
-36.775
-36.75
-36.725
-36.7
-36.675
-36.65
-36.625
-36.6
-36.575
-36.55
-36.525
-36.5
-36.475
-36.45
-36.425
-36.4
-36.375
-36.35
-36.325
-36.3
-36.275
-36.25
-36.225
-36.2
-36.175
-36.15
-36.125
-36.1
-36.075
-36.05
-36.025
-36
-35.975
-35.95
-35.925
-35.9
-35.875
-35.85
-35.825
-35.8
-35.775
-35.75
-35.725
-35.7
-35.675
-35.65
-35.625
-35.6
-35.575
-35.55
-35.525
-35.5
-35.475
-35.45
-35.425
-35.4
-35.375
-35.35
-35.325
-35.3
-35.275
-35.25
-35.225
-35.2
-35.175
-35.15
-35.125
-35.1
-35.075
-35.05
-35.025
-35
-34.975
-34.95
-34.925
-34.9
-34.875
-34.85
-34.825
-34.8
-34.775
-34.75
-34.725
-34.7
-34.675
-34.65
-34.625
-34.6
-34.575
-34.55
-34.525
-34.5
-34.475
-34.45
-34.425
-34.4
-34.375
-34.35
-34.325
-34.3
-34.275
-34.25
-34.225
-34.2
-34.175
-34.15
-34.125
-34.1
-34.075
-34.05
-34.025
-34
-33.975
-33.95
-33.925
-33.9
-33.875
-33.85
-33.825
-33.8
-33.775
-33.75
-33.725
-33.7
-33.675
-33.65
-33.625
-33.6
-33.575
-33.55
-33.525
-33.5
-33.475
-33.45
-33.425
-33.4
-33.375
-33.35
-33.325
-33.3
-33.275
-33.25
-33.225
-33.2
-33.175
-33.15
-33.125
-33.1
-33.075
-33.05
-33.025
-33
-32.975
-32.95
-32.925
-32.9
-32.875
-32.85
-32.825
-32.8
-32.775
-32.75
-32.725
-32.7
-32.675
-32.65
-32.625
-32.6
-32.575
-32.55
-32.525
-32.5
-32.475
-32.45
-32.425
-32.4
-32.375
-32.35
-32.325
-32.3
-32.275
-32.25
-32.225
-32.2
-32.175
-32.15
-32.125
-32.1
-32.075
-32.05
-32.025
-32
-31.975
-31.95
-31.925
-31.9
-31.875
-31.85
-31.825
-31.8
-31.775
-31.75
-31.725
-31.7
-31.675
-31.65
-31.625
-31.6
-31.575
-31.55
-31.525
-31.5
-31.475
-31.45
-31.425
-31.4
-31.375
-31.35
-31.325
-31.3
-31.275
-31.25
-31.225
-31.2
-31.175
-31.15
-31.125
-31.1
-31.075
-31.05
-31.025
-31
-30.975
-30.95
-30.925
-30.9
-30.875
-30.85
-30.825
-30.8
-30.775
-30.75
-30.725
-30.7
-30.675
-30.65
-30.625
-30.6
-30.575
-30.55
-30.525
-30.5
-30.475
-30.45
-30.425
-30.4
-30.375
-30.35
-30.325
-30.3
-30.275
-30.25
-30.225
-30.2
-30.175
-30.15
-30.125
-30.1
-30.075
-30.05
-30.025
-30
-29.975
-29.95
-29.925
-29.9
-29.875
-29.85
-29.825
-29.8
-29.775
-29.75
-29.725
-29.7
-29.675
-29.65
-29.625
-29.6
-29.575
-29.55
-29.525
-29.5
-29.475
-29.45
-29.425
-29.4
-29.375
-29.35
-29.325
-29.3
-29.275
-29.25
-29.225
-29.2
-29.175
-29.15
-29.125
-29.1
-29.075
-29.05
-29.025
-29
-28.975
-28.95
-28.925
-28.9
-28.875
-28.85
-28.825
-28.8
-28.775
-28.75
-28.725
-28.7
-28.675
-28.65
-28.625
-28.6
-28.575
-28.55
-28.525
-28.5
-28.475
-28.45
-28.425
-28.4
-28.375
-28.35
-28.325
-28.3
-28.275
-28.25
-28.225
-28.2
-28.175
-28.15
-28.125
-28.1
-28.075
-28.05
-28.025
-28
-27.975
-27.95
-27.925
-27.9
-27.875
-27.85
-27.825
-27.8
-27.775
-27.75
-27.725
-27.7
-27.675
-27.65
-27.625
-27.6
-27.575
-27.55
-27.525
-27.5
-27.475
-27.45
-27.425
-27.4
-27.375
-27.35
-27.325
-27.3
-27.275
-27.25
-27.225
-27.2
-27.175
-27.15
-27.125
-27.1
-27.075
-27.05
-27.025
-27
-26.975
-26.95
-26.925
-26.9
-26.875
-26.85
-26.825
-26.8
-26.775
-26.75
-26.725
-26.7
-26.675
-26.65
-26.625
-26.6
-26.575
-26.55
-26.525
-26.5
-26.475
-26.45
-26.425
-26.4
-26.375
-26.35
-26.325
-26.3
-26.275
-26.25
-26.225
-26.2
-26.175
-26.15
-26.125
-26.1
-26.075
-26.05
-26.025
-26
-25.975
-25.95
-25.925
-25.9
-25.875
-25.85
-25.825
-25.8
-25.775
-25.75
-25.725
-25.7
-25.675
-25.65
-25.625
-25.6
-25.575
-25.55
-25.525
-25.5
-25.475
-25.45
-25.425
-25.4
-25.375
-25.35
-25.325
-25.3
-25.275
-25.25
-25.225
-25.2
-25.175
-25.15
-25.125
-25.1
-25.075
-25.05
-25.025
-25
-24.975
-24.95
-24.925
-24.9
-24.875
-24.85
-24.825
-24.8
-24.775
-24.75
-24.725
-24.7
-24.675
-24.65
-24.625
-24.6
-24.575
-24.55
-24.525
-24.5
-24.475
-24.45
-24.425
-24.4
-24.375
-24.35
-24.325
-24.3
-24.275
-24.25
-24.225
-24.2
-24.175
-24.15
-24.125
-24.1
-24.075
-24.05
-24.025
-24
-23.975
-23.95
-23.925
-23.9
-23.875
-23.85
-23.825
-23.8
-23.775
-23.75
-23.725
-23.7
-23.675
-23.65
-23.625
-23.6
-23.575
-23.55
-23.525
-23.5
-23.475
-23.45
-23.425
-23.4
-23.375
-23.35
-23.325
-23.3
-23.275
-23.25
-23.225
-23.2
-23.175
-23.15
-23.125
-23.1
-23.075
-23.05
-23.025
-23
-22.975
-22.95
-22.925
-22.9
-22.875
-22.85
-22.825
-22.8
-22.775
-22.75
-22.725
-22.7
-22.675
-22.65
-22.625
-22.6
-22.575
-22.55
-22.525
-22.5
-22.475
-22.45
-22.425
-22.4
-22.375
-22.35
-22.325
-22.3
-22.275
-22.25
-22.225
-22.2
-22.175
-22.15
-22.125
-22.1
-22.075
-22.05
-22.025
-22
-21.975
-21.95
-21.925
-21.9
-21.875
-21.85
-21.825
-21.8
-21.775
-21.75
-21.725
-21.7
-21.675
-21.65
-21.625
-21.6
-21.575
-21.55
-21.525
-21.5
-21.475
-21.45
-21.425
-21.4
-21.375
-21.35
-21.325
-21.3
-21.275
-21.25
-21.225
-21.2
-21.175
-21.15
-21.125
-21.1
-21.075
-21.05
-21.025
-21
-20.975
-20.95
-20.925
-20.9
-20.875
-20.85
-20.825
-20.8
-20.775
-20.75
-20.725
-20.7
-20.675
-20.65
-20.625
-20.6
-20.575
-20.55
-20.525
-20.5
-20.475
-20.45
-20.425
-20.4
-20.375
-20.35
-20.325
-20.3
-20.275
-20.25
-20.225
-20.2
-20.175
-20.15
-20.125
-20.1
-20.075
-20.05
-20.025
-20
VAR_LIST_END
BEGIN
-13.772091,-161.42636
-14.5631,-158.57735
-14.151309,-160.40164
-14.251044,-150.32278
-16.451567,-157.72173
-17.074068,-170.155
-16.261984,-160.82098
-15.312122,-149.58963
-13.39416,-156.90523
-14.898592,-151.00638
-15.665755,-152.52783
-13.319023,-155.88484
-15.267314,-157.23961
-13.190236,-168.38887
-15.807813,-158.15251
-15.066724,-160.76402
-15.506309,-157.14313
-14.015615,-162.32175
-13.956655,-148.06223
-14.346719,-158.38583
-15.350946,-158.7016
-15.687527,-156.9736
-15.203488,-159.76488
-15.620777,-159.59512
-15.842214,-154.70366
-15.874511,-167.8768
-15.058161,-151.93097
-14.579043,-158.72301
-14.88735,-155.05505
-14.811934,-163.63771
-14.45072,-157.76782
-15.093451,-155.7281
-14.802878,-158.35612
-14.357645,-158.8605
-15.570531,-152.49123
-13.377026,-150.20517
-15.643149,-161.22076
-14.304083,-170.10617
-14.658461,-161.91441
-14.511268,-166.04465
-16.305136,-157.80891
-14.947512,-154.39168
-14.976894,-142.29692
-14.149657,-160.72339
-15.357034,-152.43945
-14.069641,-153.36023
-14.621752,-165.13594
-15.363544,-155.38983
-14.534854,-160.51775
-14.644588,-159.96938
-14.541162,-151.81262
-15.191305,-151.8689
-18.136974,-168.1832
-17.006355,-147.7466
-15.278801,-160.06689
-15.73087,-151.65443
-15.407277,-165.15686
-15.199106,-158.39095
-15.810116,-164.41705
-14.76156,-159.96388
-14.852188,-154.10403
-15.139235,-150.3325
-15.755651,-156.40511
-14.618497,-160.33296
-16.227341,-158.59647
-16.135042,-161.45474
-13.767963,-151.65063
-15.838602,-162.4034
-16.165554,-153.39015
-15.050417,-150.20796
-15.523651,-163.4729
-14.383145,-153.32854
-14.936098,-149.84172
-14.887805,-158.19203
-16.558609,-161.39569
-15.346694,-158.75479
-15.379249,-159.735
-16.326584,-150.91214
-15.637163,-155.20134
-15.254645,-160.32224
-15.288095,-161.0916
-13.909827,-151.00966
-15.504172,-155.61745
-17.042902,-159.2016
-14.542542,-157.19608
-15.223353,-155.60387
-14.694862,-155.26111
-14.472526,-148.91789
-14.684226,-151.28227
-15.123487,-156.60484
-15.16386,-160.70131
-15.297813,-159.47646
-14.700671,-162.1778
-14.263127,-163.29298
-13.954301,-158.34082
-14.980884,-146.93082
-16.033417,-156.46999
-15.790913,-157.21053
-15.533564,-163.9192
-14.717937,-161.01413
-14.421996,-154.06755
-15.798216,-153.35847
-14.853187,-162.88416
-15.469174,-158.9104
-14.832164,-155.66776
-15.01419,-150.77338
-14.365334,-160.2583
-14.55593,-163.28026
-14.943889,-166.88855
-14.510298,-155.06664
-17.09375,-154.61696
-14.699541,-161.09598
-14.721037,-152.88892
-15.137893,-156.63428
-16.020313,-156.69749
-15.575067,-162.69022
-14.393545,-160.10483
-15.125438,-155.19029
-15.980743,-155.13014
-14.448295,-154.40445
-15.23639,-145.96455
-13.90283,-158.01036
-15.648334,-159.57011
-14.818081,-165.4817
-15.046466,-160.72136
-15.64963,-154.37209
-14.288491,-160.0582
-14.417409,-155.34567
-14.019684,-151.80539
-14.059613,-166.07806
-15.247572,-161.0575
-15.256542,-159.48032
-14.860885,-151.40181
-15.347362,-157.74913
-15.455187,-157.98083
-14.951849,-162.14571
-14.942492,-161.91412
-16.241957,-155.27618
-15.698165,-156.68117
-16.045721,-153.23241
-13.914162,-158.20927
-15.019542,-158.26686
-14.974938,-160.70302
-15.391752,-157.36404
-13.922456,-160.10098
-15.600399,-156.63809
-14.533589,-161.62744
-15.392026,-155.26358
-14.9864,-158.13589
-14.854647,-150.2814
-16.071493,-154.64886
-15.477569,-162.86156
-15.806017,-161.16855
-14.667013,-164.50221
-15.647146,-159.23352
-15.177835,-158.96774
-16.713284,-156.80424
-14.221123,-167.12576
-16.331169,-156.24254
-14.764551,-160.88217
-16.092009,-156.12622
-15.135108,-162.04144
-15.131226,-157.06136
-15.059954,-163.01225
-15.296264,-157.9442
-15.26395,-157.53299
-15.0809,-152.51636
-14.323609,-154.11252
-14.634347,-155.9084
-14.24604,-157.42061
-15.846353,-161.67078
-15.471543,-155.84032
-15.527563,-158.5934
-15.719093,-158.94896
-15.524422,-146.55418
-15.129558,-166.52603
-14.349184,-160.72142
-16.026793,-167.91934
-14.748574,-152.45787
-16.065388,-158.25346
-15.812567,-154.90791
-13.638286,-155.46899
-15.392244,-156.42087
-14.927245,-161.22784
-14.977209,-153.21916
-15.20046,-161.49809
-14.472312,-151.72986
-15.074294,-160.57268
-15.942529,-159.55721
-15.1741,-161.04131
-15.425765,-160.06062
-14.606253,-165.4662
-15.365488,-157.93715
-14.792791,-158.18124
-15.910462,-158.73523
-15.275242,-153.94769
-14.398897,-154.24066
-14.762624,-155.59088
-15.820664,-147.75822
-15.820271,-160.50499
-14.372445,-154.6516
-14.938809,-151.12419
-15.027587,-158.44254
-14.748123,-159.61995
-15.475221,-157.82346
-15.3807,-157.76962
-14.517848,-160.70126
-15.588069,-163.5609
-14.142461,-147.28981
-15.286579,-159.97768
-15.990157,-159.28886
-14.427228,-157.65331
-14.958748,-160.45137
-15.27078,-153.45772
-15.304512,-161.2485
-14.925465,-158.46605
-14.783554,-158.11115
-14.997878,-163.24457
-14.899168,-162.3186
-15.077946,-159.26967
-15.425826,-153.57542
-15.264268,-164.5545
-15.03788,-155.66719
-15.166581,-154.67705
-15.456177,-157.1442
-15.023654,-149.29945
-15.167994,-155.80177
-14.487371,-156.0488
-14.926552,-153.79085
-15.842975,-158.34468
-14.467751,-157.69221
-15.055909,-156.12912
-14.847953,-155.44008
-15.403626,-156.57962
-14.820271,-154.94176
-14.327895,-158.35289
-14.7918,-155.3038
-15.098367,-163.87273
-15.149093,-155.77486
-14.5,-160.86562
-14.963841,-153.82652
-14.256765,-154.10939
-15.105106,-154.23441
-15.065709,-159.91954
-15.576691,-157.65814
-15.686878,-159.57294
-15.607389,-156.61586
-14.819212,-156.1787
-15.379777,-156.53831
-14.455376,-163.65753
-15.195158,-156.73444
-15.344814,-157.94864
-13.928556,-162.25252
-14.99516,-162.83232
-16.070362,-160.26672
-15.403337,-154.14838
-15.641419,-162.4838
-15.168257,-157.56642
-14.994237,-159.71391
-15.389388,-159.97102
-15.027211,-153.41739
-15.976671,-162.20892
-14.451165,-160.62692
-15.350872,-157.23045
-14.846649,-159.53297
-15.491497,-152.48738
-15.189663,-161.70923
-15.22905,-162.36856
-15.101287,-152.38264
-14.483661,-162.38655
-15.089875,-163.01036
-14.508434,-157.19458
-14.889086,-162.91763
-14.710725,-154.44821
-14.506819,-162.94511
-15.430326,-153.6002
-15.589019,-159.01234
-15.39921,-162.2502
-14.251662,-160.94919
-15.255322,-158.81769
-14.916193,-156.42697
-15.890577,-156.79156
-15.142909,-153.50169
-14.393364,-161.2072
-14.907732,-159.44
-14.978233,-156.43997
-15.749648,-156.64859
-15.536995,-156.87666
-15.138666,-158.8423
-14.608607,-162.90738
-15.445998,-159.70761
-15.172973,-157.83609
-13.885989,-160.61995
-15.121099,-160.50992
-15.008564,-162.98833
-15.071046,-153.7281
-14.730369,-156.29567
-14.957478,-154.23293
-14.783538,-155.80888
-15.531447,-157.54373
-15.724167,-151.2206
-14.91772,-161.72578
-15.363911,-155.26555
-14.737056,-157.21426
-14.672653,-159.0562
-15.02081,-152.32961
-16.221081,-159.69711
-14.922301,-159.55391
-15.362337,-155.37718
-15.14712,-152.91521
-15.034563,-157.52467
-15.147172,-158.40988
-14.803159,-162.58276
-14.944613,-150.86916
-15.194392,-160.63213
-14.774729,-157.81075
-15.476432,-161.62033
-15.005487,-154.35202
-15.462179,-156.31607
-14.18609,-161.76604
-15.136363,-160.29961
-15.449572,-163.47922
-15.160332,-155.57845
-15.140154,-161.37538
-15.105692,-158.71706
-15.895755,-154.29504
-14.937522,-160.04002
-15.254233,-158.82309
-14.901975,-157.7906
-15.375341,-162.94072
-14.641368,-156.06146
-15.180002,-153.40742
-15.215111,-155.21436
-15.486712,-157.03078
-14.91297,-158.38811
-15.444829,-161.40945
-15.264744,-158.91437
-15.062281,-158.94772
-15.289865,-156.27345
-15.362714,-154.83563
-15.747682,-157.31296
-15.094574,-157.67192
-14.935374,-155.43608
-14.540793,-156.4778
-15.169053,-161.30338
-15.918026,-158.15736
-15.0667,-155.34433
-15.030461,-157.8902
-15.874742,-158.02682
-15.296992,-163.55458
-15.596126,-160.56625
-14.557945,-159.2847
-15.016659,-159.61673
-14.311917,-155.93553
-15.376327,-164.80045
-14.925557,-156.99004
-15.347218,-159.69952
-15.558166,-156.98248
-15.000549,-158.97536
-14.891503,-155.3658
-15.302741,-154.70964
-14.836061,-160.6568
-14.892842,-157.92633
-15.310486,-157.27032
-16.090586,-156.83601
-15.262799,-157.33693
-15.125001,-159.40019
-14.563029,-159.10553
-15.02376,-158.29379
-14.851067,-157.46899
-15.22846,-153.58643
-15.686647,-161.25238
-15.367785,-159.37956
-15.096337,-157.80983
-15.033871,-158.47731
-14.789969,-157.2959
-14.998163,-156.26024
-15.282432,-156.36482
-15.573085,-154.90605
-14.9615,-156.57715
-15.189407,-157.49719
-15.64972,-152.40076
-15.073788,-160.05309
-14.425847,-158.81056
-14.762137,-154.03613
-15.365888,-160.45525
-14.984712,-159.7365
-14.441547,-164.68427
-15.01253,-160.06375
-14.708572,-155.80673
-15.012029,-156.92119
-15.776186,-158.45976
-14.945202,-159.60519
-15.51719,-158.82512
-15.012775,-156.82289
-15.32065,-158.96011
-15.344786,-154.73756
-15.291893,-161.7097
-14.946547,-158.00803
-15.643246,-157.03949
-14.375061,-158.68422
-14.829178,-158.87334
-14.838685,-158.97243
-15.087854,-155.80576
-15.313562,-154.16872
-15.252132,-161.15491
-14.555485,-159.60703
-15.287515,-159.85866
-15.1277,-156.65109
-15.264077,-166.48657
-15.038025,-158.60287
-15.188608,-159.48105
-14.96887,-160.49702
-15.265191,-158.29619
-15.187271,-157.80699
-15.410732,-154.9288
-15.111891,-155.69095
-14.70913,-157.39223
-15.284703,-158.94986
-15.237973,-156.54071
-14.88424,-155.64975
-15.690424,-159.82362
-15.129715,-161.27603
-15.543964,-158.96288
-15.021646,-155.09811
-15.531469,-157.01906
-14.786949,-160.65155
-14.668182,-152.9733
-15.54273,-159.08424
-14.988541,-158.422
-15.157151,-157.40228
-14.598383,-157.77481
-14.77297,-159.96957
-15.621956,-156.76515
-15.481136,-159.18758
-15.373116,-159.35228
-15.145959,-156.00365
-15.042115,-156.88725
-15.519928,-157.24261
-15.374868,-157.77728
-15.308771,-158.51291
-15.250387,-155.74567
-15.104877,-156.01561
-14.969926,-157.30803
-15.086478,-156.45065
-14.682919,-159.24324
-15.281113,-157.16243
-14.642806,-158.95125
-14.986708,-158.37758
-14.699688,-158.48297
-14.80883,-155.88449
-15.008121,-156.3889
-15.086117,-157.2207
-15.080183,-156.22293
-14.760201,-157.83247
-15.107197,-159.97696
-15.281267,-157.18117
-14.951981,-157.04282
-15.437738,-157.81599
-15.100309,-159.17462
-14.834539,-158.08922
-14.810579,-158.51707
-14.983321,-159.56728
-14.863798,-158.58316
-15.297341,-158.73889
-15.04442,-158.03966
-14.817384,-157.10516
-15.207979,-157.62392
-15.304321,-158.19829
-15.262889,-155.51292
-14.695349,-154.83208
-15.101565,-156.48668
-14.98573,-158.06694
-15.025669,-158.7518
-14.910426,-156.81442
-14.70974,-157.72636
-15.414778,-156.93472
-14.895836,-160.005
-15.027806,-156.60985
-15.201028,-155.10776
-15.135379,-157.95108
-15.438128,-159.73985
-14.9415,-157.98781
-15.295396,-159.49638
-15.23407,-161.00664
-15.302019,-157.51031
-15.224756,-158.75662
-14.742119,-159.95833
-14.990472,-159.89058
-14.992931,-155.86812
-15.020526,-158.64627
-15.000902,-154.31841
-15.595617,-158.50833
-15.047371,-155.42148
-15.202316,-159.70715
-15.1794,-158.97041
-15.400536,-162.21251
-14.839175,-158.75354
-14.934931,-159.01588
-15.092364,-158.54935
-15.395617,-157.70882
-14.463777,-155.99275
-14.99617,-157.12395
-15.115962,-157.59042
-14.888318,-157.7628
-15.761956,-156.37607
-15.126575,-153.71542
-14.964436,-157.74384
-15.477428,-160.20163
-15.308354,-156.23047
-14.727402,-159.95638
-15.102117,-159.30246
-14.892713,-159.24443
-15.129592,-158.32329
-15.220929,-157.34531
-15.051611,-156.50877
-15.147576,-157.80547
-14.705305,-159.27283
-15.290862,-157.29135
-15.011496,-157.59575
-15.320454,-157.71674
-14.752042,-159.56612
-15.013227,-154.31194
-14.796142,-158.08113
-14.994595,-156.42096
-15.196877,-157.9904
-15.076711,-157.75529
-15.037359,-156.90652
-15.509806,-157.79002
-15.232339,-157.84627
-15.06304,-158.75993
-14.97907,-158.40089
-15.167392,-157.19737
-14.897434,-158.7681
-15.229206,-158.85103
-15.01647,-157.22995
-15.204222,-156.94907
-15.114991,-157.74611
-14.729559,-156.02647
-14.661715,-157.16423
-14.751241,-157.66113
-15.027303,-157.86844
-14.776873,-158.16589
-15.052473,-158.49921
-15.178094,-158.71523
-15.167562,-159.58864
-15.133406,-158.37654
-15.273034,-158.87692
-14.966343,-158.01289
-14.920325,-158.85156
-15.14437,-158.01585
-15.09302,-156.35585
-14.845757,-156.53389
-15.211376,-157.78337
-15.341674,-159.43961
-14.979736,-157.64243
-15.188277,-160.75665
-15.014793,-158.27473
-14.902311,-157.46579
-14.569107,-157.47224
-15.317907,-156.81888
-14.97813,-157.26198
-15.08843,-158.68001
-15.706814,-158.7412
-15.0895,-157.72995
-15.050039,-159.0843
-15.264681,-158.58189
-14.857471,-158.26378
-15.157563,-159.80585
-15.025563,-157.44789
-15.538074,-157.03967
-15.002085,-156.85652
-15.501898,-159.84386
-15.026313,-157.89082
-15.249355,-158.37926
-14.865403,-158.53656
-15.126956,-157.39343
