CITIFILE A.01.01
!Agilent Technologies,N5230C,MY48100142,A.08.04.10
!Agilent N5230C: A.08.04.10
!Date: Thursday, August 11, 2022 13:47:43
NAME CH1_DATA
VAR Power MAG 801
DATA S11 RI
DATA S21 RI
DATA S12 RI
DATA S22 RI
VAR_LIST_BEGIN
-40
-39.975
-39.95
-39.925
-39.9
-39.875
-39.85
-39.825
-39.8
-39.775
-39.75
-39.725
-39.7
-39.675
-39.65
-39.625
-39.6
-39.575
-39.55
-39.525
-39.5
-39.475
-39.45
-39.425
-39.4
-39.375
-39.35
-39.325
-39.3
-39.275
-39.25
-39.225
-39.2
-39.175
-39.15
-39.125
-39.1
-39.075
-39.05
-39.025
-39
-38.975
-38.95
-38.925
-38.9
-38.875
-38.85
-38.825
-38.8
-38.775
-38.75
-38.725
-38.7
-38.675
-38.65
-38.625
-38.6
-38.575
-38.55
-38.525
-38.5
-38.475
-38.45
-38.425
-38.4
-38.375
-38.35
-38.325
-38.3
-38.275
-38.25
-38.225
-38.2
-38.175
-38.15
-38.125
-38.1
-38.075
-38.05
-38.025
-38
-37.975
-37.95
-37.925
-37.9
-37.875
-37.85
-37.825
-37.8
-37.775
-37.75
-37.725
-37.7
-37.675
-37.65
-37.625
-37.6
-37.575
-37.55
-37.525
-37.5
-37.475
-37.45
-37.425
-37.4
-37.375
-37.35
-37.325
-37.3
-37.275
-37.25
-37.225
-37.2
-37.175
-37.15
-37.125
-37.1
-37.075
-37.05
-37.025
-37
-36.975
-36.95
-36.925
-36.9
-36.875
-36.85
-36.825
-36.8
-36.775
-36.75
-36.725
-36.7
-36.675
-36.65
-36.625
-36.6
-36.575
-36.55
-36.525
-36.5
-36.475
-36.45
-36.425
-36.4
-36.375
-36.35
-36.325
-36.3
-36.275
-36.25
-36.225
-36.2
-36.175
-36.15
-36.125
-36.1
-36.075
-36.05
-36.025
-36
-35.975
-35.95
-35.925
-35.9
-35.875
-35.85
-35.825
-35.8
-35.775
-35.75
-35.725
-35.7
-35.675
-35.65
-35.625
-35.6
-35.575
-35.55
-35.525
-35.5
-35.475
-35.45
-35.425
-35.4
-35.375
-35.35
-35.325
-35.3
-35.275
-35.25
-35.225
-35.2
-35.175
-35.15
-35.125
-35.1
-35.075
-35.05
-35.025
-35
-34.975
-34.95
-34.925
-34.9
-34.875
-34.85
-34.825
-34.8
-34.775
-34.75
-34.725
-34.7
-34.675
-34.65
-34.625
-34.6
-34.575
-34.55
-34.525
-34.5
-34.475
-34.45
-34.425
-34.4
-34.375
-34.35
-34.325
-34.3
-34.275
-34.25
-34.225
-34.2
-34.175
-34.15
-34.125
-34.1
-34.075
-34.05
-34.025
-34
-33.975
-33.95
-33.925
-33.9
-33.875
-33.85
-33.825
-33.8
-33.775
-33.75
-33.725
-33.7
-33.675
-33.65
-33.625
-33.6
-33.575
-33.55
-33.525
-33.5
-33.475
-33.45
-33.425
-33.4
-33.375
-33.35
-33.325
-33.3
-33.275
-33.25
-33.225
-33.2
-33.175
-33.15
-33.125
-33.1
-33.075
-33.05
-33.025
-33
-32.975
-32.95
-32.925
-32.9
-32.875
-32.85
-32.825
-32.8
-32.775
-32.75
-32.725
-32.7
-32.675
-32.65
-32.625
-32.6
-32.575
-32.55
-32.525
-32.5
-32.475
-32.45
-32.425
-32.4
-32.375
-32.35
-32.325
-32.3
-32.275
-32.25
-32.225
-32.2
-32.175
-32.15
-32.125
-32.1
-32.075
-32.05
-32.025
-32
-31.975
-31.95
-31.925
-31.9
-31.875
-31.85
-31.825
-31.8
-31.775
-31.75
-31.725
-31.7
-31.675
-31.65
-31.625
-31.6
-31.575
-31.55
-31.525
-31.5
-31.475
-31.45
-31.425
-31.4
-31.375
-31.35
-31.325
-31.3
-31.275
-31.25
-31.225
-31.2
-31.175
-31.15
-31.125
-31.1
-31.075
-31.05
-31.025
-31
-30.975
-30.95
-30.925
-30.9
-30.875
-30.85
-30.825
-30.8
-30.775
-30.75
-30.725
-30.7
-30.675
-30.65
-30.625
-30.6
-30.575
-30.55
-30.525
-30.5
-30.475
-30.45
-30.425
-30.4
-30.375
-30.35
-30.325
-30.3
-30.275
-30.25
-30.225
-30.2
-30.175
-30.15
-30.125
-30.1
-30.075
-30.05
-30.025
-30
-29.975
-29.95
-29.925
-29.9
-29.875
-29.85
-29.825
-29.8
-29.775
-29.75
-29.725
-29.7
-29.675
-29.65
-29.625
-29.6
-29.575
-29.55
-29.525
-29.5
-29.475
-29.45
-29.425
-29.4
-29.375
-29.35
-29.325
-29.3
-29.275
-29.25
-29.225
-29.2
-29.175
-29.15
-29.125
-29.1
-29.075
-29.05
-29.025
-29
-28.975
-28.95
-28.925
-28.9
-28.875
-28.85
-28.825
-28.8
-28.775
-28.75
-28.725
-28.7
-28.675
-28.65
-28.625
-28.6
-28.575
-28.55
-28.525
-28.5
-28.475
-28.45
-28.425
-28.4
-28.375
-28.35
-28.325
-28.3
-28.275
-28.25
-28.225
-28.2
-28.175
-28.15
-28.125
-28.1
-28.075
-28.05
-28.025
-28
-27.975
-27.95
-27.925
-27.9
-27.875
-27.85
-27.825
-27.8
-27.775
-27.75
-27.725
-27.7
-27.675
-27.65
-27.625
-27.6
-27.575
-27.55
-27.525
-27.5
-27.475
-27.45
-27.425
-27.4
-27.375
-27.35
-27.325
-27.3
-27.275
-27.25
-27.225
-27.2
-27.175
-27.15
-27.125
-27.1
-27.075
-27.05
-27.025
-27
-26.975
-26.95
-26.925
-26.9
-26.875
-26.85
-26.825
-26.8
-26.775
-26.75
-26.725
-26.7
-26.675
-26.65
-26.625
-26.6
-26.575
-26.55
-26.525
-26.5
-26.475
-26.45
-26.425
-26.4
-26.375
-26.35
-26.325
-26.3
-26.275
-26.25
-26.225
-26.2
-26.175
-26.15
-26.125
-26.1
-26.075
-26.05
-26.025
-26
-25.975
-25.95
-25.925
-25.9
-25.875
-25.85
-25.825
-25.8
-25.775
-25.75
-25.725
-25.7
-25.675
-25.65
-25.625
-25.6
-25.575
-25.55
-25.525
-25.5
-25.475
-25.45
-25.425
-25.4
-25.375
-25.35
-25.325
-25.3
-25.275
-25.25
-25.225
-25.2
-25.175
-25.15
-25.125
-25.1
-25.075
-25.05
-25.025
-25
-24.975
-24.95
-24.925
-24.9
-24.875
-24.85
-24.825
-24.8
-24.775
-24.75
-24.725
-24.7
-24.675
-24.65
-24.625
-24.6
-24.575
-24.55
-24.525
-24.5
-24.475
-24.45
-24.425
-24.4
-24.375
-24.35
-24.325
-24.3
-24.275
-24.25
-24.225
-24.2
-24.175
-24.15
-24.125
-24.1
-24.075
-24.05
-24.025
-24
-23.975
-23.95
-23.925
-23.9
-23.875
-23.85
-23.825
-23.8
-23.775
-23.75
-23.725
-23.7
-23.675
-23.65
-23.625
-23.6
-23.575
-23.55
-23.525
-23.5
-23.475
-23.45
-23.425
-23.4
-23.375
-23.35
-23.325
-23.3
-23.275
-23.25
-23.225
-23.2
-23.175
-23.15
-23.125
-23.1
-23.075
-23.05
-23.025
-23
-22.975
-22.95
-22.925
-22.9
-22.875
-22.85
-22.825
-22.8
-22.775
-22.75
-22.725
-22.7
-22.675
-22.65
-22.625
-22.6
-22.575
-22.55
-22.525
-22.5
-22.475
-22.45
-22.425
-22.4
-22.375
-22.35
-22.325
-22.3
-22.275
-22.25
-22.225
-22.2
-22.175
-22.15
-22.125
-22.1
-22.075
-22.05
-22.025
-22
-21.975
-21.95
-21.925
-21.9
-21.875
-21.85
-21.825
-21.8
-21.775
-21.75
-21.725
-21.7
-21.675
-21.65
-21.625
-21.6
-21.575
-21.55
-21.525
-21.5
-21.475
-21.45
-21.425
-21.4
-21.375
-21.35
-21.325
-21.3
-21.275
-21.25
-21.225
-21.2
-21.175
-21.15
-21.125
-21.1
-21.075
-21.05
-21.025
-21
-20.975
-20.95
-20.925
-20.9
-20.875
-20.85
-20.825
-20.8
-20.775
-20.75
-20.725
-20.7
-20.675
-20.65
-20.625
-20.6
-20.575
-20.55
-20.525
-20.5
-20.475
-20.45
-20.425
-20.4
-20.375
-20.35
-20.325
-20.3
-20.275
-20.25
-20.225
-20.2
-20.175
-20.15
-20.125
-20.1
-20.075
-20.05
-20.025
-20
VAR_LIST_END
BEGIN
-0.14068425,-0.08213187
-0.14857209,-0.084826194
-0.19953752,-0.069692992
-0.16025753,-0.073868811
-0.17490831,-0.055836767
-0.16956151,-0.084597185
-0.1630569,-0.12051083
-0.19225475,-0.088486664
-0.15696134,-0.072860979
-0.15136302,-0.095748372
-0.17730942,-0.088149518
-0.15346713,-0.12202718
-0.16404581,-0.0597963
-0.18931758,-0.077095069
-0.11650734,-0.092115983
-0.14337543,-0.066364914
-0.18535537,-0.090905674
-0.17582718,-0.073693693
-0.15736859,-0.074146844
-0.17656706,-0.10170867
-0.16575427,-0.094613373
-0.17372142,-0.075348526
-0.15946159,-0.10218028
-0.1581977,-0.094100051
-0.19329292,-0.10475253
-0.23160982,-0.064704269
-0.16349867,-0.053521942
-0.16705169,-0.093312614
-0.17762622,-0.11940954
-0.22353382,-0.10259921
-0.15405366,-0.082848184
-0.16633257,-0.089454256
-0.17535011,-0.10164072
-0.19911626,-0.10573591
-0.14503503,-0.02193268
-0.1782981,-0.076402746
-0.17621097,-0.088196918
-0.16966492,-0.08083266
-0.19375168,-0.083914623
-0.19242355,-0.067521058
-0.18301706,-0.070439592
-0.20886411,-0.057762794
-0.16415757,-0.062657915
-0.2060512,-0.10186242
-0.18092074,-0.079898953
-0.15002047,-0.092638202
-0.16800584,-0.10481018
-0.20858914,-0.064728618
-0.18416134,-0.05325577
-0.15359922,-0.093606941
-0.18291749,-0.072862096
-0.18078057,-0.092480734
-0.16735761,-0.069740087
-0.18042861,-0.086830616
-0.16654803,-0.079905599
-0.1857519,-0.099793255
-0.16833183,-0.060457665
-0.14537603,-0.093445554
-0.18241827,-0.099884592
-0.16486783,-0.049855649
-0.20326327,-0.077554442
-0.16378479,-0.086795188
-0.17395739,-0.084678993
-0.19106166,-0.089034855
-0.14644399,-0.084843896
-0.17596054,-0.090650536
-0.15127264,-0.10099635
-0.1610973,-0.099191256
-0.17610797,-0.10692217
-0.17838265,-0.063492641
-0.18077978,-0.070944704
-0.14869425,-0.11146972
-0.17923294,-0.10125474
-0.18634522,-0.099698722
-0.19116479,-0.050834849
-0.22692914,-0.095923968
-0.1890936,-0.085492939
-0.1292735,-0.09858679
-0.16461062,-0.083885379
-0.18656583,-0.079575419
-0.17670342,-0.093844585
-0.19263974,-0.082571477
-0.16704527,-0.065390974
-0.17698309,-0.07071095
-0.16772221,-0.099352807
-0.17501186,-0.087858081
-0.16579702,-0.083271876
-0.18607786,-0.08658728
-0.1824691,-0.080298282
-0.17376779,-0.092830829
-0.1600102,-0.072012372
-0.18314719,-0.11526605
-0.21105756,-0.081262454
-0.20342828,-0.098613828
-0.17735918,-0.089950986
-0.15458795,-0.12967877
-0.17092757,-0.061462302
-0.1860518,-0.089429215
-0.17251299,-0.053610481
-0.17699182,-0.083694614
-0.17662494,-0.075916871
-0.19073123,-0.077510126
-0.16079956,-0.090232648
-0.14800887,-0.096348085
-0.15808751,-0.080155924
-0.15344317,-0.08698421
-0.15324518,-0.064081766
-0.15685187,-0.069622286
-0.15710668,-0.10548591
-0.15724926,-0.11454913
-0.20825858,-0.086491957
-0.17536849,-0.065027051
-0.18160158,-0.1072435
-0.18385518,-0.089369699
-0.17986171,-0.080758452
-0.17304806,-0.078035288
-0.18588416,-0.062731154
-0.17712393,-0.072962202
-0.19283877,-0.079359978
-0.16939022,-0.086004116
-0.18727662,-0.069277309
-0.18526369,-0.091881096
-0.18057127,-0.085100122
-0.13609079,-0.098943204
-0.18511955,-0.067558475
-0.15775171,-0.053544383
-0.16757256,-0.068244144
-0.16167332,-0.084254198
-0.16066805,-0.083426647
-0.16752891,-0.096056856
-0.17363982,-0.083649851
-0.16309029,-0.091093421
-0.20198505,-0.062926166
-0.16763054,-0.068679765
-0.16228981,-0.072278202
-0.20837152,-0.056097519
-0.19567578,-0.11242289
-0.16712354,-0.058954656
-0.16115457,-0.08199393
-0.18727274,-0.062124304
-0.16761351,-0.082454398
-0.19205548,-0.085031718
-0.15439685,-0.080555864
-0.16985534,-0.083155885
-0.15830146,-0.10455523
-0.20146659,-0.088946864
-0.1684978,-0.09438654
-0.14019808,-0.073938683
-0.19149734,-0.10885111
-0.19269867,-0.090842105
-0.18303181,-0.081793755
-0.15755652,-0.1038318
-0.16627702,-0.060635999
-0.17067508,-0.080989487
-0.18039846,-0.088306814
-0.19931707,-0.069634855
-0.16945171,-0.067314699
-0.1874336,-0.078812912
-0.18088017,-0.11096665
-0.1563382,-0.07663393
-0.16923644,-0.094660185
-0.17201567,-0.096449442
-0.17000559,-0.10388384
-0.17908062,-0.10514384
-0.17977773,-0.089056723
-0.16792804,-0.090443775
-0.18246974,-0.10191565
-0.16165829,-0.059406005
-0.18077786,-0.0682448
-0.17015341,-0.088292226
-0.15928748,-0.11997528
-0.18364848,-0.095646493
-0.18187138,-0.096712127
-0.18547626,-0.082343027
-0.18347779,-0.091188326
-0.17277963,-0.084738098
-0.16606398,-0.074365474
-0.17973803,-0.095079154
-0.1787542,-0.1258602
-0.17487055,-0.10349356
-0.17329457,-0.098738886
-0.1476762,-0.083526485
-0.19146714,-0.11042098
-0.17088859,-0.07291054
-0.17394291,-0.071067154
-0.15449375,-0.090492874
-0.18333311,-0.06772925
-0.19013876,-0.099939659
-0.17690034,-0.099776559
-0.2066159,-0.10802044
-0.17528115,-0.063333273
-0.18553184,-0.090174876
-0.15488711,-0.070201471
-0.17395893,-0.063838795
-0.16503176,-0.093848273
-0.1837776,-0.1002875
-0.17115924,-0.082590736
-0.17193519,-0.081688881
-0.18353643,-0.098520391
-0.16734681,-0.068727136
-0.16956958,-0.083926857
-0.18335249,-0.091858707
-0.17055322,-0.10420054
-0.17910475,-0.075070389
-0.18702799,-0.081197143
-0.15588897,-0.072857849
-0.1550373,-0.07262139
-0.19332553,-0.090465508
-0.16178511,-0.081577174
-0.18062533,-0.08853972
-0.16289391,-0.080496654
-0.17273055,-0.092627607
-0.19025691,-0.073783375
-0.18138711,-0.090717278
-0.1689433,-0.076104313
-0.18528812,-0.092011318
-0.19176826,-0.058931548
-0.16320558,-0.086505942
-0.17093298,-0.10544649
-0.18595186,-0.084632501
-0.16353901,-0.06896653
-0.18117413,-0.084738553
-0.17528147,-0.1000839
-0.17871216,-0.098370858
-0.19455928,-0.070413895
-0.18420807,-0.087139256
-0.19304007,-0.074121661
-0.16924211,-0.077056177
-0.17788047,-0.087411083
-0.15057665,-0.086975493
-0.16798173,-0.0831642
-0.17603555,-0.084231898
-0.16742972,-0.089254446
-0.19080293,-0.1106732
-0.17088649,-0.095687926
-0.16948481,-0.10142844
-0.16883941,-0.063814558
-0.18759231,-0.085139066
-0.15763052,-0.098688193
-0.17626658,-0.080000877
-0.17902772,-0.077026159
-0.15826599,-0.060119644
-0.16338584,-0.093102582
-0.17372555,-0.078455925
-0.18003854,-0.084327541
-0.21208157,-0.092938386
-0.16088793,-0.097343154
-0.1871343,-0.089752614
-0.16505273,-0.089455344
-0.17536534,-0.068811238
-0.18562242,-0.088717796
-0.18488623,-0.086191304
-0.17321821,-0.073221371
-0.17896444,-0.086211123
-0.18040808,-0.074869923
-0.17296296,-0.092619427
-0.18484865,-0.097577192
-0.18662497,-0.094894536
-0.20713617,-0.10490786
-0.15970217,-0.10311092
-0.16266541,-0.082583502
-0.17381604,-0.053513397
-0.16615777,-0.081786878
-0.18070658,-0.079801679
-0.18278371,-0.10131915
-0.176425,-0.084254667
-0.17190719,-0.064440563
-0.16529873,-0.085912488
-0.16309427,-0.068454087
-0.17319527,-0.07214506
-0.18173395,-0.080114879
-0.17050773,-0.070458658
-0.18740396,-0.089519523
-0.17742258,-0.09682519
-0.17605254,-0.093974821
-0.17359661,-0.072967038
-0.16650097,-0.078509368
-0.19325808,-0.096534044
-0.16908886,-0.088264495
-0.1705925,-0.079144962
-0.17523798,-0.086546369
-0.16664702,-0.089921877
-0.16931795,-0.061290294
-0.18160979,-0.08676596
-0.18312986,-0.098807588
-0.18412267,-0.097665824
-0.16361257,-0.086727589
-0.16982679,-0.083179772
-0.15988144,-0.088744916
-0.16761096,-0.075323969
-0.16557536,-0.088852376
-0.17626421,-0.086928748
-0.18704124,-0.096091598
-0.18156444,-0.0931006
-0.18479472,-0.077603243
-0.16852713,-0.091718517
-0.16839476,-0.089203499
-0.16750577,-0.10121463
-0.18716916,-0.073875159
-0.17084618,-0.08381702
-0.17890276,-0.089429408
-0.16919605,-0.093155541
-0.19012611,-0.080498002
-0.16308042,-0.091484956
-0.17986202,-0.093037516
-0.17689942,-0.072583094
-0.16714606,-0.095327415
-0.15954146,-0.080556378
-0.169622,-0.06904836
-0.184526,-0.071989842
-0.17285275,-0.084934175
-0.17783816,-0.083648071
-0.17418271,-0.095603704
-0.16022527,-0.081624374
-0.19250414,-0.085350014
-0.16804878,-0.081763752
-0.17767709,-0.063539304
-0.17319673,-0.082807258
-0.18379594,-0.10008804
-0.17147991,-0.083060928
-0.19129771,-0.080510765
-0.16818814,-0.10286301
-0.18535711,-0.087455988
-0.16972707,-0.10096733
-0.16494294,-0.078239411
-0.1688997,-0.085763186
-0.16717608,-0.097641341
-0.17385614,-0.093893588
-0.17250198,-0.095180497
-0.17612186,-0.095548809
-0.17877941,-0.093370914
-0.18499288,-0.093126751
-0.19217573,-0.081191994
-0.17643113,-0.091767199
-0.18975177,-0.094262466
-0.18216324,-0.067408547
-0.16476266,-0.075062774
-0.18894459,-0.075477973
-0.17573017,-0.0727835
-0.18566169,-0.084531493
-0.16854368,-0.071678102
-0.16678242,-0.078434728
-0.17354096,-0.083500281
-0.17455164,-0.086871937
-0.17210379,-0.070176594
-0.17771463,-0.074697316
-0.18147853,-0.070815019
-0.17814709,-0.087616019
-0.173337,-0.088952132
-0.17607093,-0.091059811
-0.18429686,-0.090940662
-0.17530625,-0.08342012
-0.18221331,-0.094628625
-0.16750768,-0.080061398
-0.17444861,-0.083641842
-0.16277196,-0.083251216
-0.17846733,-0.10477559
-0.16662103,-0.092800468
-0.16661899,-0.078861311
-0.17111672,-0.076214336
-0.1739331,-0.097712845
-0.18032308,-0.084577747
-0.17968015,-0.10030358
-0.17504385,-0.081367537
-0.16726385,-0.079919316
-0.18621227,-0.088550389
-0.16996835,-0.071321502
-0.17196079,-0.081273496
-0.16396342,-0.089574933
-0.17438865,-0.092167407
-0.1826086,-0.089670017
-0.18535995,-0.093356639
-0.18042979,-0.084307
-0.18207276,-0.091167346
-0.17439386,-0.069177449
-0.17013194,-0.077039145
-0.17644744,-0.097208977
-0.16554788,-0.088324919
-0.17509125,-0.081919983
-0.16768149,-0.089441597
-0.16497408,-0.073151998
-0.17606376,-0.086333185
-0.17291695,-0.071457177
-0.16806228,-0.075347759
-0.16025421,-0.086170107
-0.16639832,-0.10126307
-0.17818724,-0.080825679
-0.17279595,-0.077755056
-0.17918837,-0.083891168
-0.16823782,-0.072723269
-0.16983272,-0.081230745
-0.1741239,-0.093737394
-0.1721659,-0.10071123
-0.16929853,-0.093565531
-0.18534552,-0.08355774
-0.19547045,-0.083570793
-0.17510885,-0.073727883
-0.16765396,-0.09483742
-0.16633461,-0.081229016
-0.17141961,-0.089125007
-0.18424353,-0.074901015
-0.18256401,-0.079961911
-0.18909869,-0.07582207
-0.17311981,-0.095278136
-0.16851011,-0.08394853
-0.18279463,-0.087492868
-0.17573768,-0.094339363
-0.17013825,-0.081122585
-0.18406208,-0.085069947
-0.1839629,-0.082219549
-0.17672299,-0.098659143
-0.1655962,-0.073787302
-0.16725892,-0.08365903
-0.17799269,-0.091021344
-0.17668203,-0.077432267
-0.1730486,-0.087224402
-0.18114266,-0.082306959
-0.17672463,-0.076353341
-0.17405468,-0.084490865
-0.17955898,-0.091431879
-0.18964894,-0.083072513
-0.17765838,-0.079445116
-0.17714491,-0.082867451
-0.17462207,-0.082948029
-0.17971697,-0.081655562
-0.17291506,-0.094571002
-0.1675961,-0.089204393
-0.16932331,-0.091729283
-0.1682408,-0.073863216
-0.16664359,-0.076598085
-0.18953988,-0.086055376
-0.17589581,-0.083753325
-0.18573639,-0.080292493
-0.17392474,-0.086535253
-0.16656676,-0.082276888
-0.17868143,-0.087038547
-0.17998785,-0.093051806
-0.18106391,-0.090398028
-0.17993388,-0.097147703
-0.17927676,-0.085034885
-0.18265264,-0.090494089
-0.17100011,-0.085041918
-0.17816763,-0.087004662
-0.17582433,-0.086209901
-0.17153125,-0.090335689
-0.17543109,-0.080952756
-0.18289785,-0.075203948
-0.17212082,-0.089451201
-0.16948779,-0.086230278
-0.17656124,-0.096309684
-0.1710493,-0.080272928
-0.18620282,-0.084347002
-0.17085609,-0.09713459
-0.17253149,-0.087789685
-0.17107385,-0.08232674
-0.17169143,-0.093517065
-0.17441797,-0.090944789
-0.1729816,-0.084114254
-0.180553,-0.086454935
-0.18420006,-0.085096546
-0.18518414,-0.089354068
-0.17379981,-0.082653686
-0.17548142,-0.085298873
-0.17506227,-0.084424324
-0.18205191,-0.078857638
-0.18012349,-0.087510914
-0.17862669,-0.087339155
-0.18053871,-0.097575046
-0.17290555,-0.073273502
-0.16343167,-0.097661577
-0.16688091,-0.092523962
-0.17829965,-0.081659116
-0.16860746,-0.076256752
-0.16889125,-0.078487672
-0.16748361,-0.079286285
-0.1733671,-0.081282109
-0.16638371,-0.077263787
-0.18050519,-0.070904233
-0.18365811,-0.09232752
-0.17090869,-0.07677912
-0.17388499,-0.081804693
-0.15844248,-0.072053753
-0.17602891,-0.087704226
-0.17517287,-0.080115959
-0.17630358,-0.09040489
-0.17754605,-0.092241824
-0.16502351,-0.082358278
-0.17293386,-0.082051441
-0.17345764,-0.085458301
-0.17409353,-0.087566398
-0.1740918,-0.073067084
-0.17541279,-0.092001043
-0.16427587,-0.082249358
-0.17019986,-0.07962732
-0.18786383,-0.076937936
-0.16681537,-0.080177881
-0.16913196,-0.088555224
-0.18123476,-0.077890031
-0.17590077,-0.085647233
-0.18540613,-0.087190628
-0.17578201,-0.083653115
-0.17822191,-0.083577871
-0.17491643,-0.089785524
-0.17491584,-0.084194504
-0.17296888,-0.083958618
-0.17400864,-0.092676662
-0.17770576,-0.085218169
-0.18407413,-0.085978694
-0.17927113,-0.078589022
-0.17981696,-0.083141595
-0.17009102,-0.078578293
-0.17663121,-0.084098957
