CITIFILE A.01.01
!Agilent Technologies,N5230C,MY48100142,A.08.04.10
!Agilent N5230C: A.08.04.10
!Format: LogMag/Angle
!Date: Friday, July 24, 2020 15:52:19
NAME CH1_DATA
VAR Power MAG 801
DATA S11 DBANGLE
DATA S21 DBANGLE
DATA S12 DBANGLE
DATA S22 DBANGLE
VAR_LIST_BEGIN
-40
-39.975
-39.95
-39.925
-39.9
-39.875
-39.85
-39.825
-39.8
-39.775
-39.75
-39.725
-39.7
-39.675
-39.65
-39.625
-39.6
-39.575
-39.55
-39.525
-39.5
-39.475
-39.45
-39.425
-39.4
-39.375
-39.35
-39.325
-39.3
-39.275
-39.25
-39.225
-39.2
-39.175
-39.15
-39.125
-39.1
-39.075
-39.05
-39.025
-39
-38.975
-38.95
-38.925
-38.9
-38.875
-38.85
-38.825
-38.8
-38.775
-38.75
-38.725
-38.7
-38.675
-38.65
-38.625
-38.6
-38.575
-38.55
-38.525
-38.5
-38.475
-38.45
-38.425
-38.4
-38.375
-38.35
-38.325
-38.3
-38.275
-38.25
-38.225
-38.2
-38.175
-38.15
-38.125
-38.1
-38.075
-38.05
-38.025
-38
-37.975
-37.95
-37.925
-37.9
-37.875
-37.85
-37.825
-37.8
-37.775
-37.75
-37.725
-37.7
-37.675
-37.65
-37.625
-37.6
-37.575
-37.55
-37.525
-37.5
-37.475
-37.45
-37.425
-37.4
-37.375
-37.35
-37.325
-37.3
-37.275
-37.25
-37.225
-37.2
-37.175
-37.15
-37.125
-37.1
-37.075
-37.05
-37.025
-37
-36.975
-36.95
-36.925
-36.9
-36.875
-36.85
-36.825
-36.8
-36.775
-36.75
-36.725
-36.7
-36.675
-36.65
-36.625
-36.6
-36.575
-36.55
-36.525
-36.5
-36.475
-36.45
-36.425
-36.4
-36.375
-36.35
-36.325
-36.3
-36.275
-36.25
-36.225
-36.2
-36.175
-36.15
-36.125
-36.1
-36.075
-36.05
-36.025
-36
-35.975
-35.95
-35.925
-35.9
-35.875
-35.85
-35.825
-35.8
-35.775
-35.75
-35.725
-35.7
-35.675
-35.65
-35.625
-35.6
-35.575
-35.55
-35.525
-35.5
-35.475
-35.45
-35.425
-35.4
-35.375
-35.35
-35.325
-35.3
-35.275
-35.25
-35.225
-35.2
-35.175
-35.15
-35.125
-35.1
-35.075
-35.05
-35.025
-35
-34.975
-34.95
-34.925
-34.9
-34.875
-34.85
-34.825
-34.8
-34.775
-34.75
-34.725
-34.7
-34.675
-34.65
-34.625
-34.6
-34.575
-34.55
-34.525
-34.5
-34.475
-34.45
-34.425
-34.4
-34.375
-34.35
-34.325
-34.3
-34.275
-34.25
-34.225
-34.2
-34.175
-34.15
-34.125
-34.1
-34.075
-34.05
-34.025
-34
-33.975
-33.95
-33.925
-33.9
-33.875
-33.85
-33.825
-33.8
-33.775
-33.75
-33.725
-33.7
-33.675
-33.65
-33.625
-33.6
-33.575
-33.55
-33.525
-33.5
-33.475
-33.45
-33.425
-33.4
-33.375
-33.35
-33.325
-33.3
-33.275
-33.25
-33.225
-33.2
-33.175
-33.15
-33.125
-33.1
-33.075
-33.05
-33.025
-33
-32.975
-32.95
-32.925
-32.9
-32.875
-32.85
-32.825
-32.8
-32.775
-32.75
-32.725
-32.7
-32.675
-32.65
-32.625
-32.6
-32.575
-32.55
-32.525
-32.5
-32.475
-32.45
-32.425
-32.4
-32.375
-32.35
-32.325
-32.3
-32.275
-32.25
-32.225
-32.2
-32.175
-32.15
-32.125
-32.1
-32.075
-32.05
-32.025
-32
-31.975
-31.95
-31.925
-31.9
-31.875
-31.85
-31.825
-31.8
-31.775
-31.75
-31.725
-31.7
-31.675
-31.65
-31.625
-31.6
-31.575
-31.55
-31.525
-31.5
-31.475
-31.45
-31.425
-31.4
-31.375
-31.35
-31.325
-31.3
-31.275
-31.25
-31.225
-31.2
-31.175
-31.15
-31.125
-31.1
-31.075
-31.05
-31.025
-31
-30.975
-30.95
-30.925
-30.9
-30.875
-30.85
-30.825
-30.8
-30.775
-30.75
-30.725
-30.7
-30.675
-30.65
-30.625
-30.6
-30.575
-30.55
-30.525
-30.5
-30.475
-30.45
-30.425
-30.4
-30.375
-30.35
-30.325
-30.3
-30.275
-30.25
-30.225
-30.2
-30.175
-30.15
-30.125
-30.1
-30.075
-30.05
-30.025
-30
-29.975
-29.95
-29.925
-29.9
-29.875
-29.85
-29.825
-29.8
-29.775
-29.75
-29.725
-29.7
-29.675
-29.65
-29.625
-29.6
-29.575
-29.55
-29.525
-29.5
-29.475
-29.45
-29.425
-29.4
-29.375
-29.35
-29.325
-29.3
-29.275
-29.25
-29.225
-29.2
-29.175
-29.15
-29.125
-29.1
-29.075
-29.05
-29.025
-29
-28.975
-28.95
-28.925
-28.9
-28.875
-28.85
-28.825
-28.8
-28.775
-28.75
-28.725
-28.7
-28.675
-28.65
-28.625
-28.6
-28.575
-28.55
-28.525
-28.5
-28.475
-28.45
-28.425
-28.4
-28.375
-28.35
-28.325
-28.3
-28.275
-28.25
-28.225
-28.2
-28.175
-28.15
-28.125
-28.1
-28.075
-28.05
-28.025
-28
-27.975
-27.95
-27.925
-27.9
-27.875
-27.85
-27.825
-27.8
-27.775
-27.75
-27.725
-27.7
-27.675
-27.65
-27.625
-27.6
-27.575
-27.55
-27.525
-27.5
-27.475
-27.45
-27.425
-27.4
-27.375
-27.35
-27.325
-27.3
-27.275
-27.25
-27.225
-27.2
-27.175
-27.15
-27.125
-27.1
-27.075
-27.05
-27.025
-27
-26.975
-26.95
-26.925
-26.9
-26.875
-26.85
-26.825
-26.8
-26.775
-26.75
-26.725
-26.7
-26.675
-26.65
-26.625
-26.6
-26.575
-26.55
-26.525
-26.5
-26.475
-26.45
-26.425
-26.4
-26.375
-26.35
-26.325
-26.3
-26.275
-26.25
-26.225
-26.2
-26.175
-26.15
-26.125
-26.1
-26.075
-26.05
-26.025
-26
-25.975
-25.95
-25.925
-25.9
-25.875
-25.85
-25.825
-25.8
-25.775
-25.75
-25.725
-25.7
-25.675
-25.65
-25.625
-25.6
-25.575
-25.55
-25.525
-25.5
-25.475
-25.45
-25.425
-25.4
-25.375
-25.35
-25.325
-25.3
-25.275
-25.25
-25.225
-25.2
-25.175
-25.15
-25.125
-25.1
-25.075
-25.05
-25.025
-25
-24.975
-24.95
-24.925
-24.9
-24.875
-24.85
-24.825
-24.8
-24.775
-24.75
-24.725
-24.7
-24.675
-24.65
-24.625
-24.6
-24.575
-24.55
-24.525
-24.5
-24.475
-24.45
-24.425
-24.4
-24.375
-24.35
-24.325
-24.3
-24.275
-24.25
-24.225
-24.2
-24.175
-24.15
-24.125
-24.1
-24.075
-24.05
-24.025
-24
-23.975
-23.95
-23.925
-23.9
-23.875
-23.85
-23.825
-23.8
-23.775
-23.75
-23.725
-23.7
-23.675
-23.65
-23.625
-23.6
-23.575
-23.55
-23.525
-23.5
-23.475
-23.45
-23.425
-23.4
-23.375
-23.35
-23.325
-23.3
-23.275
-23.25
-23.225
-23.2
-23.175
-23.15
-23.125
-23.1
-23.075
-23.05
-23.025
-23
-22.975
-22.95
-22.925
-22.9
-22.875
-22.85
-22.825
-22.8
-22.775
-22.75
-22.725
-22.7
-22.675
-22.65
-22.625
-22.6
-22.575
-22.55
-22.525
-22.5
-22.475
-22.45
-22.425
-22.4
-22.375
-22.35
-22.325
-22.3
-22.275
-22.25
-22.225
-22.2
-22.175
-22.15
-22.125
-22.1
-22.075
-22.05
-22.025
-22
-21.975
-21.95
-21.925
-21.9
-21.875
-21.85
-21.825
-21.8
-21.775
-21.75
-21.725
-21.7
-21.675
-21.65
-21.625
-21.6
-21.575
-21.55
-21.525
-21.5
-21.475
-21.45
-21.425
-21.4
-21.375
-21.35
-21.325
-21.3
-21.275
-21.25
-21.225
-21.2
-21.175
-21.15
-21.125
-21.1
-21.075
-21.05
-21.025
-21
-20.975
-20.95
-20.925
-20.9
-20.875
-20.85
-20.825
-20.8
-20.775
-20.75
-20.725
-20.7
-20.675
-20.65
-20.625
-20.6
-20.575
-20.55
-20.525
-20.5
-20.475
-20.45
-20.425
-20.4
-20.375
-20.35
-20.325
-20.3
-20.275
-20.25
-20.225
-20.2
-20.175
-20.15
-20.125
-20.1
-20.075
-20.05
-20.025
-20
VAR_LIST_END
BEGIN
-14.847402,-145.0864
-15.608273,-152.50517
-15.511558,-142.06216
-14.673754,-153.50319
-13.015362,-144.50925
-14.152622,-145.04401
-14.261895,-143.21056
-14.884621,-139.37582
-14.494172,-144.93303
-15.265884,-149.00136
-14.259475,-139.48381
-13.752772,-143.13254
-13.439177,-153.1992
-14.480111,-141.12573
-15.446902,-143.37546
-14.599866,-142.60791
-16.484346,-147.0482
-14.256679,-143.30478
-13.378583,-140.45885
-15.668566,-142.44165
-14.028377,-137.11444
-13.820992,-144.4592
-14.255135,-148.41046
-14.104031,-143.64897
-14.701381,-142.70555
-14.393898,-136.01036
-14.893906,-153.55774
-14.966246,-148.09152
-14.060051,-144.14409
-15.123218,-137.91977
-15.78245,-144.39008
-14.582563,-143.85815
-14.632768,-145.8035
-13.966697,-144.52835
-15.104188,-136.28105
-14.551896,-148.84084
-14.740081,-141.64787
-14.717469,-147.14168
-15.901007,-149.60245
-14.843897,-150.80138
-14.811263,-146.35498
-15.304772,-148.17598
-15.616129,-150.21561
-14.818224,-152.81708
-14.523626,-147.62471
-14.864872,-150.84286
-14.516843,-148.83931
-14.86913,-138.32959
-15.939807,-146.71114
-14.70021,-144.40317
-14.916917,-142.56671
-13.4168,-149.51813
-14.789069,-147.62433
-15.590775,-146.92368
-14.762244,-138.61105
-14.671594,-150.5994
-14.816789,-136.32265
-15.787589,-147.5535
-14.019341,-148.96657
-13.404356,-138.50555
-14.30018,-140.05406
-14.571228,-149.20253
-14.085375,-141.9566
-14.941519,-142.47346
-13.843963,-143.64874
-14.531996,-150.63635
-14.617818,-136.435
-14.470479,-148.36932
-14.27469,-144.79639
-14.781369,-143.49226
-14.592307,-147.81096
-14.284656,-147.32614
-14.604707,-145.76102
-14.745123,-141.74538
-13.867618,-149.98425
-14.591677,-140.66922
-13.608043,-143.57524
-14.16196,-145.5589
-13.99614,-141.50755
-14.823462,-143.39668
-14.542658,-140.9438
-14.761836,-140.90105
-15.181233,-140.98207
-15.308772,-141.51726
-14.268625,-141.4339
-14.533058,-146.83488
-14.675694,-148.2002
-15.282562,-148.58644
-14.229929,-142.4894
-14.286803,-148.70502
-13.982316,-143.00826
-15.045308,-145.60068
-13.693144,-145.71964
-14.232542,-145.03494
-14.194303,-144.85355
-15.07582,-149.13443
-14.508013,-139.77414
-14.21927,-146.17476
-15.064875,-147.39397
-14.577147,-146.61432
-14.225013,-151.34344
-14.343841,-147.6792
-14.667694,-143.65547
-15.449306,-137.21645
-14.560599,-140.72101
-13.972176,-140.31827
-14.467257,-141.98569
-14.434064,-143.47459
-14.758862,-144.10431
-14.430081,-146.57446
-14.908151,-147.46979
-14.675257,-144.57292
-15.854461,-141.04385
-14.136795,-151.14478
-14.695601,-141.03522
-14.71778,-146.33781
-14.577052,-137.80275
-13.970247,-150.85504
-14.167012,-147.00081
-14.832599,-148.20076
-15.66359,-145.89565
-14.698185,-147.54779
-14.706966,-146.50504
-15.504782,-149.15823
-14.735952,-146.11813
-14.258516,-148.70012
-14.935,-143.32875
-14.511844,-145.5399
-14.419093,-144.81093
-14.63906,-144.1898
-14.448512,-139.24911
-13.549302,-144.27994
-14.005098,-139.91174
-14.282896,-142.04678
-14.123689,-143.96762
-14.389392,-143.11482
-14.800312,-136.52809
-14.481167,-147.70636
-14.060159,-140.66814
-14.727777,-144.0845
-13.558619,-145.00873
-15.265483,-146.25459
-15.825645,-144.6297
-13.055408,-150.60135
-15.482962,-148.9713
-16.209822,-146.67
-15.168622,-139.20016
-14.345719,-137.60368
-13.957191,-141.2189
-14.846971,-145.23538
-14.613236,-135.45227
-13.788125,-142.7975
-15.091439,-145.20723
-14.522906,-140.08537
-15.388912,-140.19722
-15.555597,-147.65988
-15.250799,-147.51573
-14.524389,-144.70869
-15.220265,-136.78395
-14.58621,-143.18156
-14.677796,-145.83138
-15.438903,-143.6964
-15.058346,-146.22519
-13.590316,-144.06438
-13.183362,-142.70601
-15.167933,-140.36226
-14.52713,-145.2813
-14.527816,-140.75882
-14.576632,-147.87039
-14.053902,-148.39853
-14.698873,-143.81912
-15.701614,-144.10654
-13.760072,-139.83052
-14.875968,-145.43976
-15.224604,-146.54346
-14.035584,-149.17029
-14.489072,-150.3853
-14.616529,-139.03267
-14.96206,-142.18173
-13.982843,-141.81815
-13.888354,-147.88033
-14.756278,-142.0374
-14.469011,-143.73836
-13.529792,-142.00168
-14.787511,-142.06479
-14.382466,-142.50633
-14.190393,-150.11948
-14.522816,-140.53554
-15.028273,-143.93469
-13.700679,-145.06549
-13.62638,-138.15167
-14.282554,-138.90974
-14.736856,-142.22401
-14.187728,-143.81755
-14.593065,-140.27475
-14.967116,-144.22368
-14.867888,-143.67896
-15.673974,-138.92462
-14.088001,-147.6469
-14.88304,-140.33727
-14.990729,-143.2775
-15.226359,-142.31328
-14.388548,-147.03198
-13.943648,-150.72556
-13.908059,-141.98836
-15.265058,-146.01093
-14.773443,-143.1982
-14.897676,-136.7675
-14.918815,-144.43134
-14.854769,-145.44995
-13.960352,-149.37193
-14.443496,-145.42195
-14.462936,-148.71527
-14.98944,-141.07152
-14.214684,-142.68669
-15.234176,-139.34723
-14.931482,-140.51981
-14.463922,-144.623
-14.490149,-144.23859
-15.132289,-145.90034
-14.457988,-138.46404
-14.932597,-142.1669
-14.069938,-143.93829
-14.278735,-139.02138
-14.546571,-141.68764
-14.430825,-145.01311
-14.258455,-144.74226
-15.063437,-139.33476
-14.776832,-149.34656
-13.637435,-148.01187
-14.758307,-145.05902
-14.412274,-149.77361
-14.633726,-141.12753
-15.012543,-145.62061
-14.19659,-145.82545
-14.390016,-141.4528
-15.806522,-146.17459
-14.723063,-144.22429
-14.865626,-141.39677
-14.6227,-143.61169
-14.987059,-142.03384
-15.083793,-145.33638
-15.049216,-146.03822
-14.615247,-141.71486
-15.337291,-145.74977
-14.534101,-143.34119
-14.736595,-140.49626
-14.912114,-145.04959
-14.088464,-142.20653
-14.363772,-143.27502
-14.365479,-146.87395
-14.420333,-146.20879
-15.170082,-142.9993
-14.47828,-146.24321
-15.066978,-141.90451
-14.047925,-151.12517
-15.120225,-145.19328
-13.492282,-145.45374
-15.573669,-139.17564
-14.277821,-143.27716
-14.293095,-147.49596
-14.055968,-143.09702
-14.841101,-147.10669
-14.28953,-146.23988
-14.566744,-143.82137
-14.827032,-144.90167
-14.738737,-136.2849
-14.531741,-146.24446
-14.65021,-143.6705
-14.101324,-143.28175
-15.56833,-146.136
-14.26985,-147.57779
-14.678727,-142.4828
-14.633268,-147.5567
-14.493818,-147.44267
-15.269,-139.98364
-14.370275,-141.18002
-14.853262,-142.8096
-14.419815,-144.58131
-14.811068,-141.34471
-14.908736,-141.93463
-14.737165,-143.94348
-15.304002,-146.09344
-15.099363,-142.77194
-14.382285,-145.89111
-14.470435,-143.5567
-14.741528,-149.62701
-14.948853,-145.44122
-14.42771,-143.30806
-14.624605,-140.21564
-14.651483,-141.10603
-14.839398,-143.53395
-14.950952,-143.70267
-14.275754,-146.07227
-14.97519,-137.35728
-14.587029,-149.14249
-14.722659,-143.1967
-14.084024,-140.48866
-14.332632,-143.4593
-15.010474,-144.10486
-14.596687,-140.61674
-15.062086,-142.76166
-14.353559,-147.39369
-14.852412,-144.8308
-14.636639,-143.52814
-14.081812,-143.42845
-14.218401,-147.59892
-14.940926,-142.74825
-13.999989,-142.53305
-14.304746,-144.8293
-14.148163,-144.78671
-14.890722,-142.53723
-14.37178,-141.28665
-14.957467,-148.95445
-14.322906,-145.63158
-14.370507,-142.4393
-14.187761,-143.21664
-15.720981,-143.33427
-14.776926,-145.76628
-14.972599,-140.6292
-14.765397,-141.50977
-14.235332,-146.31114
-14.787807,-142.27365
-15.326474,-140.31474
-15.015897,-142.83986
-14.942701,-144.0941
-14.557792,-142.90204
-14.647326,-144.01993
-14.445398,-147.87482
-14.879527,-145.74107
-14.499597,-145.83797
-14.549097,-141.12758
-14.336144,-146.63875
-14.909119,-140.99222
-14.955845,-145.59566
-14.547802,-140.19725
-14.815541,-140.73662
-14.919797,-139.27873
-14.412118,-145.8793
-14.845762,-146.39191
-14.440001,-143.96945
-14.48348,-145.5475
-13.928205,-146.06009
-14.849833,-145.12639
-14.463708,-143.61249
-14.831152,-142.91203
-14.787666,-143.81482
-14.851151,-144.42589
-14.167385,-143.4425
-14.521912,-146.57011
-14.418946,-147.27275
-15.018716,-142.88344
-14.083167,-147.93362
-14.606635,-142.77393
-14.615455,-146.00119
-14.297823,-142.41298
-15.066351,-148.23441
-14.718832,-145.16969
-15.112316,-142.06787
-14.846296,-139.0824
-14.406547,-142.27409
-14.602658,-144.55704
-14.54086,-145.45232
-14.920031,-141.26166
-14.545629,-147.87267
-14.587477,-143.09256
-14.796853,-144.43433
-13.88629,-145.94943
-14.062548,-144.54021
-14.632886,-142.72345
-14.738828,-144.47807
-14.58372,-143.8484
-14.711108,-144.33978
-14.483907,-144.13979
-14.903898,-143.83018
-14.495676,-143.21822
-14.869848,-142.11642
-14.482318,-145.23871
-14.574625,-141.6927
-14.515521,-144.54762
-14.589193,-146.45032
-14.307033,-147.36893
-14.386142,-143.6158
-14.278461,-146.19955
-14.474601,-142.31993
-14.481329,-143.34006
-14.082596,-145.17107
-14.793284,-146.81259
-14.175667,-146.36482
-14.895308,-144.6452
-14.303422,-141.91071
-14.639645,-141.76334
-14.22886,-144.34766
-14.702692,-144.08461
-14.349539,-141.61423
-14.653039,-141.82045
-14.476419,-144.65538
-14.230198,-145.36259
-14.167185,-144.06203
-14.660778,-144.46509
-15.106382,-142.37285
-15.268693,-143.62878
-15.057481,-145.12314
-14.501023,-143.34538
-14.58439,-142.94221
-14.917472,-146.06775
-14.377899,-142.98697
-14.502411,-143.95453
-14.294846,-141.50352
-14.576465,-147.06339
-14.851626,-142.94341
-14.39709,-144.46272
-14.563367,-144.26553
-14.675787,-145.39502
-15.049744,-141.59468
-14.217792,-144.21484
-14.482359,-144.16273
-14.739767,-144.8611
-14.856055,-139.62648
-14.686932,-141.15849
-14.173788,-146.23743
-14.940509,-144.9736
-14.519471,-147.04912
-14.374432,-142.58
-14.382986,-143.15631
-14.940104,-146.38548
-14.4578,-143.25133
-15.137989,-147.20808
-14.900821,-140.67221
-14.55797,-145.35135
-14.767989,-144.21234
-15.034677,-142.60272
-14.172162,-144.539
-14.711601,-145.36688
-15.03469,-144.69852
-14.683434,-146.6917
-14.767425,-144.10223
-14.683396,-141.82965
-14.637487,-144.5667
-14.867741,-142.38382
-14.447739,-144.72746
-14.912539,-144.6795
-14.266582,-143.58615
-14.705789,-143.65298
-14.352233,-143.8268
-14.580933,-144.68353
-14.597888,-143.63702
-14.647569,-143.92696
-14.586366,-145.33154
-14.771476,-145.94568
-14.750244,-144.95334
-14.746138,-144.60394
-14.582138,-144.07187
-14.513803,-144.43736
-14.608942,-145.51701
-14.670923,-145.14168
-14.655932,-144.18271
-14.852182,-147.82828
-14.642509,-143.34323
-14.759415,-145.09554
-14.856272,-143.33003
-14.83993,-141.70004
-14.493233,-144.14272
-14.579973,-147.21892
-14.640273,-145.10422
-14.888347,-142.74472
-14.476501,-141.40315
-14.524076,-143.42276
-14.505035,-141.78926
-14.547842,-142.22992
-14.564255,-143.3192
-14.538806,-144.76486
-14.417473,-144.52444
-14.92194,-146.47554
-14.538302,-143.17244
-14.710261,-144.78423
-15.011554,-141.09793
-14.482615,-144.95284
-14.554485,-143.34152
-14.654836,-145.20285
-14.996896,-146.88393
-14.84232,-143.55527
-14.914055,-145.32249
-14.712248,-143.74951
-14.894956,-145.64874
-14.403016,-143.5421
-14.291611,-143.40231
-14.341977,-144.39067
-14.530763,-145.73123
-14.850523,-145.96748
-14.426374,-145.57031
-15.075253,-145.0289
-14.323734,-142.53357
-14.535439,-143.63423
-14.497395,-142.65279
-14.623155,-143.73601
-14.638864,-144.45393
-14.439458,-144.40176
-14.535135,-143.07121
-14.572198,-144.4753
-14.441726,-143.45868
-14.796841,-145.47044
-14.414168,-142.60078
-14.588722,-142.5867
-14.317566,-144.23102
-14.823508,-147.15643
-14.649914,-146.61913
-14.722937,-144.1544
-14.637341,-144.4463
-14.560451,-142.34767
-14.631972,-146.32741
-14.57992,-144.81322
-14.530726,-144.77576
-14.935438,-145.00009
-14.713692,-146.2493
-14.873783,-144.61887
-14.802318,-144.05191
-14.532044,-146.00002
-14.628603,-142.52376
-14.545572,-144.30315
-14.83485,-143.32674
-14.541175,-143.22179
-14.382647,-141.92024
-14.424402,-143.19656
-14.6825,-144.58142
-14.515841,-145.33148
-14.843084,-145.83228
-14.707602,-143.24989
-14.447721,-143.41476
-14.816891,-145.07904
-14.583208,-143.88214
-14.887107,-143.28902
-14.536092,-142.99626
-14.537354,-143.11879
-14.605987,-143.80978
-14.259696,-142.52354
-14.897948,-144.50407
-14.592255,-144.38928
-14.721123,-145.3378
-14.560233,-144.44637
-14.975086,-145.20572
-14.56614,-143.9314
-14.477791,-144.42551
-14.666913,-143.41792
-14.623999,-144.55267
-14.630391,-145.42233
-14.561898,-144.13068
-14.643015,-143.60284
-14.985689,-143.88884
-14.505289,-141.98901
-14.508822,-147.25647
-14.547884,-142.91254
-14.468073,-147.03531
-14.809137,-144.19678
-14.842068,-145.17786
-14.574636,-145.4827
-14.462862,-146.66461
-14.79049,-145.09595
-14.561295,-142.08711
-14.558759,-145.07326
-14.742531,-145.51582
-14.560002,-143.42215
-14.499017,-144.59671
-14.684978,-146.13148
-14.588088,-145.47157
-14.616021,-143.68335
-14.521298,-144.83545
-14.670272,-144.38365
-14.715025,-145.23427
-14.558051,-143.51285
-14.651279,-145.24451
-14.689734,-143.33255
-14.376337,-144.09402
-14.661233,-143.75539
-14.631945,-143.49525
-14.450457,-146.3356
-14.932911,-143.9678
