CITIFILE A.01.01
!Agilent Technologies,N5230C,MY48100142,A.08.04.10
!Agilent N5230C: A.08.04.10
!Format: LogMag/Angle
!Date: Friday, August 14, 2020 13:40:05
NAME CH1_DATA
VAR Power MAG 801
DATA S11 DBANGLE
DATA S21 DBANGLE
DATA S12 DBANGLE
DATA S22 DBANGLE
VAR_LIST_BEGIN
-40
-39.975
-39.95
-39.925
-39.9
-39.875
-39.85
-39.825
-39.8
-39.775
-39.75
-39.725
-39.7
-39.675
-39.65
-39.625
-39.6
-39.575
-39.55
-39.525
-39.5
-39.475
-39.45
-39.425
-39.4
-39.375
-39.35
-39.325
-39.3
-39.275
-39.25
-39.225
-39.2
-39.175
-39.15
-39.125
-39.1
-39.075
-39.05
-39.025
-39
-38.975
-38.95
-38.925
-38.9
-38.875
-38.85
-38.825
-38.8
-38.775
-38.75
-38.725
-38.7
-38.675
-38.65
-38.625
-38.6
-38.575
-38.55
-38.525
-38.5
-38.475
-38.45
-38.425
-38.4
-38.375
-38.35
-38.325
-38.3
-38.275
-38.25
-38.225
-38.2
-38.175
-38.15
-38.125
-38.1
-38.075
-38.05
-38.025
-38
-37.975
-37.95
-37.925
-37.9
-37.875
-37.85
-37.825
-37.8
-37.775
-37.75
-37.725
-37.7
-37.675
-37.65
-37.625
-37.6
-37.575
-37.55
-37.525
-37.5
-37.475
-37.45
-37.425
-37.4
-37.375
-37.35
-37.325
-37.3
-37.275
-37.25
-37.225
-37.2
-37.175
-37.15
-37.125
-37.1
-37.075
-37.05
-37.025
-37
-36.975
-36.95
-36.925
-36.9
-36.875
-36.85
-36.825
-36.8
-36.775
-36.75
-36.725
-36.7
-36.675
-36.65
-36.625
-36.6
-36.575
-36.55
-36.525
-36.5
-36.475
-36.45
-36.425
-36.4
-36.375
-36.35
-36.325
-36.3
-36.275
-36.25
-36.225
-36.2
-36.175
-36.15
-36.125
-36.1
-36.075
-36.05
-36.025
-36
-35.975
-35.95
-35.925
-35.9
-35.875
-35.85
-35.825
-35.8
-35.775
-35.75
-35.725
-35.7
-35.675
-35.65
-35.625
-35.6
-35.575
-35.55
-35.525
-35.5
-35.475
-35.45
-35.425
-35.4
-35.375
-35.35
-35.325
-35.3
-35.275
-35.25
-35.225
-35.2
-35.175
-35.15
-35.125
-35.1
-35.075
-35.05
-35.025
-35
-34.975
-34.95
-34.925
-34.9
-34.875
-34.85
-34.825
-34.8
-34.775
-34.75
-34.725
-34.7
-34.675
-34.65
-34.625
-34.6
-34.575
-34.55
-34.525
-34.5
-34.475
-34.45
-34.425
-34.4
-34.375
-34.35
-34.325
-34.3
-34.275
-34.25
-34.225
-34.2
-34.175
-34.15
-34.125
-34.1
-34.075
-34.05
-34.025
-34
-33.975
-33.95
-33.925
-33.9
-33.875
-33.85
-33.825
-33.8
-33.775
-33.75
-33.725
-33.7
-33.675
-33.65
-33.625
-33.6
-33.575
-33.55
-33.525
-33.5
-33.475
-33.45
-33.425
-33.4
-33.375
-33.35
-33.325
-33.3
-33.275
-33.25
-33.225
-33.2
-33.175
-33.15
-33.125
-33.1
-33.075
-33.05
-33.025
-33
-32.975
-32.95
-32.925
-32.9
-32.875
-32.85
-32.825
-32.8
-32.775
-32.75
-32.725
-32.7
-32.675
-32.65
-32.625
-32.6
-32.575
-32.55
-32.525
-32.5
-32.475
-32.45
-32.425
-32.4
-32.375
-32.35
-32.325
-32.3
-32.275
-32.25
-32.225
-32.2
-32.175
-32.15
-32.125
-32.1
-32.075
-32.05
-32.025
-32
-31.975
-31.95
-31.925
-31.9
-31.875
-31.85
-31.825
-31.8
-31.775
-31.75
-31.725
-31.7
-31.675
-31.65
-31.625
-31.6
-31.575
-31.55
-31.525
-31.5
-31.475
-31.45
-31.425
-31.4
-31.375
-31.35
-31.325
-31.3
-31.275
-31.25
-31.225
-31.2
-31.175
-31.15
-31.125
-31.1
-31.075
-31.05
-31.025
-31
-30.975
-30.95
-30.925
-30.9
-30.875
-30.85
-30.825
-30.8
-30.775
-30.75
-30.725
-30.7
-30.675
-30.65
-30.625
-30.6
-30.575
-30.55
-30.525
-30.5
-30.475
-30.45
-30.425
-30.4
-30.375
-30.35
-30.325
-30.3
-30.275
-30.25
-30.225
-30.2
-30.175
-30.15
-30.125
-30.1
-30.075
-30.05
-30.025
-30
-29.975
-29.95
-29.925
-29.9
-29.875
-29.85
-29.825
-29.8
-29.775
-29.75
-29.725
-29.7
-29.675
-29.65
-29.625
-29.6
-29.575
-29.55
-29.525
-29.5
-29.475
-29.45
-29.425
-29.4
-29.375
-29.35
-29.325
-29.3
-29.275
-29.25
-29.225
-29.2
-29.175
-29.15
-29.125
-29.1
-29.075
-29.05
-29.025
-29
-28.975
-28.95
-28.925
-28.9
-28.875
-28.85
-28.825
-28.8
-28.775
-28.75
-28.725
-28.7
-28.675
-28.65
-28.625
-28.6
-28.575
-28.55
-28.525
-28.5
-28.475
-28.45
-28.425
-28.4
-28.375
-28.35
-28.325
-28.3
-28.275
-28.25
-28.225
-28.2
-28.175
-28.15
-28.125
-28.1
-28.075
-28.05
-28.025
-28
-27.975
-27.95
-27.925
-27.9
-27.875
-27.85
-27.825
-27.8
-27.775
-27.75
-27.725
-27.7
-27.675
-27.65
-27.625
-27.6
-27.575
-27.55
-27.525
-27.5
-27.475
-27.45
-27.425
-27.4
-27.375
-27.35
-27.325
-27.3
-27.275
-27.25
-27.225
-27.2
-27.175
-27.15
-27.125
-27.1
-27.075
-27.05
-27.025
-27
-26.975
-26.95
-26.925
-26.9
-26.875
-26.85
-26.825
-26.8
-26.775
-26.75
-26.725
-26.7
-26.675
-26.65
-26.625
-26.6
-26.575
-26.55
-26.525
-26.5
-26.475
-26.45
-26.425
-26.4
-26.375
-26.35
-26.325
-26.3
-26.275
-26.25
-26.225
-26.2
-26.175
-26.15
-26.125
-26.1
-26.075
-26.05
-26.025
-26
-25.975
-25.95
-25.925
-25.9
-25.875
-25.85
-25.825
-25.8
-25.775
-25.75
-25.725
-25.7
-25.675
-25.65
-25.625
-25.6
-25.575
-25.55
-25.525
-25.5
-25.475
-25.45
-25.425
-25.4
-25.375
-25.35
-25.325
-25.3
-25.275
-25.25
-25.225
-25.2
-25.175
-25.15
-25.125
-25.1
-25.075
-25.05
-25.025
-25
-24.975
-24.95
-24.925
-24.9
-24.875
-24.85
-24.825
-24.8
-24.775
-24.75
-24.725
-24.7
-24.675
-24.65
-24.625
-24.6
-24.575
-24.55
-24.525
-24.5
-24.475
-24.45
-24.425
-24.4
-24.375
-24.35
-24.325
-24.3
-24.275
-24.25
-24.225
-24.2
-24.175
-24.15
-24.125
-24.1
-24.075
-24.05
-24.025
-24
-23.975
-23.95
-23.925
-23.9
-23.875
-23.85
-23.825
-23.8
-23.775
-23.75
-23.725
-23.7
-23.675
-23.65
-23.625
-23.6
-23.575
-23.55
-23.525
-23.5
-23.475
-23.45
-23.425
-23.4
-23.375
-23.35
-23.325
-23.3
-23.275
-23.25
-23.225
-23.2
-23.175
-23.15
-23.125
-23.1
-23.075
-23.05
-23.025
-23
-22.975
-22.95
-22.925
-22.9
-22.875
-22.85
-22.825
-22.8
-22.775
-22.75
-22.725
-22.7
-22.675
-22.65
-22.625
-22.6
-22.575
-22.55
-22.525
-22.5
-22.475
-22.45
-22.425
-22.4
-22.375
-22.35
-22.325
-22.3
-22.275
-22.25
-22.225
-22.2
-22.175
-22.15
-22.125
-22.1
-22.075
-22.05
-22.025
-22
-21.975
-21.95
-21.925
-21.9
-21.875
-21.85
-21.825
-21.8
-21.775
-21.75
-21.725
-21.7
-21.675
-21.65
-21.625
-21.6
-21.575
-21.55
-21.525
-21.5
-21.475
-21.45
-21.425
-21.4
-21.375
-21.35
-21.325
-21.3
-21.275
-21.25
-21.225
-21.2
-21.175
-21.15
-21.125
-21.1
-21.075
-21.05
-21.025
-21
-20.975
-20.95
-20.925
-20.9
-20.875
-20.85
-20.825
-20.8
-20.775
-20.75
-20.725
-20.7
-20.675
-20.65
-20.625
-20.6
-20.575
-20.55
-20.525
-20.5
-20.475
-20.45
-20.425
-20.4
-20.375
-20.35
-20.325
-20.3
-20.275
-20.25
-20.225
-20.2
-20.175
-20.15
-20.125
-20.1
-20.075
-20.05
-20.025
-20
VAR_LIST_END
BEGIN
-15.289194,-160.03732
-15.178397,-159.85115
-14.589033,-156.82536
-14.988559,-154.40344
-15.904357,-158.45995
-15.583303,-162.82758
-14.173379,-159.3877
-14.478201,-160.10133
-14.670399,-161.72412
-15.098466,-158.15854
-15.183326,-156.92773
-15.339799,-156.05032
-14.719322,-160.50954
-15.030948,-162.52679
-15.523971,-160.62619
-14.97243,-159.74068
-15.185994,-165.13429
-15.006335,-158.64557
-14.755515,-161.97899
-15.123556,-155.79527
-15.219699,-158.95889
-15.001006,-155.33331
-15.262952,-159.5889
-14.753418,-158.15125
-15.278492,-157.15436
-15.19703,-158.59778
-15.386071,-157.64828
-15.250029,-162.63145
-15.163806,-159.7157
-15.450226,-159.70445
-14.570099,-154.79678
-15.466758,-158.28191
-14.535286,-157.41211
-15.458874,-161.8614
-14.745514,-156.24599
-15.21059,-157.92726
-14.773986,-159.42905
-14.350833,-157.32259
-14.491562,-156.4431
-15.044715,-156.86537
-15.302805,-161.11539
-14.919963,-160.17378
-15.317725,-156.57458
-14.952446,-155.23799
-14.959814,-156.78131
-15.221191,-152.00575
-14.752892,-156.35878
-14.941609,-157.62262
-15.098484,-158.83351
-14.938127,-163.4713
-15.482681,-156.91525
-14.627488,-159.05118
-15.241752,-158.23561
-14.814055,-159.68077
-15.889785,-156.9187
-15.334305,-156.97217
-14.782396,-158.00548
-15.331954,-152.97852
-15.101762,-159.08669
-14.834451,-157.40518
-14.852213,-163.57982
-14.823295,-158.41745
-15.376793,-157.94391
-15.032664,-159.09277
-15.085109,-158.2226
-15.212504,-159.22682
-15.052873,-156.35078
-15.236117,-161.28087
-15.720436,-161.33565
-16.055447,-155.19627
-14.152479,-158.11673
-15.388991,-158.05179
-14.565682,-161.56459
-15.120027,-162.84552
-14.928228,-159.69514
-14.955556,-159.17328
-14.584318,-159.1983
-14.9437,-157.1906
-15.022694,-159.14082
-15.030357,-162.1579
-14.775508,-155.48137
-15.856947,-160.62035
-15.146857,-154.8967
-15.087316,-158.1239
-15.318229,-160.0038
-14.818191,-159.15367
-14.879994,-162.6131
-15.185809,-158.44873
-15.855343,-159.28595
-15.097207,-161.49261
-14.532393,-160.27263
-14.726327,-158.62497
-15.22461,-158.65056
-14.811378,-158.82304
-14.239885,-158.44601
-14.925982,-159.07072
-14.60361,-160.00716
-14.92421,-160.64098
-14.861603,-162.97346
-15.67461,-161.59526
-14.728504,-158.6613
-15.409817,-158.16676
-14.673503,-156.0416
-15.196371,-158.71959
-14.977484,-161.85103
-15.196071,-160.34683
-14.649193,-160.75052
-14.670699,-160.06516
-15.239492,-158.68164
-14.748345,-158.29515
-15.247369,-157.41408
-15.001723,-158.6414
-14.691687,-158.62111
-14.890722,-152.56842
-14.574854,-159.49153
-15.018166,-159.94057
-15.38489,-157.16046
-15.377035,-158.91742
-14.584885,-159.73927
-15.757301,-157.09393
-14.760594,-159.12772
-14.895203,-154.71811
-14.945641,-160.66299
-14.921076,-156.93884
-14.843704,-157.70715
-14.636079,-159.51431
-15.106321,-160.32642
-15.097836,-160.89583
-15.147457,-157.52005
-14.760561,-158.08273
-14.795106,-160.80399
-15.113327,-160.15366
-15.157287,-159.47633
-14.380689,-156.78981
-15.099033,-160.26669
-14.798813,-157.59792
-14.644796,-156.3093
-14.678432,-158.64278
-15.256939,-157.46539
-15.100087,-155.82889
-14.447494,-159.55484
-15.424386,-164.71701
-14.950873,-158.64996
-15.252938,-159.36655
-14.977636,-156.75861
-15.06526,-159.14517
-15.208644,-160.70001
-15.340408,-160.97417
-15.101038,-156.75467
-15.25001,-160.0941
-15.16955,-157.16042
-15.250452,-160.45955
-15.017801,-157.96777
-14.687286,-156.75769
-14.721549,-158.67734
-15.059967,-159.73085
-15.010728,-160.25439
-14.699459,-156.70782
-14.637678,-158.94846
-14.866689,-162.25771
-14.905607,-159.90721
-15.799536,-156.86937
-15.393941,-157.40483
-14.911497,-159.49901
-14.473761,-161.82019
-14.749074,-160.64751
-15.126789,-159.7036
-14.646721,-160.85268
-14.463691,-157.86723
-15.292486,-158.79819
-15.379971,-158.03836
-14.610121,-158.62958
-15.229961,-158.71696
-15.148067,-156.07133
-15.022038,-156.05554
-15.675564,-160.1156
-14.904555,-159.43343
-15.07953,-161.47902
-15.107038,-159.93776
-15.818617,-161.1302
-15.442631,-159.05038
-15.029014,-160.14185
-15.328143,-162.03264
-15.057786,-157.34543
-14.919719,-159.84335
-14.877161,-162.56783
-15.158076,-157.7856
-15.466789,-161.17424
-14.739732,-158.17293
-15.053228,-159.65886
-15.677419,-158.85234
-14.722414,-160.64763
-14.550242,-158.39241
-15.044527,-161.36655
-15.076349,-161.11423
-15.082579,-160.26498
-15.035654,-155.57574
-14.684437,-157.52513
-15.347692,-159.33971
-14.834536,-159.87186
-15.563178,-157.02257
-14.94318,-157.73741
-14.928112,-158.85893
-15.060306,-160.30493
-14.786704,-161.97925
-15.033966,-158.09688
-15.499739,-157.76663
-14.52009,-158.32208
-15.241374,-157.83752
-15.106896,-162.90805
-15.116546,-160.8678
-15.106421,-161.13626
-15.130291,-161.34235
-15.376692,-158.50945
-14.962633,-161.15282
-15.038765,-160.52844
-14.952119,-157.40392
-15.333338,-158.24049
-15.12178,-154.91586
-14.791615,-160.49609
-14.981133,-159.23665
-15.503506,-158.53751
-15.075292,-159.97803
-14.918868,-159.69044
-15.123266,-159.09595
-15.097168,-160.4995
-15.364483,-159.91089
-15.252447,-158.35133
-14.907249,-158.89264
-15.28253,-159.07272
-15.405542,-159.78578
-14.889013,-159.26605
-15.043951,-156.35011
-14.915498,-160.51688
-15.493843,-156.57509
-15.157816,-158.96031
-15.122443,-160.91183
-15.048409,-161.00812
-14.958716,-159.21539
-15.186035,-159.02957
-14.693806,-157.28627
-15.644088,-157.63847
-14.998118,-160.32758
-14.975478,-161.81563
-15.138246,-160.10754
-15.371242,-159.86226
-15.090557,-159.23175
-15.196558,-155.90009
-15.112173,-159.50307
-14.506267,-160.05099
-14.929979,-159.23105
-14.867273,-158.14972
-15.057467,-157.89941
-14.779463,-163.97581
-15.098927,-159.80301
-14.970654,-156.14076
-15.108277,-161.16818
-15.001567,-160.00969
-14.992354,-158.06743
-14.693018,-159.82829
-15.159634,-158.25204
-15.285584,-158.77811
-14.890447,-160.41422
-15.102899,-158.755
-15.179149,-159.21786
-14.933894,-162.09215
-15.316479,-159.59799
-14.703756,-157.87804
-15.138555,-159.5495
-15.206223,-160.08194
-15.024842,-159.81369
-15.090953,-161.26262
-15.194942,-157.33534
-14.967744,-159.45782
-15.292547,-161.51279
-14.927408,-159.02345
-15.159603,-157.80754
-14.57075,-158.30708
-15.172836,-156.74274
-15.108248,-158.2016
-15.214274,-158.86966
-14.888907,-160.10893
-15.017462,-159.99712
-14.561465,-158.60855
-14.856188,-158.26279
-14.931532,-157.26088
-15.30815,-160.48976
-15.159565,-156.64215
-15.200954,-158.70343
-15.05646,-159.58801
-15.207225,-159.73758
-15.190263,-160.13495
-14.783374,-159.70573
-14.97041,-157.88428
-14.528991,-159.31502
-14.946404,-156.05106
-15.064585,-158.82556
-14.952415,-158.08592
-15.25273,-160.39854
-14.742819,-158.4045
-15.201897,-156.44536
-15.001252,-158.92126
-15.191798,-160.99634
-14.898587,-158.67747
-14.771822,-159.49835
-15.281235,-158.64996
-15.247169,-159.42354
-14.774294,-159.92311
-14.829479,-160.06454
-15.02018,-158.48642
-15.170641,-158.35483
-14.818782,-159.92831
-15.151086,-160.10194
-14.999636,-158.90228
-15.089831,-158.99614
-15.215509,-158.14961
-15.411846,-157.94551
-14.907468,-162.0172
-14.980447,-158.59639
-14.697595,-161.09705
-15.419676,-162.3257
-14.88308,-161.03876
-15.396182,-158.29576
-15.165845,-159.31625
-15.074424,-161.35399
-15.09282,-158.12524
-15.263388,-159.48314
-14.832765,-160.94577
-15.249492,-158.50592
-15.194387,-159.15265
-15.15256,-158.93427
-15.127891,-156.9563
-15.140306,-158.82425
-15.218601,-158.40755
-14.644363,-162.34631
-14.939677,-158.94891
-15.277544,-157.16312
-14.918731,-159.30106
-15.292848,-159.80684
-15.042518,-159.22888
-14.971728,-160.15134
-15.301125,-157.75557
-14.829798,-158.80605
-14.86214,-157.41068
-15.283065,-159.6259
-15.290668,-156.97075
-15.044904,-158.76013
-15.204267,-157.95863
-14.941498,-161.64633
-14.912779,-158.341
-15.161824,-159.39052
-15.452613,-157.85851
-14.829683,-159.32716
-14.964192,-159.29955
-15.218206,-159.83176
-14.897341,-160.09241
-14.793843,-157.89172
-14.897338,-157.08401
-15.178545,-159.87856
-14.932895,-160.46629
-14.824006,-158.1496
-15.441772,-156.19878
-15.265739,-159.03496
-14.947597,-158.99263
-15.117987,-159.73936
-14.961437,-156.18324
-14.930169,-161.38591
-15.273975,-159.11279
-14.976276,-159.74721
-14.9346,-157.44032
-15.046054,-160.1227
-15.327401,-157.90614
-15.128826,-159.8378
-14.848702,-157.38892
-15.230667,-159.44171
-15.324895,-160.10408
-14.882123,-159.22623
-15.109066,-158.34888
-14.966283,-157.14923
-15.051049,-160.15846
-15.20342,-160.5235
-15.45819,-159.08784
-14.86137,-158.70862
-15.146098,-156.83823
-15.135872,-161.36397
-14.954329,-160.18959
-15.046582,-157.89001
-14.8545,-159.33867
-15.061682,-158.19775
-14.995247,-157.92305
-15.012669,-159.31853
-15.00129,-159.37395
-14.961412,-157.97525
-15.150146,-158.79932
-15.014997,-161.28041
-15.141484,-158.98099
-15.049601,-156.9151
-15.22827,-160.38792
-15.042525,-160.68178
-15.073262,-157.95424
-15.213709,-158.24429
-15.170242,-155.72246
-15.188232,-159.21121
-14.978937,-159.19218
-15.121581,-158.68636
-14.918046,-158.06256
-15.158223,-158.10988
-15.22232,-158.56589
-14.97208,-159.91531
-15.24612,-158.47932
-14.726444,-158.5627
-15.09809,-161.17616
-14.948003,-157.46085
-15.003927,-158.26431
-15.03407,-156.69402
-15.039983,-158.89577
-14.735991,-160.34781
-14.937869,-157.34749
-15.407459,-160.26486
-14.92856,-161.27956
-14.873604,-157.13495
-14.840931,-157.74155
-15.152875,-159.41179
-15.11947,-159.32178
-15.0729,-157.8604
-15.040075,-159.95967
-15.205716,-158.17516
-15.230894,-159.96266
-14.858945,-159.69505
-15.341621,-160.22595
-14.820356,-160.61203
-15.0442,-157.36606
-15.108775,-157.76372
-15.095606,-158.91052
-15.221737,-159.43317
-14.776883,-159.12137
-15.103769,-157.91301
-14.779701,-157.53755
-15.043793,-158.43857
-15.147668,-159.36743
-14.923554,-158.83461
-14.887497,-158.13036
-15.062943,-159.35883
-15.031701,-159.15688
-14.950874,-160.05528
-15.053375,-158.43727
-15.438926,-160.12189
-14.787736,-157.10275
-15.077855,-158.21945
-14.895973,-159.26849
-15.116293,-159.5242
-15.010272,-158.51903
-15.142281,-159.05682
-15.005303,-160.66797
-15.059036,-157.08684
-14.990057,-159.37149
-15.168788,-159.14676
-15.060778,-158.5873
-15.106156,-160.00009
-15.148932,-160.20143
-14.96805,-158.51595
-15.180609,-159.95848
-14.9049,-158.09279
-15.341663,-159.09081
-14.946327,-160.50565
-15.097182,-161.49117
-15.09061,-157.1756
-15.273808,-158.8934
-15.394814,-160.08401
-15.143591,-159.45244
-15.059902,-160.08173
-14.95218,-158.9761
-14.902011,-158.87166
-15.020644,-159.54611
-15.134937,-157.72705
-14.99902,-159.27776
-15.00591,-159.98126
-14.904697,-159.00595
-15.0086,-158.65297
-15.260853,-158.70114
-14.931676,-160.58694
-14.990921,-159.09134
-15.12075,-158.95348
-15.076158,-158.34764
-15.222337,-159.55923
-15.042538,-158.72638
-15.065336,-158.98415
-15.131115,-158.1507
-15.077209,-157.85147
-15.181993,-158.84407
-15.05925,-160.00244
-15.01727,-157.71327
-14.922669,-159.22069
-15.107333,-158.73592
-14.928452,-160.17027
-15.057356,-158.45763
-14.985066,-158.89835
-14.877754,-157.42348
-14.875786,-159.71797
-15.078435,-158.0341
-14.85047,-158.50943
-14.875907,-158.9268
-14.977251,-158.13722
-15.058189,-158.12679
-14.945699,-159.99451
-14.893823,-158.22473
-15.199777,-157.83838
-15.038917,-158.88301
-15.12759,-159.28299
-15.185327,-159.83005
-15.141226,-157.93651
-15.141761,-158.87569
-15.106649,-159.38805
-15.11863,-158.99567
-15.032149,-158.32561
-15.197143,-157.77306
-14.991738,-158.77222
-15.007487,-158.69144
-15.017631,-160.25662
-15.183422,-159.49876
-14.850184,-158.0058
-14.927397,-159.65399
-15.023623,-159.6752
-15.206666,-158.57263
-15.091818,-159.1172
-14.934589,-159.20828
-15.004216,-158.26791
-14.995388,-159.78374
-14.873862,-158.84392
-15.050298,-158.02902
-14.923643,-157.99297
-15.112882,-158.71919
-15.07063,-159.65997
-15.170366,-157.80481
-15.076678,-158.07475
-15.103959,-158.63327
-14.900267,-158.15681
-14.899805,-159.64188
-14.822157,-159.60185
-14.947895,-158.77489
-14.99428,-159.82448
-14.975097,-158.34344
-14.933973,-157.87456
-15.21012,-158.70525
-14.999709,-159.40674
-15.056744,-158.20778
-15.030296,-159.85013
-15.08217,-159.34644
-14.965534,-158.91304
-14.987607,-159.52341
-15.224224,-159.37541
-15.128613,-158.32091
-14.911256,-158.69269
-15.019202,-159.08885
-15.020244,-159.05525
-15.020976,-158.5154
-14.934055,-158.81589
-15.124203,-160.02745
-15.111054,-159.39618
-14.941955,-158.14833
-15.11002,-160.01981
-15.050099,-159.69542
-14.949322,-159.54858
-15.011453,-159.08669
-15.081506,-159.71252
-15.182093,-158.57433
-15.073875,-159.84584
-15.194656,-158.7925
-15.01722,-160.21497
-14.936392,-158.98601
-15.080377,-159.05084
-15.102998,-159.31384
-15.027126,-159.2847
-15.076524,-158.48747
-14.99474,-159.10265
-15.145168,-158.87997
