CITIFILE A.01.01
!Agilent Technologies,N5230C,MY48100142,A.08.04.10
!Agilent N5230C: A.08.04.10
!Format: LogMag/Angle
!Date: Friday, August 14, 2020 13:42:51
NAME CH1_DATA
VAR Power MAG 801
DATA S11 DBANGLE
DATA S21 DBANGLE
DATA S12 DBANGLE
DATA S22 DBANGLE
VAR_LIST_BEGIN
-40
-39.975
-39.95
-39.925
-39.9
-39.875
-39.85
-39.825
-39.8
-39.775
-39.75
-39.725
-39.7
-39.675
-39.65
-39.625
-39.6
-39.575
-39.55
-39.525
-39.5
-39.475
-39.45
-39.425
-39.4
-39.375
-39.35
-39.325
-39.3
-39.275
-39.25
-39.225
-39.2
-39.175
-39.15
-39.125
-39.1
-39.075
-39.05
-39.025
-39
-38.975
-38.95
-38.925
-38.9
-38.875
-38.85
-38.825
-38.8
-38.775
-38.75
-38.725
-38.7
-38.675
-38.65
-38.625
-38.6
-38.575
-38.55
-38.525
-38.5
-38.475
-38.45
-38.425
-38.4
-38.375
-38.35
-38.325
-38.3
-38.275
-38.25
-38.225
-38.2
-38.175
-38.15
-38.125
-38.1
-38.075
-38.05
-38.025
-38
-37.975
-37.95
-37.925
-37.9
-37.875
-37.85
-37.825
-37.8
-37.775
-37.75
-37.725
-37.7
-37.675
-37.65
-37.625
-37.6
-37.575
-37.55
-37.525
-37.5
-37.475
-37.45
-37.425
-37.4
-37.375
-37.35
-37.325
-37.3
-37.275
-37.25
-37.225
-37.2
-37.175
-37.15
-37.125
-37.1
-37.075
-37.05
-37.025
-37
-36.975
-36.95
-36.925
-36.9
-36.875
-36.85
-36.825
-36.8
-36.775
-36.75
-36.725
-36.7
-36.675
-36.65
-36.625
-36.6
-36.575
-36.55
-36.525
-36.5
-36.475
-36.45
-36.425
-36.4
-36.375
-36.35
-36.325
-36.3
-36.275
-36.25
-36.225
-36.2
-36.175
-36.15
-36.125
-36.1
-36.075
-36.05
-36.025
-36
-35.975
-35.95
-35.925
-35.9
-35.875
-35.85
-35.825
-35.8
-35.775
-35.75
-35.725
-35.7
-35.675
-35.65
-35.625
-35.6
-35.575
-35.55
-35.525
-35.5
-35.475
-35.45
-35.425
-35.4
-35.375
-35.35
-35.325
-35.3
-35.275
-35.25
-35.225
-35.2
-35.175
-35.15
-35.125
-35.1
-35.075
-35.05
-35.025
-35
-34.975
-34.95
-34.925
-34.9
-34.875
-34.85
-34.825
-34.8
-34.775
-34.75
-34.725
-34.7
-34.675
-34.65
-34.625
-34.6
-34.575
-34.55
-34.525
-34.5
-34.475
-34.45
-34.425
-34.4
-34.375
-34.35
-34.325
-34.3
-34.275
-34.25
-34.225
-34.2
-34.175
-34.15
-34.125
-34.1
-34.075
-34.05
-34.025
-34
-33.975
-33.95
-33.925
-33.9
-33.875
-33.85
-33.825
-33.8
-33.775
-33.75
-33.725
-33.7
-33.675
-33.65
-33.625
-33.6
-33.575
-33.55
-33.525
-33.5
-33.475
-33.45
-33.425
-33.4
-33.375
-33.35
-33.325
-33.3
-33.275
-33.25
-33.225
-33.2
-33.175
-33.15
-33.125
-33.1
-33.075
-33.05
-33.025
-33
-32.975
-32.95
-32.925
-32.9
-32.875
-32.85
-32.825
-32.8
-32.775
-32.75
-32.725
-32.7
-32.675
-32.65
-32.625
-32.6
-32.575
-32.55
-32.525
-32.5
-32.475
-32.45
-32.425
-32.4
-32.375
-32.35
-32.325
-32.3
-32.275
-32.25
-32.225
-32.2
-32.175
-32.15
-32.125
-32.1
-32.075
-32.05
-32.025
-32
-31.975
-31.95
-31.925
-31.9
-31.875
-31.85
-31.825
-31.8
-31.775
-31.75
-31.725
-31.7
-31.675
-31.65
-31.625
-31.6
-31.575
-31.55
-31.525
-31.5
-31.475
-31.45
-31.425
-31.4
-31.375
-31.35
-31.325
-31.3
-31.275
-31.25
-31.225
-31.2
-31.175
-31.15
-31.125
-31.1
-31.075
-31.05
-31.025
-31
-30.975
-30.95
-30.925
-30.9
-30.875
-30.85
-30.825
-30.8
-30.775
-30.75
-30.725
-30.7
-30.675
-30.65
-30.625
-30.6
-30.575
-30.55
-30.525
-30.5
-30.475
-30.45
-30.425
-30.4
-30.375
-30.35
-30.325
-30.3
-30.275
-30.25
-30.225
-30.2
-30.175
-30.15
-30.125
-30.1
-30.075
-30.05
-30.025
-30
-29.975
-29.95
-29.925
-29.9
-29.875
-29.85
-29.825
-29.8
-29.775
-29.75
-29.725
-29.7
-29.675
-29.65
-29.625
-29.6
-29.575
-29.55
-29.525
-29.5
-29.475
-29.45
-29.425
-29.4
-29.375
-29.35
-29.325
-29.3
-29.275
-29.25
-29.225
-29.2
-29.175
-29.15
-29.125
-29.1
-29.075
-29.05
-29.025
-29
-28.975
-28.95
-28.925
-28.9
-28.875
-28.85
-28.825
-28.8
-28.775
-28.75
-28.725
-28.7
-28.675
-28.65
-28.625
-28.6
-28.575
-28.55
-28.525
-28.5
-28.475
-28.45
-28.425
-28.4
-28.375
-28.35
-28.325
-28.3
-28.275
-28.25
-28.225
-28.2
-28.175
-28.15
-28.125
-28.1
-28.075
-28.05
-28.025
-28
-27.975
-27.95
-27.925
-27.9
-27.875
-27.85
-27.825
-27.8
-27.775
-27.75
-27.725
-27.7
-27.675
-27.65
-27.625
-27.6
-27.575
-27.55
-27.525
-27.5
-27.475
-27.45
-27.425
-27.4
-27.375
-27.35
-27.325
-27.3
-27.275
-27.25
-27.225
-27.2
-27.175
-27.15
-27.125
-27.1
-27.075
-27.05
-27.025
-27
-26.975
-26.95
-26.925
-26.9
-26.875
-26.85
-26.825
-26.8
-26.775
-26.75
-26.725
-26.7
-26.675
-26.65
-26.625
-26.6
-26.575
-26.55
-26.525
-26.5
-26.475
-26.45
-26.425
-26.4
-26.375
-26.35
-26.325
-26.3
-26.275
-26.25
-26.225
-26.2
-26.175
-26.15
-26.125
-26.1
-26.075
-26.05
-26.025
-26
-25.975
-25.95
-25.925
-25.9
-25.875
-25.85
-25.825
-25.8
-25.775
-25.75
-25.725
-25.7
-25.675
-25.65
-25.625
-25.6
-25.575
-25.55
-25.525
-25.5
-25.475
-25.45
-25.425
-25.4
-25.375
-25.35
-25.325
-25.3
-25.275
-25.25
-25.225
-25.2
-25.175
-25.15
-25.125
-25.1
-25.075
-25.05
-25.025
-25
-24.975
-24.95
-24.925
-24.9
-24.875
-24.85
-24.825
-24.8
-24.775
-24.75
-24.725
-24.7
-24.675
-24.65
-24.625
-24.6
-24.575
-24.55
-24.525
-24.5
-24.475
-24.45
-24.425
-24.4
-24.375
-24.35
-24.325
-24.3
-24.275
-24.25
-24.225
-24.2
-24.175
-24.15
-24.125
-24.1
-24.075
-24.05
-24.025
-24
-23.975
-23.95
-23.925
-23.9
-23.875
-23.85
-23.825
-23.8
-23.775
-23.75
-23.725
-23.7
-23.675
-23.65
-23.625
-23.6
-23.575
-23.55
-23.525
-23.5
-23.475
-23.45
-23.425
-23.4
-23.375
-23.35
-23.325
-23.3
-23.275
-23.25
-23.225
-23.2
-23.175
-23.15
-23.125
-23.1
-23.075
-23.05
-23.025
-23
-22.975
-22.95
-22.925
-22.9
-22.875
-22.85
-22.825
-22.8
-22.775
-22.75
-22.725
-22.7
-22.675
-22.65
-22.625
-22.6
-22.575
-22.55
-22.525
-22.5
-22.475
-22.45
-22.425
-22.4
-22.375
-22.35
-22.325
-22.3
-22.275
-22.25
-22.225
-22.2
-22.175
-22.15
-22.125
-22.1
-22.075
-22.05
-22.025
-22
-21.975
-21.95
-21.925
-21.9
-21.875
-21.85
-21.825
-21.8
-21.775
-21.75
-21.725
-21.7
-21.675
-21.65
-21.625
-21.6
-21.575
-21.55
-21.525
-21.5
-21.475
-21.45
-21.425
-21.4
-21.375
-21.35
-21.325
-21.3
-21.275
-21.25
-21.225
-21.2
-21.175
-21.15
-21.125
-21.1
-21.075
-21.05
-21.025
-21
-20.975
-20.95
-20.925
-20.9
-20.875
-20.85
-20.825
-20.8
-20.775
-20.75
-20.725
-20.7
-20.675
-20.65
-20.625
-20.6
-20.575
-20.55
-20.525
-20.5
-20.475
-20.45
-20.425
-20.4
-20.375
-20.35
-20.325
-20.3
-20.275
-20.25
-20.225
-20.2
-20.175
-20.15
-20.125
-20.1
-20.075
-20.05
-20.025
-20
VAR_LIST_END
BEGIN
-14.770097,-157.06653
-14.665342,-160.70253
-14.450274,-156.13196
-14.192004,-158.07219
-15.125237,-154.88658
-14.612846,-161.32242
-14.823726,-161.26219
-15.000847,-161.08556
-15.845208,-160.45712
-15.191107,-154.19893
-15.403845,-160.59947
-15.188777,-163.38777
-14.70008,-157.16986
-15.157867,-161.45378
-14.710864,-155.99731
-15.845202,-159.13336
-15.046657,-155.87325
-14.880438,-156.84648
-15.050227,-158.04079
-15.351863,-160.07416
-14.615715,-157.53453
-15.328293,-159.15594
-14.95441,-159.28801
-15.253394,-163.42625
-15.470573,-153.50446
-14.814324,-160.01895
-14.935383,-160.6297
-14.425162,-163.40602
-15.664632,-158.36682
-14.745923,-158.54169
-14.964268,-161.4164
-15.029093,-152.5394
-14.882296,-154.37039
-15.194036,-160.57265
-14.860372,-162.63489
-15.313375,-157.14189
-15.026591,-154.82669
-15.003098,-157.42126
-15.366006,-160.65572
-15.056431,-155.96393
-14.562618,-154.94516
-15.438609,-158.95021
-14.017002,-154.83557
-14.519097,-155.99895
-14.996083,-157.36609
-15.820207,-157.87131
-14.857665,-156.68684
-14.955301,-160.936
-15.678665,-158.96292
-15.388076,-156.35803
-15.694065,-156.89456
-15.126318,-155.89197
-15.509964,-160.59396
-15.463324,-156.15645
-15.7699,-156.6911
-14.969168,-159.12151
-15.805882,-157.53169
-15.311316,-156.37457
-16.023186,-158.97427
-14.891994,-155.60315
-14.489221,-159.86549
-16.176477,-157.22249
-15.01693,-154.49815
-14.9031,-157.1812
-15.316954,-159.45703
-15.105656,-157.11836
-15.102345,-157.3925
-14.633303,-163.4921
-15.259017,-156.70062
-14.769407,-156.7827
-15.078694,-160.31151
-14.644845,-162.30475
-14.933111,-158.05684
-15.181973,-156.37985
-14.608336,-160.2426
-14.744024,-162.4325
-14.950391,-157.0649
-15.480802,-163.26634
-14.792601,-157.09575
-15.126303,-155.54886
-15.719511,-159.41869
-15.93037,-159.90314
-14.874744,-162.32065
-15.560242,-156.86078
-14.813413,-156.63817
-15.548368,-161.58623
-15.459586,-158.13539
-15.200988,-162.30377
-15.121164,-156.99355
-15.318366,-154.78966
-14.738757,-158.98242
-15.499294,-159.24626
-14.483096,-161.06728
-14.761668,-158.66077
-14.955895,-156.64378
-15.498005,-156.59578
-15.119246,-159.30838
-14.620507,-161.07124
-14.752387,-160.90599
-15.047572,-159.58823
-14.928136,-153.26833
-14.155857,-156.79488
-15.232648,-160.69691
-15.116327,-158.49606
-14.902809,-159.91272
-14.962941,-155.51285
-14.974324,-156.95227
-15.162401,-159.89902
-15.625906,-159.44341
-14.989264,-160.17577
-15.106169,-157.3416
-14.886613,-158.07704
-15.238009,-156.86394
-15.638547,-158.69473
-15.370078,-163.04071
-15.361613,-157.88838
-15.163916,-160.31346
-15.000311,-161.79672
-14.762388,-155.25218
-14.984246,-161.12422
-14.921019,-158.88249
-15.079743,-158.78662
-15.481057,-156.9897
-14.715276,-157.04167
-15.394322,-159.67937
-15.320618,-159.84364
-14.514639,-157.19421
-14.665511,-158.47389
-14.887429,-157.94626
-15.163074,-162.83128
-15.300533,-157.799
-14.946904,-159.34145
-14.788595,-159.46317
-14.98111,-159.67743
-15.367269,-160.19434
-15.424851,-162.26103
-15.504429,-160.99414
-14.532056,-158.48384
-15.277843,-155.16431
-14.975629,-158.54303
-15.218524,-156.91872
-15.205095,-162.74092
-15.008597,-159.10657
-14.511149,-160.21669
-15.88277,-157.19522
-14.715415,-159.60663
-15.179088,-159.42311
-15.165306,-158.86148
-14.873817,-157.64142
-14.87893,-158.28307
-15.584169,-156.48886
-15.582014,-156.13106
-15.197097,-156.8801
-14.69125,-159.16258
-15.050544,-158.22716
-15.015214,-154.97276
-15.195223,-160.16258
-15.251318,-155.05528
-15.503386,-158.621
-14.806606,-157.29831
-14.96399,-157.4585
-14.865932,-160.95209
-15.490181,-157.4547
-14.727245,-160.74017
-15.009853,-160.13535
-15.110498,-158.16089
-15.015051,-160.39915
-15.627486,-156.43546
-15.112001,-157.99248
-15.025259,-158.03909
-14.87391,-162.87422
-14.934952,-157.8504
-14.872833,-158.00206
-15.4207,-159.47295
-14.49304,-161.3255
-15.666828,-161.77193
-15.238894,-159.8717
-14.672137,-158.125
-14.934572,-157.90955
-14.912498,-158.2448
-15.239889,-156.44539
-14.637753,-160.81416
-14.975394,-159.87971
-14.720781,-159.26807
-15.318116,-163.0827
-15.046368,-158.4734
-14.796274,-157.3947
-15.007632,-158.86354
-15.429312,-156.27032
-14.906421,-156.83134
-15.338566,-160.39784
-15.150459,-159.43202
-14.891154,-159.0368
-15.110077,-155.37892
-14.979648,-159.40097
-14.837474,-156.56122
-15.180586,-158.48036
-15.354903,-159.76144
-15.041474,-161.65897
-15.049686,-156.1445
-14.912225,-158.78786
-14.827048,-158.41756
-14.903107,-157.49873
-14.774712,-159.64935
-14.929065,-158.22699
-15.336133,-158.17964
-14.73623,-159.64778
-15.046833,-158.81161
-14.809166,-157.05937
-14.63206,-158.09651
-15.071521,-159.03462
-14.725661,-158.39359
-14.956779,-157.47099
-15.013217,-158.19263
-14.835425,-159.26663
-14.82825,-158.86859
-14.955354,-157.31448
-14.898486,-157.05894
-14.969922,-154.5788
-14.929438,-159.13782
-15.183615,-157.72508
-14.757128,-161.50911
-15.170167,-160.37424
-14.979766,-160.05577
-15.014908,-157.5419
-14.95979,-161.0867
-15.279466,-160.14734
-15.429844,-159.30916
-15.040579,-159.3175
-15.153911,-160.16858
-14.797764,-156.70557
-15.144152,-159.27493
-14.788515,-157.43002
-15.345418,-158.75613
-15.069125,-162.85022
-15.33769,-157.43663
-15.201384,-157.57178
-14.813449,-160.08032
-14.975395,-158.61053
-14.844088,-159.79095
-14.743531,-156.66872
-14.803843,-158.70749
-15.156345,-158.24539
-15.080922,-158.55261
-15.148881,-160.71411
-14.590441,-156.51913
-15.104606,-158.25665
-15.124865,-159.08255
-14.988766,-158.97003
-15.166829,-161.75008
-14.967477,-158.28412
-14.943167,-156.91039
-15.093554,-158.64633
-15.020252,-159.52948
-14.797594,-158.97545
-14.910449,-158.86349
-15.303516,-157.32994
-15.040275,-157.89697
-15.074674,-160.54654
-15.222397,-157.06085
-15.313244,-156.38286
-15.246752,-160.02557
-14.908384,-159.08058
-15.149294,-158.92064
-15.240565,-156.79605
-15.178493,-159.91757
-15.231548,-158.46968
-15.014811,-158.3492
-15.513713,-156.63879
-14.788856,-160.77016
-15.044033,-158.86426
-14.741356,-158.38284
-14.86447,-159.49382
-15.376266,-159.42876
-15.07153,-159.51997
-14.988215,-159.18709
-15.130248,-157.24664
-15.254966,-161.11046
-14.699697,-157.66408
-14.81672,-157.06256
-15.199014,-158.87143
-14.966638,-159.73923
-14.647243,-160.43213
-15.211141,-160.32449
-15.287066,-157.76564
-14.70095,-158.98302
-14.755626,-155.71924
-14.887909,-162.30598
-15.113493,-156.23181
-15.063387,-159.25531
-15.171631,-158.35767
-14.713622,-158.38428
-15.365019,-158.76625
-15.212851,-160.37209
-15.328012,-158.34732
-15.022001,-159.2583
-15.40632,-158.15877
-14.878608,-158.71526
-15.18651,-159.05063
-14.900835,-157.55716
-14.938324,-159.06848
-15.272657,-159.90924
-15.207254,-158.60625
-15.070807,-158.13031
-15.039729,-158.95152
-14.823144,-158.84514
-15.064234,-159.98874
-14.850132,-159.31561
-15.200076,-160.02742
-15.069064,-158.95004
-14.940505,-158.48965
-15.427848,-159.85501
-15.280025,-160.01746
-14.940269,-157.26036
-14.960805,-159.31824
-14.724799,-158.862
-15.319953,-157.2814
-14.762729,-159.4362
-15.044609,-158.63737
-14.819195,-160.5899
-15.35941,-155.90669
-15.073171,-161.75322
-14.854424,-160.44524
-15.119989,-158.83746
-15.126404,-159.81094
-14.906857,-158.41144
-15.096582,-157.92834
-14.951536,-159.19809
-14.785907,-159.96704
-14.860608,-159.61885
-15.014503,-158.75768
-14.885295,-158.57568
-15.06249,-161.00156
-15.167805,-158.52023
-14.806499,-160.00803
-14.796306,-160.17947
-14.709682,-159.65147
-14.746126,-160.53731
-15.090105,-158.80721
-15.248398,-158.60573
-15.353937,-157.83849
-14.824343,-159.36169
-14.944139,-158.75085
-15.082903,-157.011
-14.845133,-160.51056
-14.962979,-157.90446
-15.087097,-161.00974
-15.05475,-159.01683
-14.749515,-159.68811
-15.152585,-156.39073
-14.805156,-160.15434
-14.940584,-159.1586
-14.992622,-157.24956
-14.782495,-157.42108
-15.07685,-160.76572
-15.210428,-161.67821
-15.034657,-159.07471
-14.867084,-158.49014
-15.132109,-159.98169
-15.023486,-159.98009
-14.797861,-158.8419
-14.929128,-160.54991
-14.986656,-160.2001
-15.257623,-159.08263
-14.753534,-159.18747
-15.465395,-157.71098
-14.81014,-160.39746
-15.006344,-157.74149
-14.807837,-159.91933
-15.141918,-157.61867
-15.243202,-158.91995
-15.157633,-157.51277
-14.806265,-158.55771
-15.137445,-159.70346
-14.845275,-160.56859
-14.80372,-158.25589
-14.999322,-159.33093
-14.892158,-157.53265
-15.270537,-160.2375
-15.051307,-159.9115
-14.978527,-159.30606
-15.206299,-159.54208
-14.720908,-160.73827
-15.11533,-158.41667
-15.103546,-156.42952
-15.169175,-159.88687
-15.045601,-159.6752
-15.009623,-159.90012
-14.733041,-159.57401
-15.098696,-157.87424
-14.89193,-160.58653
-15.329771,-158.72375
-14.921345,-158.05305
-14.933706,-158.10593
-14.865835,-159.71379
-14.988635,-160.80103
-14.944564,-158.67506
-14.960187,-156.46959
-14.722296,-158.63318
-14.998179,-157.97787
-15.301519,-159.18982
-14.938913,-157.63834
-15.065232,-159.11871
-15.133615,-161.59532
-15.02364,-158.43272
-15.152096,-157.467
-15.086107,-157.88417
-14.99972,-159.86157
-15.089482,-158.98277
-15.155802,-160.24637
-15.090267,-158.45552
-15.098031,-157.00742
-14.992307,-156.91017
-15.22297,-158.49239
-15.042192,-159.44034
-15.243443,-159.59428
-14.93868,-159.86031
-15.127028,-160.00327
-15.134566,-156.76781
-15.025487,-158.29584
-15.19243,-158.08095
-15.059888,-157.80832
-15.079848,-158.49248
-15.011745,-160.07985
-14.817431,-157.84477
-15.231333,-159.96472
-15.279413,-159.66768
-15.376901,-159.4839
-14.988585,-156.93007
-14.90694,-158.34882
-14.930098,-160.29684
-14.979106,-159.06985
-14.820248,-157.46582
-15.108282,-157.81464
-14.773293,-158.60834
-15.064345,-157.62685
-15.053186,-159.27739
-15.000512,-159.4968
-15.013422,-159.78516
-14.8469,-159.13289
-14.956608,-157.52382
-15.190134,-159.4556
-15.212582,-158.26372
-14.916643,-158.73744
-14.904078,-159.05708
-15.045588,-159.3127
-15.197831,-160.02551
-15.097678,-158.95425
-15.078525,-157.80147
-15.043154,-160.44229
-15.325076,-159.45979
-15.186476,-158.92743
-14.982654,-159.01309
-15.031302,-158.22346
-14.938298,-159.22812
-14.880808,-158.78094
-15.080605,-159.39862
-14.951335,-158.33031
-14.967169,-159.36496
-15.102671,-159.19415
-14.950553,-158.36206
-15.024572,-158.17285
-14.989845,-160.05885
-14.935985,-159.3989
-14.863952,-159.63469
-15.173158,-160.35367
-15.219381,-158.77399
-14.97664,-158.77992
-14.9775,-159.32945
-15.130991,-160.11824
-14.98903,-158.35352
-14.962605,-158.47691
-15.148197,-159.65395
-14.820332,-158.5529
-14.918764,-156.78203
-15.129885,-159.64194
-15.221807,-159.59798
-15.032384,-159.05165
-15.033201,-158.23018
-15.008142,-159.15881
-15.061247,-159.96758
-15.185974,-160.36099
-15.000994,-157.07494
-15.048853,-159.466
-14.894504,-158.73532
-15.192066,-158.02025
-15.284896,-157.22885
-14.963018,-159.88631
-15.045008,-157.38084
-14.992995,-159.92485
-14.991341,-159.04092
-15.083405,-158.12787
-15.123635,-157.30154
-15.084694,-158.99281
-15.080504,-158.0509
-15.06881,-159.56093
-15.003408,-157.96385
-15.17646,-158.46155
-15.116349,-157.85489
-15.093341,-159.16031
-15.001684,-160.18277
-14.960556,-159.16202
-15.085665,-157.64691
-15.035031,-159.77072
-15.072387,-159.49173
-14.954129,-160.08519
-15.05285,-159.43741
-15.072589,-158.90662
-14.959494,-159.87523
-15.196875,-159.78827
-14.966963,-159.45644
-15.127731,-158.38292
-15.152921,-160.62238
-15.110656,-159.2247
-15.188391,-158.83621
-15.236062,-158.00233
-15.047892,-159.39217
-15.098602,-158.48738
-15.291324,-158.91693
-14.922325,-158.57155
-15.165099,-159.28584
-15.069566,-159.05212
-15.047648,-159.42769
-14.897454,-158.43268
-14.929829,-159.26073
-14.942605,-158.35306
-15.171136,-159.26749
-14.949579,-158.45117
-14.999228,-158.69432
-15.037333,-159.13602
-15.109183,-158.40886
-15.052475,-159.93008
-15.052946,-158.78818
-15.089826,-159.9767
-15.084201,-158.24791
-15.085315,-158.08342
-15.027362,-159.3801
-14.846308,-159.18874
-14.827033,-158.95119
-14.901562,-159.67366
-15.015724,-159.12177
-15.064262,-159.98409
-15.139516,-158.63498
-14.917719,-159.21275
-14.998368,-158.46716
-15.057327,-159.27409
-14.961647,-159.45465
-15.175421,-157.90401
-15.156558,-158.87408
-15.030448,-159.11589
-15.071542,-158.04396
-14.997354,-158.49895
-15.115335,-159.61835
-14.999019,-159.00525
-15.138308,-158.67851
-15.085049,-158.13994
-15.026662,-160.07764
-15.093221,-159.66925
-15.071725,-158.60931
-15.044262,-160.24471
-14.954023,-158.89883
-15.07521,-158.87383
-14.964721,-158.68338
-15.101691,-156.85681
-15.185815,-159.82574
-15.117367,-159.45789
-15.014859,-158.76198
-15.160645,-159.24585
-15.152044,-158.79971
-15.250548,-158.5311
-15.036656,-158.58791
-14.935369,-158.95654
-15.105734,-159.00557
-15.03933,-159.09171
-14.914759,-158.57805
-15.028483,-158.44836
