CITIFILE A.01.01
!Agilent Technologies,N5230C,MY48100142,A.08.04.10
!Agilent N5230C: A.08.04.10
!Format: LogMag/Angle
!Date: Thursday, August 06, 2020 18:05:07
NAME CH1_DATA
VAR Power MAG 801
DATA S11 DBANGLE
DATA S21 DBANGLE
DATA S12 DBANGLE
DATA S22 DBANGLE
VAR_LIST_BEGIN
-40
-39.975
-39.95
-39.925
-39.9
-39.875
-39.85
-39.825
-39.8
-39.775
-39.75
-39.725
-39.7
-39.675
-39.65
-39.625
-39.6
-39.575
-39.55
-39.525
-39.5
-39.475
-39.45
-39.425
-39.4
-39.375
-39.35
-39.325
-39.3
-39.275
-39.25
-39.225
-39.2
-39.175
-39.15
-39.125
-39.1
-39.075
-39.05
-39.025
-39
-38.975
-38.95
-38.925
-38.9
-38.875
-38.85
-38.825
-38.8
-38.775
-38.75
-38.725
-38.7
-38.675
-38.65
-38.625
-38.6
-38.575
-38.55
-38.525
-38.5
-38.475
-38.45
-38.425
-38.4
-38.375
-38.35
-38.325
-38.3
-38.275
-38.25
-38.225
-38.2
-38.175
-38.15
-38.125
-38.1
-38.075
-38.05
-38.025
-38
-37.975
-37.95
-37.925
-37.9
-37.875
-37.85
-37.825
-37.8
-37.775
-37.75
-37.725
-37.7
-37.675
-37.65
-37.625
-37.6
-37.575
-37.55
-37.525
-37.5
-37.475
-37.45
-37.425
-37.4
-37.375
-37.35
-37.325
-37.3
-37.275
-37.25
-37.225
-37.2
-37.175
-37.15
-37.125
-37.1
-37.075
-37.05
-37.025
-37
-36.975
-36.95
-36.925
-36.9
-36.875
-36.85
-36.825
-36.8
-36.775
-36.75
-36.725
-36.7
-36.675
-36.65
-36.625
-36.6
-36.575
-36.55
-36.525
-36.5
-36.475
-36.45
-36.425
-36.4
-36.375
-36.35
-36.325
-36.3
-36.275
-36.25
-36.225
-36.2
-36.175
-36.15
-36.125
-36.1
-36.075
-36.05
-36.025
-36
-35.975
-35.95
-35.925
-35.9
-35.875
-35.85
-35.825
-35.8
-35.775
-35.75
-35.725
-35.7
-35.675
-35.65
-35.625
-35.6
-35.575
-35.55
-35.525
-35.5
-35.475
-35.45
-35.425
-35.4
-35.375
-35.35
-35.325
-35.3
-35.275
-35.25
-35.225
-35.2
-35.175
-35.15
-35.125
-35.1
-35.075
-35.05
-35.025
-35
-34.975
-34.95
-34.925
-34.9
-34.875
-34.85
-34.825
-34.8
-34.775
-34.75
-34.725
-34.7
-34.675
-34.65
-34.625
-34.6
-34.575
-34.55
-34.525
-34.5
-34.475
-34.45
-34.425
-34.4
-34.375
-34.35
-34.325
-34.3
-34.275
-34.25
-34.225
-34.2
-34.175
-34.15
-34.125
-34.1
-34.075
-34.05
-34.025
-34
-33.975
-33.95
-33.925
-33.9
-33.875
-33.85
-33.825
-33.8
-33.775
-33.75
-33.725
-33.7
-33.675
-33.65
-33.625
-33.6
-33.575
-33.55
-33.525
-33.5
-33.475
-33.45
-33.425
-33.4
-33.375
-33.35
-33.325
-33.3
-33.275
-33.25
-33.225
-33.2
-33.175
-33.15
-33.125
-33.1
-33.075
-33.05
-33.025
-33
-32.975
-32.95
-32.925
-32.9
-32.875
-32.85
-32.825
-32.8
-32.775
-32.75
-32.725
-32.7
-32.675
-32.65
-32.625
-32.6
-32.575
-32.55
-32.525
-32.5
-32.475
-32.45
-32.425
-32.4
-32.375
-32.35
-32.325
-32.3
-32.275
-32.25
-32.225
-32.2
-32.175
-32.15
-32.125
-32.1
-32.075
-32.05
-32.025
-32
-31.975
-31.95
-31.925
-31.9
-31.875
-31.85
-31.825
-31.8
-31.775
-31.75
-31.725
-31.7
-31.675
-31.65
-31.625
-31.6
-31.575
-31.55
-31.525
-31.5
-31.475
-31.45
-31.425
-31.4
-31.375
-31.35
-31.325
-31.3
-31.275
-31.25
-31.225
-31.2
-31.175
-31.15
-31.125
-31.1
-31.075
-31.05
-31.025
-31
-30.975
-30.95
-30.925
-30.9
-30.875
-30.85
-30.825
-30.8
-30.775
-30.75
-30.725
-30.7
-30.675
-30.65
-30.625
-30.6
-30.575
-30.55
-30.525
-30.5
-30.475
-30.45
-30.425
-30.4
-30.375
-30.35
-30.325
-30.3
-30.275
-30.25
-30.225
-30.2
-30.175
-30.15
-30.125
-30.1
-30.075
-30.05
-30.025
-30
-29.975
-29.95
-29.925
-29.9
-29.875
-29.85
-29.825
-29.8
-29.775
-29.75
-29.725
-29.7
-29.675
-29.65
-29.625
-29.6
-29.575
-29.55
-29.525
-29.5
-29.475
-29.45
-29.425
-29.4
-29.375
-29.35
-29.325
-29.3
-29.275
-29.25
-29.225
-29.2
-29.175
-29.15
-29.125
-29.1
-29.075
-29.05
-29.025
-29
-28.975
-28.95
-28.925
-28.9
-28.875
-28.85
-28.825
-28.8
-28.775
-28.75
-28.725
-28.7
-28.675
-28.65
-28.625
-28.6
-28.575
-28.55
-28.525
-28.5
-28.475
-28.45
-28.425
-28.4
-28.375
-28.35
-28.325
-28.3
-28.275
-28.25
-28.225
-28.2
-28.175
-28.15
-28.125
-28.1
-28.075
-28.05
-28.025
-28
-27.975
-27.95
-27.925
-27.9
-27.875
-27.85
-27.825
-27.8
-27.775
-27.75
-27.725
-27.7
-27.675
-27.65
-27.625
-27.6
-27.575
-27.55
-27.525
-27.5
-27.475
-27.45
-27.425
-27.4
-27.375
-27.35
-27.325
-27.3
-27.275
-27.25
-27.225
-27.2
-27.175
-27.15
-27.125
-27.1
-27.075
-27.05
-27.025
-27
-26.975
-26.95
-26.925
-26.9
-26.875
-26.85
-26.825
-26.8
-26.775
-26.75
-26.725
-26.7
-26.675
-26.65
-26.625
-26.6
-26.575
-26.55
-26.525
-26.5
-26.475
-26.45
-26.425
-26.4
-26.375
-26.35
-26.325
-26.3
-26.275
-26.25
-26.225
-26.2
-26.175
-26.15
-26.125
-26.1
-26.075
-26.05
-26.025
-26
-25.975
-25.95
-25.925
-25.9
-25.875
-25.85
-25.825
-25.8
-25.775
-25.75
-25.725
-25.7
-25.675
-25.65
-25.625
-25.6
-25.575
-25.55
-25.525
-25.5
-25.475
-25.45
-25.425
-25.4
-25.375
-25.35
-25.325
-25.3
-25.275
-25.25
-25.225
-25.2
-25.175
-25.15
-25.125
-25.1
-25.075
-25.05
-25.025
-25
-24.975
-24.95
-24.925
-24.9
-24.875
-24.85
-24.825
-24.8
-24.775
-24.75
-24.725
-24.7
-24.675
-24.65
-24.625
-24.6
-24.575
-24.55
-24.525
-24.5
-24.475
-24.45
-24.425
-24.4
-24.375
-24.35
-24.325
-24.3
-24.275
-24.25
-24.225
-24.2
-24.175
-24.15
-24.125
-24.1
-24.075
-24.05
-24.025
-24
-23.975
-23.95
-23.925
-23.9
-23.875
-23.85
-23.825
-23.8
-23.775
-23.75
-23.725
-23.7
-23.675
-23.65
-23.625
-23.6
-23.575
-23.55
-23.525
-23.5
-23.475
-23.45
-23.425
-23.4
-23.375
-23.35
-23.325
-23.3
-23.275
-23.25
-23.225
-23.2
-23.175
-23.15
-23.125
-23.1
-23.075
-23.05
-23.025
-23
-22.975
-22.95
-22.925
-22.9
-22.875
-22.85
-22.825
-22.8
-22.775
-22.75
-22.725
-22.7
-22.675
-22.65
-22.625
-22.6
-22.575
-22.55
-22.525
-22.5
-22.475
-22.45
-22.425
-22.4
-22.375
-22.35
-22.325
-22.3
-22.275
-22.25
-22.225
-22.2
-22.175
-22.15
-22.125
-22.1
-22.075
-22.05
-22.025
-22
-21.975
-21.95
-21.925
-21.9
-21.875
-21.85
-21.825
-21.8
-21.775
-21.75
-21.725
-21.7
-21.675
-21.65
-21.625
-21.6
-21.575
-21.55
-21.525
-21.5
-21.475
-21.45
-21.425
-21.4
-21.375
-21.35
-21.325
-21.3
-21.275
-21.25
-21.225
-21.2
-21.175
-21.15
-21.125
-21.1
-21.075
-21.05
-21.025
-21
-20.975
-20.95
-20.925
-20.9
-20.875
-20.85
-20.825
-20.8
-20.775
-20.75
-20.725
-20.7
-20.675
-20.65
-20.625
-20.6
-20.575
-20.55
-20.525
-20.5
-20.475
-20.45
-20.425
-20.4
-20.375
-20.35
-20.325
-20.3
-20.275
-20.25
-20.225
-20.2
-20.175
-20.15
-20.125
-20.1
-20.075
-20.05
-20.025
-20
VAR_LIST_END
BEGIN
-14.50949,-168.71294
-14.526284,-156.87675
-12.738943,-161.14784
-15.087223,-159.38167
-14.708543,-147.31789
-16.167976,-145.34216
-16.079807,-161.83398
-13.80527,-152.90659
-13.204165,-150.11478
-15.657057,-153.61775
-14.126419,-155.72755
-16.976372,-168.97334
-14.155705,-155.17787
-14.203978,-158.95209
-14.770094,-160.76942
-15.443753,-161.15331
-15.353502,-159.14922
-14.538114,-164.33493
-16.655579,-152.22008
-15.372966,-165.97856
-15.920997,-156.62965
-15.887753,-161.13225
-15.549783,-166.9664
-15.217377,-161.08769
-15.560522,-162.51332
-14.022264,-160.50027
-15.895896,-157.43509
-14.35562,-178.20755
-14.638586,-157.74573
-14.375288,-167.52103
-15.089695,-154.35703
-14.749165,-158.81627
-17.223282,-166.16055
-14.672375,-163.93683
-16.30859,-148.40472
-15.576044,-169.00537
-14.377524,-154.56789
-14.965518,-159.79816
-14.723911,-165.51869
-13.959568,-152.3493
-13.592764,-149.34958
-15.049796,-152.85349
-14.995202,-163.84453
-14.408484,-161.07593
-14.468651,-165.96852
-16.278929,-160.67213
-13.641158,-168.18782
-14.195175,-160.34584
-15.597393,-164.85579
-15.359369,-162.3111
-15.474112,-156.14598
-15.122839,-146.33488
-14.287303,-158.41534
-14.037119,-163.97786
-14.436174,-168.41014
-15.134008,-161.36354
-15.619988,-142.07716
-16.025463,-163.79869
-14.877172,-162.55632
-15.091382,-157.71063
-14.397226,-158.33101
-14.516724,-158.72455
-15.678975,-165.90007
-15.209472,-162.81355
-15.203429,-161.72708
-15.144024,-153.79097
-15.125652,-166.16881
-15.504377,-161.31294
-15.085984,-149.69386
-15.015735,-158.64789
-13.692228,-158.75909
-15.491314,-159.33655
-14.741306,-151.84007
-13.646458,-158.77577
-14.612694,-169.2599
-15.118243,-157.93921
-14.149934,-150.9702
-14.081395,-157.88417
-14.309257,-162.39442
-13.859037,-161.04419
-17.561447,-156.84212
-14.622038,-156.85075
-14.153772,-163.48198
-15.349564,-160.88622
-14.418501,-161.37529
-14.322281,-157.21671
-14.208383,-155.86168
-14.688458,-157.76515
-14.441909,-158.61684
-15.368366,-162.19894
-15.173545,-159.76642
-14.322987,-152.73648
-15.915364,-158.32707
-15.662642,-158.23203
-14.183635,-155.84256
-15.761564,-155.66362
-16.356358,-163.82387
-13.275094,-163.7632
-15.110217,-160.1501
-15.244159,-152.53038
-17.193804,-154.91026
-15.404957,-157.36377
-16.407339,-150.12082
-14.191621,-151.02286
-15.054515,-156.84532
-14.716191,-161.8071
-16.40457,-155.92976
-14.709499,-153.99608
-15.53979,-154.88216
-15.231823,-170.76407
-14.411377,-151.64903
-15.675833,-160.52748
-14.448162,-165.11629
-14.885313,-156.44009
-15.6126,-163.48265
-15.46314,-162.74904
-15.138132,-158.00456
-14.836845,-157.50595
-14.018162,-160.1937
-14.129405,-163.47575
-15.180091,-153.96408
-15.270535,-143.45418
-14.778305,-155.78534
-15.282472,-156.84102
-15.535043,-162.02306
-14.159882,-160.12233
-15.097939,-154.14812
-14.870044,-154.27106
-13.698251,-152.23178
-15.626833,-152.96111
-13.605794,-155.81012
-15.074158,-160.24585
-14.9111,-161.93983
-15.321497,-154.7402
-14.05337,-156.83237
-14.231272,-156.66953
-14.255564,-151.68817
-14.67901,-162.15164
-15.099689,-154.29068
-16.743832,-157.42613
-14.46539,-153.166
-16.074398,-157.52422
-14.131788,-155.507
-14.687501,-164.41124
-15.941567,-156.56862
-14.934253,-147.08278
-14.813311,-158.63216
-15.636547,-162.91115
-14.675033,-163.63821
-15.355937,-160.57562
-14.273376,-153.03719
-15.886795,-162.60336
-15.420824,-149.16721
-15.595129,-161.21638
-13.327176,-159.20329
-16.401621,-151.78239
-14.119737,-160.52974
-14.831113,-160.32393
-14.906964,-162.91907
-16.741333,-160.62254
-14.923525,-150.58614
-15.048509,-159.52863
-13.869879,-160.41397
-14.82197,-156.65494
-16.256105,-159.72331
-14.103527,-160.06305
-14.156838,-163.54346
-16.536951,-150.22523
-14.152906,-158.0291
-15.783231,-164.45749
-15.496016,-153.49742
-13.807469,-162.29907
-14.799522,-159.28386
-15.027418,-161.36992
-14.682612,-152.71414
-15.462187,-157.63551
-15.056108,-155.29872
-15.458982,-152.14079
-15.517727,-155.29774
-14.430824,-159.83078
-14.872853,-156.27594
-16.652496,-156.26381
-15.168885,-153.91769
-14.280523,-156.76633
-15.560366,-161.93532
-16.052004,-167.66681
-15.830021,-156.55635
-15.28456,-154.92781
-14.881988,-161.35152
-14.822007,-162.32469
-15.879457,-160.15329
-15.536115,-159.97629
-14.368272,-158.19196
-14.319687,-155.56639
-15.007646,-158.32913
-15.561192,-163.18405
-15.48411,-157.24507
-14.609471,-155.61751
-16.15575,-162.41846
-15.053908,-161.77591
-15.893045,-154.94777
-15.277408,-156.16087
-14.613257,-155.62717
-14.877986,-153.66
-16.313314,-155.70293
-14.783549,-162.0107
-15.075752,-160.08334
-14.748817,-157.56306
-14.371205,-157.00931
-14.940396,-157.327
-15.210379,-161.40108
-15.452947,-149.57861
-15.373051,-163.03639
-15.027796,-165.14127
-15.023259,-161.75615
-14.95866,-155.28264
-15.334377,-157.65529
-14.637094,-151.11278
-14.523027,-155.93201
-14.411269,-159.65402
-15.166987,-157.49873
-15.313657,-160.83437
-14.663312,-159.299
-15.116562,-163.14442
-15.638115,-161.27211
-15.29495,-163.06686
-14.128031,-153.88913
-16.059479,-154.18442
-14.996422,-153.70869
-14.722609,-162.43533
-13.978986,-160.74074
-14.718336,-161.64497
-15.405671,-158.89302
-15.030599,-157.56622
-15.011925,-162.05298
-15.371943,-165.39067
-14.884737,-157.94481
-14.591731,-159.04498
-15.162803,-159.82076
-14.751041,-156.91656
-15.383261,-163.57051
-15.744374,-155.20636
-14.919472,-159.85216
-14.513253,-156.15977
-14.983171,-163.63319
-15.439857,-158.62044
-14.502716,-157.14894
-15.04409,-150.06549
-14.924335,-158.49794
-15.69564,-159.23012
-14.839833,-154.91936
-15.099335,-163.48047
-15.643527,-162.63878
-14.75342,-154.24104
-15.048082,-158.06946
-14.912478,-152.32991
-15.882534,-158.14885
-14.976723,-154.63936
-14.686073,-162.72417
-14.78708,-159.24895
-15.131106,-155.80498
-15.251126,-166.31091
-14.962362,-152.51772
-14.924874,-159.04404
-13.538132,-153.98758
-14.51565,-156.10023
-15.382552,-157.3222
-15.286423,-152.68364
-15.729431,-162.91937
-14.943319,-155.8806
-14.832116,-154.62666
-14.981138,-158.74956
-15.533212,-153.97739
-15.369265,-156.04974
-14.706816,-155.57854
-14.874439,-159.22452
-14.785835,-159.06039
-14.560802,-160.14696
-14.847442,-154.57864
-14.332328,-161.22028
-14.583546,-163.06612
-14.123137,-157.96675
-13.947614,-158.28232
-15.376405,-159.66272
-15.128678,-159.71924
-14.650139,-157.9671
-15.189862,-154.92464
-14.128308,-156.75822
-14.695637,-155.11896
-15.348346,-154.59457
-14.347089,-161.85173
-15.206098,-162.46823
-16.081076,-161.74461
-14.699468,-159.65924
-14.55554,-158.8678
-14.631453,-158.55531
-14.003237,-163.08421
-15.812271,-162.51219
-15.282883,-157.26584
-15.133829,-153.16624
-14.287657,-157.93846
-14.935417,-158.15446
-14.519457,-152.94597
-15.878661,-151.0766
-14.942272,-158.70987
-15.591202,-153.50548
-15.284114,-158.56575
-15.823561,-155.30226
-14.707302,-157.15596
-15.406854,-159.98029
-15.305478,-157.22734
-14.822823,-154.13327
-14.639006,-155.51109
-14.738097,-153.631
-13.856276,-155.99489
-14.783867,-158.56413
-14.142159,-159.582
-15.261934,-164.47975
-14.773739,-158.11813
-14.91107,-164.64998
-14.696447,-161.33713
-15.159008,-158.68968
-15.429859,-161.16017
-15.323352,-160.20139
-15.465623,-155.17224
-14.971234,-159.56827
-15.230349,-160.01102
-14.652141,-157.76306
-15.006189,-161.30151
-15.72303,-160.76784
-14.553699,-156.33771
-14.615349,-158.11713
-14.992523,-156.56937
-14.550199,-158.9474
-15.143895,-167.49625
-15.037978,-158.36531
-14.686653,-158.14177
-15.097845,-156.0309
-15.710211,-155.47002
-15.645897,-153.1288
-14.907961,-155.88481
-14.993524,-158.34019
-14.773918,-157.05478
-14.9853,-165.55901
-14.844109,-160.64705
-15.209174,-155.76877
-15.115687,-157.40407
-14.872772,-160.46465
-14.821499,-158.31561
-14.532289,-158.28073
-14.784855,-162.9061
-15.106967,-155.94092
-14.851742,-158.62466
-14.43905,-156.28333
-15.316021,-161.12872
-14.505079,-156.99811
-14.825768,-154.54533
-14.818501,-158.86069
-14.692759,-161.53165
-14.810221,-157.99298
-15.390048,-153.70621
-14.954527,-154.54787
-14.686949,-157.6118
-15.059198,-159.42619
-14.596433,-160.14761
-15.283424,-162.4758
-14.550727,-157.26723
-15.870643,-160.5224
-14.855267,-161.20055
-14.705013,-156.02269
-14.825097,-159.51529
-14.880806,-157.77545
-15.003887,-154.78563
-14.666663,-157.2751
-14.78461,-157.42757
-15.074896,-158.74707
-15.442908,-160.84607
-15.722875,-159.37723
-15.483458,-157.18903
-15.101986,-154.93803
-15.369905,-160.52203
-14.500859,-156.55055
-15.327327,-158.76453
-14.63655,-156.36006
-15.10139,-154.77223
-14.969972,-157.87115
-15.068878,-156.38316
-15.339211,-158.40106
-15.353359,-159.38368
-15.207367,-161.40579
-14.455955,-160.8358
-14.495498,-160.00331
-15.209824,-157.80124
-15.185426,-153.03014
-15.148426,-160.21327
-14.877882,-160.85989
-14.882933,-160.57378
-14.719337,-158.13881
-15.008952,-158.12358
-14.508677,-158.40114
-14.998783,-161.36942
-14.558949,-160.21964
-14.6316,-160.71504
-15.597559,-157.93977
-15.006601,-156.20702
-15.683815,-161.85176
-15.283993,-159.33139
-14.7003,-162.23038
-14.979362,-155.38641
-15.39405,-156.3042
-14.531631,-161.67334
-15.880812,-156.6749
-14.884955,-159.27733
-15.1786,-154.20445
-14.907644,-158.73698
-14.77349,-159.8539
-14.848076,-161.17383
-15.180262,-158.06679
-14.825852,-154.14296
-14.469139,-159.67729
-15.704917,-160.28818
-15.442133,-162.87115
-15.147676,-158.91251
-14.602317,-156.01645
-15.627503,-156.83588
-14.657948,-158.83891
-15.006512,-155.05008
-14.474582,-158.86395
-15.726341,-153.68326
-15.323715,-159.15324
-14.67046,-167.13202
-14.928531,-157.44797
-15.237059,-160.57663
-15.279312,-159.86307
-14.469115,-159.08946
-14.763244,-157.00777
-15.41272,-159.97301
-14.516217,-155.9769
-14.790675,-161.5217
-14.425866,-155.97379
-15.177571,-160.60434
-15.367042,-158.09296
-15.082707,-159.81464
-15.389443,-159.44095
-15.170296,-155.99327
-15.04043,-157.7912
-14.441063,-160.49887
-15.281646,-159.83946
-14.528337,-156.39845
-15.019839,-156.12349
-15.098812,-160.58792
-14.620958,-156.32501
-14.722924,-157.30196
-15.87652,-154.5228
-14.492247,-155.14983
-15.335141,-156.06583
-14.597471,-159.55099
-14.931233,-158.60612
-15.384558,-158.99736
-15.477644,-161.16003
-15.399072,-158.26738
-15.152433,-158.21797
-15.226738,-156.53786
-15.575155,-158.28008
-15.019189,-158.29419
-15.140505,-159.05769
-14.480222,-157.81053
-15.326922,-159.47946
-14.927336,-157.88216
-15.497809,-159.70224
-14.896893,-154.96091
-15.165496,-160.57272
-15.019596,-158.19618
-15.405603,-158.90283
-15.614644,-154.06143
-15.140875,-160.32567
-14.998114,-157.24615
-15.088071,-155.68002
-15.209623,-161.2424
-15.365521,-156.10175
-15.006833,-159.83282
-15.235399,-156.42317
-14.539813,-155.51294
-15.044663,-156.7771
-14.756634,-155.35696
-15.03271,-155.84285
-15.351297,-158.46046
-15.485985,-157.54659
-14.761292,-157.8736
-14.756528,-158.31445
-14.637622,-160.81363
-14.884383,-157.49118
-14.511666,-157.55377
-15.75882,-155.73022
-14.704391,-160.96147
-14.793855,-159.28696
-14.555313,-159.34813
-14.870582,-157.09956
-15.811483,-156.45831
-14.889207,-160.66605
-14.871807,-155.05556
-15.106297,-154.22701
-14.743817,-158.02464
-15.26417,-160.927
-15.05669,-156.29393
-15.368156,-159.01224
-14.696616,-159.53632
-15.250813,-156.80632
-14.939434,-159.21478
-15.145333,-159.90358
-15.106545,-154.64018
-14.937556,-161.00299
-14.90767,-158.04037
-14.956322,-161.83273
-14.795128,-158.76349
-15.076834,-161.65593
-14.760027,-160.62004
-15.090068,-159.24681
-14.562121,-157.02866
-14.926027,-160.15018
-15.363514,-158.4649
-14.980756,-159.13434
-15.173726,-159.1109
-15.063316,-160.60399
-15.178261,-158.37247
-14.922803,-160.94084
-15.198296,-158.69037
-15.078709,-157.61375
-14.893011,-157.02155
-15.114703,-160.76793
-15.544492,-159.65073
-15.033772,-156.82425
-14.958401,-157.39796
-14.909437,-158.84483
-14.767839,-159.39577
-15.374902,-156.63513
-15.250953,-159.07091
-15.210588,-157.61409
-14.953469,-156.94308
-15.166146,-155.35538
-15.270256,-158.74451
-15.089165,-158.27455
-14.529778,-156.39095
-14.90212,-158.54402
-14.976139,-158.14818
-14.570873,-159.3407
-14.873395,-158.38785
-15.111362,-158.16231
-14.784533,-158.20679
-15.136082,-157.54807
-15.007564,-157.99246
-15.464555,-157.7326
-14.855165,-161.35977
-15.149055,-158.53926
-14.405902,-158.67233
-14.889355,-159.72855
-14.81723,-157.97191
-14.754522,-158.30913
-15.119615,-158.4043
-14.95979,-159.41887
-15.178518,-160.57143
-15.014879,-160.70709
-15.469522,-157.31746
-15.1001,-158.43581
-15.010186,-157.11142
-14.612424,-159.03853
-14.876589,-158.30504
-14.835978,-158.70551
-14.958435,-157.66524
-14.739281,-157.61583
-15.126781,-158.24257
-15.121882,-159.78082
-15.036538,-157.10527
-15.108764,-156.63789
-15.159509,-162.33867
