CITIFILE A.01.01
!Agilent Technologies,N5230C,MY48100142,A.08.04.10
!Agilent N5230C: A.08.04.10
!Format: LogMag/Angle
!Date: Friday, August 28, 2020 12:27:44
NAME CH1_DATA
VAR Power MAG 801
DATA S11 DBANGLE
DATA S21 DBANGLE
DATA S12 DBANGLE
DATA S22 DBANGLE
VAR_LIST_BEGIN
-40
-39.975
-39.95
-39.925
-39.9
-39.875
-39.85
-39.825
-39.8
-39.775
-39.75
-39.725
-39.7
-39.675
-39.65
-39.625
-39.6
-39.575
-39.55
-39.525
-39.5
-39.475
-39.45
-39.425
-39.4
-39.375
-39.35
-39.325
-39.3
-39.275
-39.25
-39.225
-39.2
-39.175
-39.15
-39.125
-39.1
-39.075
-39.05
-39.025
-39
-38.975
-38.95
-38.925
-38.9
-38.875
-38.85
-38.825
-38.8
-38.775
-38.75
-38.725
-38.7
-38.675
-38.65
-38.625
-38.6
-38.575
-38.55
-38.525
-38.5
-38.475
-38.45
-38.425
-38.4
-38.375
-38.35
-38.325
-38.3
-38.275
-38.25
-38.225
-38.2
-38.175
-38.15
-38.125
-38.1
-38.075
-38.05
-38.025
-38
-37.975
-37.95
-37.925
-37.9
-37.875
-37.85
-37.825
-37.8
-37.775
-37.75
-37.725
-37.7
-37.675
-37.65
-37.625
-37.6
-37.575
-37.55
-37.525
-37.5
-37.475
-37.45
-37.425
-37.4
-37.375
-37.35
-37.325
-37.3
-37.275
-37.25
-37.225
-37.2
-37.175
-37.15
-37.125
-37.1
-37.075
-37.05
-37.025
-37
-36.975
-36.95
-36.925
-36.9
-36.875
-36.85
-36.825
-36.8
-36.775
-36.75
-36.725
-36.7
-36.675
-36.65
-36.625
-36.6
-36.575
-36.55
-36.525
-36.5
-36.475
-36.45
-36.425
-36.4
-36.375
-36.35
-36.325
-36.3
-36.275
-36.25
-36.225
-36.2
-36.175
-36.15
-36.125
-36.1
-36.075
-36.05
-36.025
-36
-35.975
-35.95
-35.925
-35.9
-35.875
-35.85
-35.825
-35.8
-35.775
-35.75
-35.725
-35.7
-35.675
-35.65
-35.625
-35.6
-35.575
-35.55
-35.525
-35.5
-35.475
-35.45
-35.425
-35.4
-35.375
-35.35
-35.325
-35.3
-35.275
-35.25
-35.225
-35.2
-35.175
-35.15
-35.125
-35.1
-35.075
-35.05
-35.025
-35
-34.975
-34.95
-34.925
-34.9
-34.875
-34.85
-34.825
-34.8
-34.775
-34.75
-34.725
-34.7
-34.675
-34.65
-34.625
-34.6
-34.575
-34.55
-34.525
-34.5
-34.475
-34.45
-34.425
-34.4
-34.375
-34.35
-34.325
-34.3
-34.275
-34.25
-34.225
-34.2
-34.175
-34.15
-34.125
-34.1
-34.075
-34.05
-34.025
-34
-33.975
-33.95
-33.925
-33.9
-33.875
-33.85
-33.825
-33.8
-33.775
-33.75
-33.725
-33.7
-33.675
-33.65
-33.625
-33.6
-33.575
-33.55
-33.525
-33.5
-33.475
-33.45
-33.425
-33.4
-33.375
-33.35
-33.325
-33.3
-33.275
-33.25
-33.225
-33.2
-33.175
-33.15
-33.125
-33.1
-33.075
-33.05
-33.025
-33
-32.975
-32.95
-32.925
-32.9
-32.875
-32.85
-32.825
-32.8
-32.775
-32.75
-32.725
-32.7
-32.675
-32.65
-32.625
-32.6
-32.575
-32.55
-32.525
-32.5
-32.475
-32.45
-32.425
-32.4
-32.375
-32.35
-32.325
-32.3
-32.275
-32.25
-32.225
-32.2
-32.175
-32.15
-32.125
-32.1
-32.075
-32.05
-32.025
-32
-31.975
-31.95
-31.925
-31.9
-31.875
-31.85
-31.825
-31.8
-31.775
-31.75
-31.725
-31.7
-31.675
-31.65
-31.625
-31.6
-31.575
-31.55
-31.525
-31.5
-31.475
-31.45
-31.425
-31.4
-31.375
-31.35
-31.325
-31.3
-31.275
-31.25
-31.225
-31.2
-31.175
-31.15
-31.125
-31.1
-31.075
-31.05
-31.025
-31
-30.975
-30.95
-30.925
-30.9
-30.875
-30.85
-30.825
-30.8
-30.775
-30.75
-30.725
-30.7
-30.675
-30.65
-30.625
-30.6
-30.575
-30.55
-30.525
-30.5
-30.475
-30.45
-30.425
-30.4
-30.375
-30.35
-30.325
-30.3
-30.275
-30.25
-30.225
-30.2
-30.175
-30.15
-30.125
-30.1
-30.075
-30.05
-30.025
-30
-29.975
-29.95
-29.925
-29.9
-29.875
-29.85
-29.825
-29.8
-29.775
-29.75
-29.725
-29.7
-29.675
-29.65
-29.625
-29.6
-29.575
-29.55
-29.525
-29.5
-29.475
-29.45
-29.425
-29.4
-29.375
-29.35
-29.325
-29.3
-29.275
-29.25
-29.225
-29.2
-29.175
-29.15
-29.125
-29.1
-29.075
-29.05
-29.025
-29
-28.975
-28.95
-28.925
-28.9
-28.875
-28.85
-28.825
-28.8
-28.775
-28.75
-28.725
-28.7
-28.675
-28.65
-28.625
-28.6
-28.575
-28.55
-28.525
-28.5
-28.475
-28.45
-28.425
-28.4
-28.375
-28.35
-28.325
-28.3
-28.275
-28.25
-28.225
-28.2
-28.175
-28.15
-28.125
-28.1
-28.075
-28.05
-28.025
-28
-27.975
-27.95
-27.925
-27.9
-27.875
-27.85
-27.825
-27.8
-27.775
-27.75
-27.725
-27.7
-27.675
-27.65
-27.625
-27.6
-27.575
-27.55
-27.525
-27.5
-27.475
-27.45
-27.425
-27.4
-27.375
-27.35
-27.325
-27.3
-27.275
-27.25
-27.225
-27.2
-27.175
-27.15
-27.125
-27.1
-27.075
-27.05
-27.025
-27
-26.975
-26.95
-26.925
-26.9
-26.875
-26.85
-26.825
-26.8
-26.775
-26.75
-26.725
-26.7
-26.675
-26.65
-26.625
-26.6
-26.575
-26.55
-26.525
-26.5
-26.475
-26.45
-26.425
-26.4
-26.375
-26.35
-26.325
-26.3
-26.275
-26.25
-26.225
-26.2
-26.175
-26.15
-26.125
-26.1
-26.075
-26.05
-26.025
-26
-25.975
-25.95
-25.925
-25.9
-25.875
-25.85
-25.825
-25.8
-25.775
-25.75
-25.725
-25.7
-25.675
-25.65
-25.625
-25.6
-25.575
-25.55
-25.525
-25.5
-25.475
-25.45
-25.425
-25.4
-25.375
-25.35
-25.325
-25.3
-25.275
-25.25
-25.225
-25.2
-25.175
-25.15
-25.125
-25.1
-25.075
-25.05
-25.025
-25
-24.975
-24.95
-24.925
-24.9
-24.875
-24.85
-24.825
-24.8
-24.775
-24.75
-24.725
-24.7
-24.675
-24.65
-24.625
-24.6
-24.575
-24.55
-24.525
-24.5
-24.475
-24.45
-24.425
-24.4
-24.375
-24.35
-24.325
-24.3
-24.275
-24.25
-24.225
-24.2
-24.175
-24.15
-24.125
-24.1
-24.075
-24.05
-24.025
-24
-23.975
-23.95
-23.925
-23.9
-23.875
-23.85
-23.825
-23.8
-23.775
-23.75
-23.725
-23.7
-23.675
-23.65
-23.625
-23.6
-23.575
-23.55
-23.525
-23.5
-23.475
-23.45
-23.425
-23.4
-23.375
-23.35
-23.325
-23.3
-23.275
-23.25
-23.225
-23.2
-23.175
-23.15
-23.125
-23.1
-23.075
-23.05
-23.025
-23
-22.975
-22.95
-22.925
-22.9
-22.875
-22.85
-22.825
-22.8
-22.775
-22.75
-22.725
-22.7
-22.675
-22.65
-22.625
-22.6
-22.575
-22.55
-22.525
-22.5
-22.475
-22.45
-22.425
-22.4
-22.375
-22.35
-22.325
-22.3
-22.275
-22.25
-22.225
-22.2
-22.175
-22.15
-22.125
-22.1
-22.075
-22.05
-22.025
-22
-21.975
-21.95
-21.925
-21.9
-21.875
-21.85
-21.825
-21.8
-21.775
-21.75
-21.725
-21.7
-21.675
-21.65
-21.625
-21.6
-21.575
-21.55
-21.525
-21.5
-21.475
-21.45
-21.425
-21.4
-21.375
-21.35
-21.325
-21.3
-21.275
-21.25
-21.225
-21.2
-21.175
-21.15
-21.125
-21.1
-21.075
-21.05
-21.025
-21
-20.975
-20.95
-20.925
-20.9
-20.875
-20.85
-20.825
-20.8
-20.775
-20.75
-20.725
-20.7
-20.675
-20.65
-20.625
-20.6
-20.575
-20.55
-20.525
-20.5
-20.475
-20.45
-20.425
-20.4
-20.375
-20.35
-20.325
-20.3
-20.275
-20.25
-20.225
-20.2
-20.175
-20.15
-20.125
-20.1
-20.075
-20.05
-20.025
-20
VAR_LIST_END
BEGIN
-15.540256,-160.97295
-15.305337,-164.33257
-13.997481,-161.15634
-15.592605,-174.22723
-14.983058,-156.19029
-14.391339,-162.81602
-14.803167,-156.7086
-13.878392,-155.71793
-14.778416,-151.25729
-15.363007,-163.00108
-15.243937,-155.51646
-14.142509,-160.3195
-16.019165,-151.97267
-14.499538,-164.66391
-15.162516,-158.03046
-15.329135,-160.93205
-14.22264,-159.22873
-14.682364,-157.99907
-15.845218,-160.97098
-14.308297,-159.59872
-15.391141,-166.82216
-14.675287,-154.52472
-15.906371,-159.03764
-15.085891,-163.09637
-15.845779,-162.1347
-14.275053,-160.51309
-14.267136,-158.13556
-14.942173,-152.68771
-14.208341,-161.33922
-14.209351,-160.1601
-15.563464,-155.85295
-15.416434,-160.52565
-15.075169,-159.86505
-15.519067,-152.68822
-14.972269,-156.28403
-15.662103,-156.4725
-13.834121,-156.2117
-14.978859,-161.43877
-15.538787,-152.7041
-17.430943,-161.01405
-15.657592,-154.18158
-15.125703,-154.34932
-14.875128,-171.25253
-16.534683,-164.67258
-14.174908,-151.14095
-15.173675,-159.3629
-15.402483,-160.55348
-15.849124,-162.29973
-16.062645,-155.92522
-14.885169,-156.83411
-15.904002,-160.51949
-15.026581,-155.50729
-16.27327,-158.64496
-14.580462,-157.06612
-14.886599,-154.04247
-14.193755,-161.15471
-15.002349,-149.50165
-15.010175,-158.82968
-16.570955,-159.91725
-14.655169,-157.2412
-16.050085,-159.58228
-15.069731,-153.03592
-14.499665,-154.95213
-15.178267,-157.77525
-15.302683,-156.16019
-14.980295,-154.34218
-15.183533,-162.24448
-14.699162,-168.87737
-15.25708,-162.38857
-14.196785,-158.33914
-15.98853,-151.4482
-15.567695,-161.94595
-15.123664,-170.6467
-14.38928,-155.68637
-14.826506,-155.78247
-13.929463,-160.09654
-15.686054,-156.41637
-16.081387,-161.60884
-14.883522,-158.02284
-13.194221,-161.36259
-15.397612,-159.66183
-14.482614,-160.81221
-14.61887,-165.09267
-15.318073,-157.44014
-14.083079,-169.66322
-14.984532,-161.7397
-15.127913,-167.53523
-13.955483,-152.09308
-15.519827,-167.8364
-16.489182,-169.23785
-15.435555,-165.1438
-14.601322,-156.38289
-14.465095,-157.70035
-14.248368,-161.31357
-14.875236,-155.64209
-14.095542,-156.39308
-15.621322,-155.21027
-16.660698,-159.19827
-14.696236,-154.43806
-16.296505,-156.92494
-15.009119,-168.82332
-14.829845,-155.69708
-16.906912,-156.2299
-15.569947,-164.46802
-16.002487,-159.91498
-15.9601,-154.19667
-14.754363,-162.91786
-15.224695,-169.48454
-15.122071,-161.00964
-16.558676,-162.26866
-15.066839,-154.93443
-15.325245,-164.30701
-14.98957,-161.29092
-14.488899,-158.07419
-15.4344,-159.6945
-13.852978,-160.78116
-14.999,-157.46054
-15.220632,-157.14244
-14.594096,-157.7049
-14.639448,-152.66754
-13.5565,-165.07016
-14.874231,-164.50966
-14.977401,-159.88213
-15.834994,-169.19221
-14.721869,-168.24869
-14.50198,-155.67911
-15.227235,-161.03391
-15.780284,-164.25151
-14.613289,-155.75822
-14.595603,-157.14761
-14.726184,-165.84036
-14.719239,-156.85359
-14.811623,-156.84161
-15.12137,-165.88402
-15.796865,-160.82607
-14.668026,-158.49991
-14.854685,-161.67938
-15.164285,-159.57909
-14.626498,-163.00426
-15.530849,-155.63997
-14.140557,-157.16354
-13.924616,-160.69406
-15.225817,-158.97427
-14.345483,-159.53304
-14.437056,-159.20589
-15.513517,-154.2057
-14.444328,-161.196
-14.459265,-161.1619
-14.935814,-151.59087
-15.57554,-157.85823
-14.945717,-154.4944
-14.20298,-157.74115
-14.338887,-159.82941
-14.765484,-157.92021
-15.04109,-160.99323
-15.072446,-155.89526
-14.950499,-163.27267
-14.35717,-156.01253
-15.095387,-163.09299
-15.876789,-154.37994
-14.239713,-158.51408
-14.84679,-163.19536
-15.514203,-159.54561
-14.354597,-166.15422
-14.67429,-162.81783
-14.704341,-156.67265
-14.246947,-157.70633
-15.625932,-158.65479
-15.255733,-159.57153
-14.783269,-155.68532
-15.614315,-166.29916
-14.043842,-157.61612
-13.870512,-165.51729
-15.944646,-164.12939
-16.321314,-168.62645
-15.429229,-160.1304
-14.943884,-159.92317
-14.696119,-161.7448
-14.909613,-162.10095
-14.476184,-165.8371
-14.417798,-157.45937
-15.112164,-162.02667
-15.218461,-159.94968
-14.60542,-161.24738
-14.704311,-160.66225
-15.632763,-154.8687
-15.897722,-161.95511
-14.355469,-160.37427
-16.562801,-154.0426
-15.180348,-159.85294
-15.35542,-158.24535
-15.115028,-162.21751
-15.182397,-163.76419
-14.291672,-162.08856
-15.45707,-163.95323
-16.212833,-157.85149
-14.587932,-157.80374
-15.415079,-161.31346
-14.530668,-161.86275
-14.945694,-160.71243
-15.03406,-152.79578
-14.583161,-164.12218
-14.682373,-160.24295
-14.57234,-152.69276
-14.53944,-165.20398
-14.650941,-161.34441
-15.349829,-161.98819
-14.901438,-161.58951
-14.595984,-164.09264
-15.101037,-161.57603
-15.126901,-160.09804
-15.251,-163.27943
-14.899529,-161.30312
-15.575572,-152.31088
-15.528614,-159.09816
-14.780233,-156.22661
-14.333191,-160.26378
-14.112306,-161.76534
-15.121739,-159.12906
-14.361054,-160.56564
-14.286909,-163.43698
-14.979149,-159.05872
-15.249597,-166.72325
-15.482961,-160.69846
-14.554234,-157.94107
-14.892231,-162.25896
-14.676347,-159.20085
-15.17745,-160.50894
-14.680138,-162.57771
-14.715097,-159.75853
-15.200113,-157.47182
-14.944886,-159.53568
-15.092673,-159.68098
-15.205565,-159.01913
-14.92941,-153.26909
-15.031759,-156.18977
-15.267332,-156.8187
-15.031662,-161.30171
-15.600024,-160.89284
-15.405781,-157.31903
-15.322099,-154.46597
-15.095966,-160.15219
-14.775837,-159.80135
-14.971996,-158.41782
-15.137518,-161.0898
-15.601278,-161.58334
-15.745217,-163.84282
-14.977577,-161.29579
-14.839744,-163.90257
-15.102427,-162.20467
-13.969309,-159.41238
-15.445327,-156.35855
-15.077671,-161.61595
-15.14598,-155.39523
-15.619678,-159.37064
-15.302917,-158.9476
-14.956035,-156.81567
-15.316138,-161.36444
-15.353099,-164.20976
-14.842831,-157.36249
-14.533039,-158.85101
-15.750063,-154.74823
-15.243843,-161.1031
-15.021884,-157.83272
-15.457019,-160.19688
-15.411664,-162.37498
-15.308017,-157.66925
-15.472983,-160.82854
-14.446774,-161.28189
-15.263184,-158.61111
-15.143072,-160.04919
-15.516927,-155.79196
-15.017725,-158.69183
-15.167253,-161.42404
-15.459013,-160.37979
-14.53377,-160.31715
-15.139249,-162.41945
-14.94638,-156.68802
-14.576868,-158.47997
-15.016682,-157.47552
-15.308022,-158.10184
-15.854489,-160.58821
-15.171428,-161.93045
-15.346281,-160.49419
-15.111048,-166.30344
-15.068256,-159.45547
-15.110767,-157.90512
-14.593178,-155.55132
-15.04653,-162.9292
-15.166192,-159.62939
-14.984747,-159.87312
-14.963582,-158.64507
-14.806856,-156.21907
-14.84378,-155.55522
-14.920439,-159.9218
-14.919825,-158.31993
-15.098458,-158.86662
-15.245173,-161.02374
-14.907887,-158.57047
-15.542875,-156.23557
-15.052162,-157.53671
-15.008145,-154.45557
-15.198167,-157.87859
-15.315763,-159.75319
-15.111074,-153.0507
-15.07282,-160.01331
-15.063091,-157.75024
-15.132939,-158.73073
-15.124581,-154.34656
-15.387386,-160.3752
-14.932293,-154.48019
-15.540175,-159.35602
-14.781098,-159.05782
-14.569308,-162.65842
-14.894568,-157.59842
-15.532757,-158.21857
-14.823416,-159.39571
-14.952408,-161.68466
-14.532639,-160.94598
-14.68678,-157.15378
-14.906492,-161.713
-15.216805,-159.06227
-14.884995,-160.70677
-14.523689,-159.58192
-15.003839,-153.6143
-14.412609,-162.61661
-14.255737,-165.99228
-14.953794,-160.94411
-14.61228,-164.37305
-14.764565,-156.41603
-15.144826,-160.10626
-15.204679,-161.4026
-14.923535,-157.69656
-15.081911,-160.39833
-15.314455,-157.75174
-15.254774,-162.56598
-15.434331,-155.26819
-15.37173,-155.32622
-14.828517,-158.60355
-14.78703,-163.99408
-14.44862,-157.27451
-14.927117,-163.87955
-14.881844,-162.51532
-15.460283,-159.593
-15.13871,-161.47809
-15.310365,-162.51073
-15.578995,-156.57564
-14.739307,-162.43919
-15.211674,-160.8289
-14.968706,-156.32355
-15.075392,-158.18297
-14.882191,-159.91959
-14.948125,-163.09106
-14.702899,-159.29707
-15.328276,-156.63467
-14.750166,-157.26022
-14.734699,-158.96971
-14.520741,-159.62663
-14.922213,-159.51489
-14.867491,-155.0256
-15.260537,-159.58928
-15.429594,-159.57932
-15.046601,-158.27425
-15.45021,-157.45271
-14.788548,-159.7538
-15.349435,-162.18292
-15.201163,-160.54996
-15.085687,-159.42752
-15.205905,-159.61092
-14.514191,-155.56589
-15.299077,-159.48557
-14.570762,-161.26569
-14.547363,-163.13527
-15.420135,-160.80046
-15.476248,-160.43324
-15.234094,-160.01665
-14.839145,-159.95503
-14.605419,-162.44247
-15.206861,-156.89693
-14.890983,-159.51569
-15.166421,-161.22635
-14.952806,-161.91119
-15.144957,-160.61162
-15.137538,-158.37584
-14.716413,-159.7822
-14.996173,-161.3633
-14.745663,-159.22403
-15.202911,-158.88916
-15.234694,-157.85019
-14.926046,-159.33818
-14.906944,-159.9863
-14.85099,-161.42053
-14.915422,-160.67587
-15.036697,-156.50009
-15.214913,-158.10619
-14.985279,-162.24345
-15.148014,-161.66878
-14.670831,-161.3779
-14.876128,-159.40514
-15.619736,-158.0441
-15.214065,-161.40413
-15.09015,-158.05157
-15.547507,-161.16402
-14.736501,-155.92188
-15.282294,-159.56273
-15.524742,-162.63591
-15.090647,-159.81041
-15.239514,-160.85915
-14.718795,-159.37944
-14.604595,-160.36107
-15.121053,-162.19426
-14.917551,-162.47617
-14.903833,-157.65312
-14.930793,-155.95041
-15.080922,-159.18306
-15.019171,-156.69661
-14.778117,-160.38734
-15.327926,-158.99478
-14.961231,-158.84909
-14.947287,-161.61035
-15.571643,-160.95105
-14.851224,-155.82797
-15.347559,-157.7946
-14.867306,-159.80052
-14.673286,-163.98941
-14.619945,-162.311
-14.80681,-163.26558
-15.047986,-159.5612
-14.816403,-158.83562
-14.994502,-163.00752
-15.415461,-156.79033
-15.823493,-159.80638
-15.017799,-160.28658
-14.831904,-157.83719
-15.450474,-156.41096
-15.225145,-159.44438
-15.409075,-159.67842
-14.791733,-160.16856
-14.969179,-155.13696
-15.280864,-156.32091
-15.2721,-158.44577
-14.762503,-164.49669
-15.521809,-160.20718
-15.000902,-160.00688
-15.60983,-160.05074
-14.609258,-160.36896
-14.823891,-159.26872
-15.098681,-160.0269
-15.093511,-159.11131
-14.905751,-161.17923
-14.881192,-161.5231
-15.432447,-158.03741
-15.203572,-159.81081
-15.186368,-158.84552
-14.996909,-160.70943
-14.98807,-161.57996
-15.170306,-159.63647
-15.407414,-159.22415
-15.122828,-162.93959
-15.477774,-161.94833
-15.621141,-160.24208
-15.218994,-161.92052
-15.571473,-158.80264
-15.19367,-160.88634
-15.002391,-158.44272
-15.530988,-160.87746
-15.389742,-159.7588
-14.876737,-156.79391
-14.726108,-158.7748
-14.93564,-159.32246
-15.091209,-161.15929
-15.05811,-158.61102
-15.474345,-158.72951
-15.123381,-158.23286
-15.397202,-159.76857
-15.087281,-160.1723
-15.416952,-158.68971
-15.153406,-160.75339
-15.141785,-158.0732
-15.017967,-160.46194
-15.145058,-164.1328
-14.999882,-159.95192
-15.323609,-157.78397
-14.769371,-157.76926
-15.531104,-157.72327
-15.228123,-160.35175
-14.912333,-156.47035
-14.844255,-160.40286
-15.313734,-160.25555
-15.497622,-157.06032
-15.081647,-158.65041
-15.026982,-159.6192
-15.132899,-159.99292
-14.791227,-158.3933
-15.200503,-157.30176
-14.759567,-159.58205
-15.116846,-157.37068
-14.880453,-160.3638
-15.222185,-159.01535
-15.262631,-161.06238
-15.180322,-160.36464
-15.165982,-161.46008
-15.214912,-159.84015
-14.800579,-161.53926
-15.564575,-161.38998
-15.096682,-161.76303
-15.450688,-160.19141
-14.9602,-158.58017
-15.003308,-158.00713
-14.866156,-159.42026
-15.016565,-160.13174
-14.659942,-159.53221
-14.894527,-161.07684
-14.802904,-158.95555
-15.073845,-157.93359
-15.254929,-157.29903
-15.08195,-159.88823
-14.867488,-158.96098
-14.945234,-159.8671
-15.343446,-161.05566
-15.047029,-158.00061
-15.338401,-156.52412
-14.685165,-159.66243
-15.267069,-159.38725
-15.313251,-160.10785
-14.921883,-159.70558
-14.67467,-160.42159
-14.707759,-159.783
-14.813392,-160.02034
-15.129867,-157.51373
-14.947469,-160.11716
-15.024044,-158.29115
-15.05684,-157.12813
-14.794466,-159.72084
-15.233715,-159.2419
-14.786937,-158.72978
-15.204568,-157.67026
-14.702899,-160.38789
-14.948215,-160.76656
-15.015543,-158.69067
-15.210102,-160.13391
-15.043444,-159.43352
-14.81694,-159.5278
-14.932928,-158.41441
-15.126598,-158.77266
-14.871768,-158.29158
-14.644811,-160.33376
-15.309334,-159.98363
-14.76061,-159.59831
-15.085508,-160.01085
-14.882413,-159.87929
-15.278013,-157.80157
-14.843148,-158.66016
-15.355822,-159.27306
-15.289928,-157.9832
-14.864655,-159.33937
-15.361819,-159.23114
-15.08432,-159.46974
-14.975682,-159.16615
-15.064052,-158.5307
-14.878166,-160.80779
-14.78931,-159.25177
-15.38777,-157.21529
-14.884263,-159.10381
-15.184303,-160.05353
-15.403158,-157.75999
-14.959432,-161.10396
-15.037979,-158.40524
-14.883395,-158.41531
-14.718609,-158.58792
-15.298336,-159.64882
-15.197773,-160.32811
-15.024494,-160.34871
-14.997288,-158.73492
-15.059072,-159.47931
-15.05666,-160.56183
