CITIFILE A.01.01
!Agilent Technologies,N5230C,MY48100142,A.08.04.10
!Agilent N5230C: A.08.04.10
!Format: LogMag/Angle
!Date: Thursday, August 13, 2020 14:58:28
NAME CH1_DATA
VAR Power MAG 801
DATA S11 DBANGLE
DATA S21 DBANGLE
DATA S12 DBANGLE
DATA S22 DBANGLE
VAR_LIST_BEGIN
-40
-39.975
-39.95
-39.925
-39.9
-39.875
-39.85
-39.825
-39.8
-39.775
-39.75
-39.725
-39.7
-39.675
-39.65
-39.625
-39.6
-39.575
-39.55
-39.525
-39.5
-39.475
-39.45
-39.425
-39.4
-39.375
-39.35
-39.325
-39.3
-39.275
-39.25
-39.225
-39.2
-39.175
-39.15
-39.125
-39.1
-39.075
-39.05
-39.025
-39
-38.975
-38.95
-38.925
-38.9
-38.875
-38.85
-38.825
-38.8
-38.775
-38.75
-38.725
-38.7
-38.675
-38.65
-38.625
-38.6
-38.575
-38.55
-38.525
-38.5
-38.475
-38.45
-38.425
-38.4
-38.375
-38.35
-38.325
-38.3
-38.275
-38.25
-38.225
-38.2
-38.175
-38.15
-38.125
-38.1
-38.075
-38.05
-38.025
-38
-37.975
-37.95
-37.925
-37.9
-37.875
-37.85
-37.825
-37.8
-37.775
-37.75
-37.725
-37.7
-37.675
-37.65
-37.625
-37.6
-37.575
-37.55
-37.525
-37.5
-37.475
-37.45
-37.425
-37.4
-37.375
-37.35
-37.325
-37.3
-37.275
-37.25
-37.225
-37.2
-37.175
-37.15
-37.125
-37.1
-37.075
-37.05
-37.025
-37
-36.975
-36.95
-36.925
-36.9
-36.875
-36.85
-36.825
-36.8
-36.775
-36.75
-36.725
-36.7
-36.675
-36.65
-36.625
-36.6
-36.575
-36.55
-36.525
-36.5
-36.475
-36.45
-36.425
-36.4
-36.375
-36.35
-36.325
-36.3
-36.275
-36.25
-36.225
-36.2
-36.175
-36.15
-36.125
-36.1
-36.075
-36.05
-36.025
-36
-35.975
-35.95
-35.925
-35.9
-35.875
-35.85
-35.825
-35.8
-35.775
-35.75
-35.725
-35.7
-35.675
-35.65
-35.625
-35.6
-35.575
-35.55
-35.525
-35.5
-35.475
-35.45
-35.425
-35.4
-35.375
-35.35
-35.325
-35.3
-35.275
-35.25
-35.225
-35.2
-35.175
-35.15
-35.125
-35.1
-35.075
-35.05
-35.025
-35
-34.975
-34.95
-34.925
-34.9
-34.875
-34.85
-34.825
-34.8
-34.775
-34.75
-34.725
-34.7
-34.675
-34.65
-34.625
-34.6
-34.575
-34.55
-34.525
-34.5
-34.475
-34.45
-34.425
-34.4
-34.375
-34.35
-34.325
-34.3
-34.275
-34.25
-34.225
-34.2
-34.175
-34.15
-34.125
-34.1
-34.075
-34.05
-34.025
-34
-33.975
-33.95
-33.925
-33.9
-33.875
-33.85
-33.825
-33.8
-33.775
-33.75
-33.725
-33.7
-33.675
-33.65
-33.625
-33.6
-33.575
-33.55
-33.525
-33.5
-33.475
-33.45
-33.425
-33.4
-33.375
-33.35
-33.325
-33.3
-33.275
-33.25
-33.225
-33.2
-33.175
-33.15
-33.125
-33.1
-33.075
-33.05
-33.025
-33
-32.975
-32.95
-32.925
-32.9
-32.875
-32.85
-32.825
-32.8
-32.775
-32.75
-32.725
-32.7
-32.675
-32.65
-32.625
-32.6
-32.575
-32.55
-32.525
-32.5
-32.475
-32.45
-32.425
-32.4
-32.375
-32.35
-32.325
-32.3
-32.275
-32.25
-32.225
-32.2
-32.175
-32.15
-32.125
-32.1
-32.075
-32.05
-32.025
-32
-31.975
-31.95
-31.925
-31.9
-31.875
-31.85
-31.825
-31.8
-31.775
-31.75
-31.725
-31.7
-31.675
-31.65
-31.625
-31.6
-31.575
-31.55
-31.525
-31.5
-31.475
-31.45
-31.425
-31.4
-31.375
-31.35
-31.325
-31.3
-31.275
-31.25
-31.225
-31.2
-31.175
-31.15
-31.125
-31.1
-31.075
-31.05
-31.025
-31
-30.975
-30.95
-30.925
-30.9
-30.875
-30.85
-30.825
-30.8
-30.775
-30.75
-30.725
-30.7
-30.675
-30.65
-30.625
-30.6
-30.575
-30.55
-30.525
-30.5
-30.475
-30.45
-30.425
-30.4
-30.375
-30.35
-30.325
-30.3
-30.275
-30.25
-30.225
-30.2
-30.175
-30.15
-30.125
-30.1
-30.075
-30.05
-30.025
-30
-29.975
-29.95
-29.925
-29.9
-29.875
-29.85
-29.825
-29.8
-29.775
-29.75
-29.725
-29.7
-29.675
-29.65
-29.625
-29.6
-29.575
-29.55
-29.525
-29.5
-29.475
-29.45
-29.425
-29.4
-29.375
-29.35
-29.325
-29.3
-29.275
-29.25
-29.225
-29.2
-29.175
-29.15
-29.125
-29.1
-29.075
-29.05
-29.025
-29
-28.975
-28.95
-28.925
-28.9
-28.875
-28.85
-28.825
-28.8
-28.775
-28.75
-28.725
-28.7
-28.675
-28.65
-28.625
-28.6
-28.575
-28.55
-28.525
-28.5
-28.475
-28.45
-28.425
-28.4
-28.375
-28.35
-28.325
-28.3
-28.275
-28.25
-28.225
-28.2
-28.175
-28.15
-28.125
-28.1
-28.075
-28.05
-28.025
-28
-27.975
-27.95
-27.925
-27.9
-27.875
-27.85
-27.825
-27.8
-27.775
-27.75
-27.725
-27.7
-27.675
-27.65
-27.625
-27.6
-27.575
-27.55
-27.525
-27.5
-27.475
-27.45
-27.425
-27.4
-27.375
-27.35
-27.325
-27.3
-27.275
-27.25
-27.225
-27.2
-27.175
-27.15
-27.125
-27.1
-27.075
-27.05
-27.025
-27
-26.975
-26.95
-26.925
-26.9
-26.875
-26.85
-26.825
-26.8
-26.775
-26.75
-26.725
-26.7
-26.675
-26.65
-26.625
-26.6
-26.575
-26.55
-26.525
-26.5
-26.475
-26.45
-26.425
-26.4
-26.375
-26.35
-26.325
-26.3
-26.275
-26.25
-26.225
-26.2
-26.175
-26.15
-26.125
-26.1
-26.075
-26.05
-26.025
-26
-25.975
-25.95
-25.925
-25.9
-25.875
-25.85
-25.825
-25.8
-25.775
-25.75
-25.725
-25.7
-25.675
-25.65
-25.625
-25.6
-25.575
-25.55
-25.525
-25.5
-25.475
-25.45
-25.425
-25.4
-25.375
-25.35
-25.325
-25.3
-25.275
-25.25
-25.225
-25.2
-25.175
-25.15
-25.125
-25.1
-25.075
-25.05
-25.025
-25
-24.975
-24.95
-24.925
-24.9
-24.875
-24.85
-24.825
-24.8
-24.775
-24.75
-24.725
-24.7
-24.675
-24.65
-24.625
-24.6
-24.575
-24.55
-24.525
-24.5
-24.475
-24.45
-24.425
-24.4
-24.375
-24.35
-24.325
-24.3
-24.275
-24.25
-24.225
-24.2
-24.175
-24.15
-24.125
-24.1
-24.075
-24.05
-24.025
-24
-23.975
-23.95
-23.925
-23.9
-23.875
-23.85
-23.825
-23.8
-23.775
-23.75
-23.725
-23.7
-23.675
-23.65
-23.625
-23.6
-23.575
-23.55
-23.525
-23.5
-23.475
-23.45
-23.425
-23.4
-23.375
-23.35
-23.325
-23.3
-23.275
-23.25
-23.225
-23.2
-23.175
-23.15
-23.125
-23.1
-23.075
-23.05
-23.025
-23
-22.975
-22.95
-22.925
-22.9
-22.875
-22.85
-22.825
-22.8
-22.775
-22.75
-22.725
-22.7
-22.675
-22.65
-22.625
-22.6
-22.575
-22.55
-22.525
-22.5
-22.475
-22.45
-22.425
-22.4
-22.375
-22.35
-22.325
-22.3
-22.275
-22.25
-22.225
-22.2
-22.175
-22.15
-22.125
-22.1
-22.075
-22.05
-22.025
-22
-21.975
-21.95
-21.925
-21.9
-21.875
-21.85
-21.825
-21.8
-21.775
-21.75
-21.725
-21.7
-21.675
-21.65
-21.625
-21.6
-21.575
-21.55
-21.525
-21.5
-21.475
-21.45
-21.425
-21.4
-21.375
-21.35
-21.325
-21.3
-21.275
-21.25
-21.225
-21.2
-21.175
-21.15
-21.125
-21.1
-21.075
-21.05
-21.025
-21
-20.975
-20.95
-20.925
-20.9
-20.875
-20.85
-20.825
-20.8
-20.775
-20.75
-20.725
-20.7
-20.675
-20.65
-20.625
-20.6
-20.575
-20.55
-20.525
-20.5
-20.475
-20.45
-20.425
-20.4
-20.375
-20.35
-20.325
-20.3
-20.275
-20.25
-20.225
-20.2
-20.175
-20.15
-20.125
-20.1
-20.075
-20.05
-20.025
-20
VAR_LIST_END
BEGIN
-15.328128,-158.92775
-14.303292,-164.03268
-14.807824,-156.89613
-15.115599,-161.3042
-14.66162,-159.73956
-14.904768,-158.68878
-15.628072,-159.86023
-15.36641,-159.68011
-15.0893,-161.58528
-14.996074,-159.81639
-15.501472,-158.81433
-15.540185,-164.04884
-14.366856,-164.34525
-14.95879,-159.96259
-14.513442,-159.58469
-15.255528,-158.15501
-15.46783,-158.21794
-14.902362,-157.60606
-15.424666,-160.20459
-15.158426,-160.57303
-15.530767,-161.24857
-15.082809,-158.95325
-15.153769,-159.45172
-14.803648,-159.34245
-14.970601,-158.47722
-15.4135,-163.28268
-14.812304,-158.86575
-15.206522,-160.38997
-14.575121,-159.45821
-15.209358,-161.9615
-14.973103,-159.3642
-14.608329,-158.18416
-15.386252,-158.72466
-15.08078,-153.96605
-15.702734,-155.5135
-14.70156,-159.76355
-15.447797,-160.06792
-14.85352,-158.64578
-15.069863,-157.54793
-15.641839,-158.75362
-15.395121,-158.38953
-15.172541,-157.83633
-14.759165,-159.08139
-15.225766,-162.15657
-15.038933,-156.5934
-15.003433,-161.69894
-14.93994,-157.96361
-15.248403,-155.18861
-15.275584,-159.09595
-15.382604,-161.79065
-15.395513,-163.90459
-14.801282,-156.26237
-15.702721,-155.64958
-14.928253,-156.76988
-14.997741,-161.71941
-15.136332,-159.02499
-15.20388,-159.20218
-15.624234,-159.35083
-14.959826,-159.47682
-14.927595,-159.61719
-15.379467,-154.66905
-14.580546,-161.69774
-14.645112,-157.82294
-15.195245,-159.09384
-14.924039,-158.0067
-14.942073,-159.78104
-14.868378,-155.20586
-14.619942,-161.18521
-14.580054,-162.0096
-15.343522,-163.02138
-15.148311,-162.18654
-14.921398,-159.22934
-14.598343,-157.74222
-15.247731,-157.23613
-15.346607,-155.22903
-14.765407,-162.07635
-14.91818,-157.87498
-15.375478,-161.59216
-14.655112,-159.11864
-14.199568,-158.59947
-15.10319,-159.10127
-15.335434,-156.64197
-14.736023,-158.31401
-15.272438,-159.87892
-15.074308,-156.43944
-15.378736,-161.14229
-15.180295,-159.26355
-15.93798,-161.63992
-14.470457,-160.05948
-14.610122,-160.10905
-15.039599,-160.50526
-15.456654,-156.26485
-14.350439,-158.30115
-15.367422,-158.7917
-14.907895,-158.86702
-14.544724,-155.86359
-15.463202,-157.24188
-15.202632,-159.36444
-15.411991,-156.3311
-15.440167,-158.23871
-15.287693,-158.50064
-14.921643,-156.94299
-14.889401,-158.82932
-15.188428,-160.36646
-15.279344,-158.59048
-14.496302,-158.89444
-14.553316,-159.35736
-15.05085,-156.88156
-15.643629,-162.66853
-14.797501,-158.76569
-14.90416,-159.27934
-14.875172,-157.48079
-14.56817,-159.33186
-15.619698,-161.2863
-14.793307,-156.95174
-14.812741,-159.32021
-15.462478,-160.66013
-15.080199,-161.30028
-14.606541,-161.57603
-14.857999,-159.19603
-14.777745,-159.69101
-15.14422,-157.21313
-14.97789,-158.20842
-14.628894,-160.96555
-15.252598,-158.98718
-15.142615,-159.47096
-15.179667,-161.25359
-15.244095,-156.72784
-14.65494,-160.79245
-14.996784,-161.50281
-15.16448,-159.71703
-15.026852,-159.78111
-14.999988,-157.03365
-15.342478,-158.67836
-15.527116,-158.91089
-15.132314,-158.01241
-15.434703,-159.44269
-15.013825,-160.44991
-14.812463,-160.56534
-15.045172,-156.46021
-14.682867,-156.71268
-15.712593,-160.31311
-15.55453,-158.78287
-14.599806,-159.09819
-14.956718,-157.72783
-14.879997,-160.37474
-15.421646,-158.08008
-14.767254,-159.6748
-15.289295,-161.18253
-15.118163,-156.67766
-15.843472,-156.82957
-14.537367,-155.74361
-14.413786,-160.35669
-15.060814,-157.11691
-15.255637,-158.51936
-14.583443,-158.34744
-15.377023,-160.38055
-14.869563,-163.36115
-15.076246,-160.87302
-14.851894,-159.68668
-14.92414,-160.02185
-14.94138,-157.40277
-14.854245,-160.06364
-14.898821,-154.93437
-15.099041,-157.05064
-15.012663,-154.28123
-14.738821,-160.15816
-14.941462,-158.5054
-15.031087,-158.53325
-14.902301,-158.33395
-14.814626,-157.8951
-15.197272,-159.48949
-14.820783,-156.34688
-15.171638,-158.35123
-15.666834,-157.92049
-15.113646,-157.83093
-15.09215,-159.02893
-14.930737,-160.08156
-15.206305,-155.38377
-15.255297,-158.17673
-15.386584,-157.36668
-14.733096,-158.56079
-14.887659,-157.08701
-15.354477,-159.58778
-15.632113,-157.92816
-15.007754,-158.03636
-15.343057,-158.43114
-14.760647,-155.98903
-15.081227,-156.83783
-14.913351,-160.7182
-15.18451,-158.37807
-15.086896,-158.62935
-14.995534,-158.70416
-15.095182,-160.03102
-15.188358,-157.08369
-15.222733,-159.95287
-15.207109,-160.53209
-14.884567,-157.80841
-14.799041,-160.49748
-14.952776,-161.78539
-14.650743,-157.69128
-15.129628,-157.58388
-15.330636,-157.24092
-15.281217,-157.13263
-15.200463,-158.9743
-15.022947,-159.81958
-15.325117,-161.72528
-15.22781,-159.76674
-15.442042,-158.46664
-14.770737,-155.27692
-15.06911,-159.78351
-15.652399,-158.21146
-15.251641,-159.11005
-14.85977,-159.81633
-15.143451,-157.7932
-15.505566,-160.24963
-15.20317,-159.67157
-15.273034,-159.11897
-15.065562,-159.43614
-15.292101,-160.64528
-15.138949,-158.24704
-14.983126,-157.82051
-14.641696,-158.04787
-14.938313,-159.58148
-15.070929,-160.36794
-15.04343,-159.42793
-15.234787,-159.07689
-14.886996,-160.40068
-15.042535,-162.39813
-14.851138,-159.75333
-15.181959,-155.83464
-15.097617,-157.0762
-15.006632,-157.55194
-15.084737,-160.83087
-14.950183,-158.41496
-15.338799,-159.4431
-14.911263,-161.43318
-15.318712,-159.97218
-14.705263,-159.70332
-15.054067,-159.72726
-15.294851,-159.62885
-15.235398,-160.98976
-15.38731,-159.53891
-14.659803,-159.29802
-14.9495,-158.47131
-14.982003,-158.12506
-14.870127,-157.89876
-15.576219,-159.55539
-15.217042,-159.79211
-15.10835,-160.23415
-15.313668,-159.01155
-14.664861,-159.22911
-14.872349,-158.68054
-14.925598,-159.30873
-15.00982,-159.6629
-14.929751,-159.40587
-14.987808,-160.81985
-14.84591,-159.15456
-14.937579,-160.36949
-15.015748,-159.94209
-14.792976,-158.3925
-15.072043,-159.61868
-14.814183,-158.03642
-15.162409,-159.29523
-15.367062,-159.63947
-14.829095,-159.76225
-15.260758,-157.97472
-15.246943,-159.53694
-15.058011,-158.93594
-14.972406,-159.76555
-15.008542,-159.18076
-15.162244,-157.82222
-15.092234,-157.53746
-14.80028,-159.05922
-14.871559,-157.20264
-15.139651,-159.93864
-14.989511,-158.83282
-14.871892,-158.83832
-15.154695,-160.56628
-14.796837,-159.5569
-15.020471,-159.70483
-15.300545,-155.71519
-15.103042,-161.58372
-14.963552,-158.349
-15.137113,-159.22917
-15.197618,-160.00876
-15.137774,-159.00505
-15.081419,-161.28069
-14.960346,-157.84692
-14.689358,-162.01579
-15.287077,-157.73846
-14.995375,-161.69165
-15.003608,-160.28758
-15.271609,-159.03593
-15.011474,-157.25607
-15.163671,-159.07976
-15.21046,-158.71738
-14.739354,-157.26753
-15.233965,-158.31175
-14.815568,-158.84566
-15.000416,-158.4669
-15.408109,-157.09035
-15.009149,-158.88509
-15.086559,-157.33134
-15.061257,-158.15416
-14.930616,-157.79976
-15.001814,-158.84654
-14.943875,-158.88826
-14.936334,-157.72935
-14.981352,-161.5668
-15.084583,-160.65948
-14.907068,-159.47696
-15.002887,-156.33235
-15.100429,-156.91925
-15.247211,-158.79367
-14.92934,-157.4749
-15.042007,-159.43359
-15.234646,-160.23898
-15.229669,-157.79739
-15.123046,-161.21269
-15.118664,-159.20847
-15.169767,-157.30089
-14.859354,-158.64908
-15.026391,-156.44533
-14.914356,-158.99342
-15.052794,-157.22162
-15.11374,-159.88409
-15.229348,-158.04036
-14.934245,-160.92931
-14.731606,-160.56026
-15.160085,-158.92917
-14.989627,-157.90349
-15.182539,-160.20705
-15.038965,-157.14145
-15.137045,-156.98984
-14.972923,-159.33551
-15.069755,-158.15201
-15.065813,-160.38277
-15.064794,-161.0775
-15.104669,-156.45274
-15.041049,-157.94023
-15.19307,-158.39941
-15.041642,-158.5636
-15.041113,-157.33632
-14.920997,-160.44569
-14.876918,-158.46632
-15.038459,-158.54247
-14.972106,-157.09952
-14.880643,-157.8033
-14.956995,-157.84766
-14.92906,-158.09741
-15.307086,-158.24094
-14.992064,-158.18309
-15.086266,-157.92278
-14.905408,-159.64774
-14.9118,-159.7054
-14.942696,-159.10583
-14.963737,-158.00781
-15.185559,-158.79126
-15.20088,-159.63509
-14.871911,-158.86572
-15.296319,-158.49084
-15.039232,-160.2692
-15.09286,-159.28311
-14.98128,-159.2662
-15.202613,-158.70979
-15.103822,-159.22289
-14.950105,-158.49469
-14.956327,-160.96196
-15.319207,-158.78519
-14.954483,-159.66296
-14.863546,-159.36745
-14.754751,-158.33194
-14.991566,-158.52768
-15.451849,-158.28065
-14.94118,-161.52019
-15.273023,-159.17111
-15.044641,-159.01608
-15.386602,-160.93906
-14.972061,-157.78258
-15.181777,-157.80315
-14.936492,-158.77245
-14.932739,-158.34058
-15.015164,-159.2296
-15.322173,-157.28513
-15.161505,-158.84865
-14.890241,-158.50967
-14.892424,-158.57289
-14.931706,-158.09448
-15.009782,-160.17744
-14.991439,-159.3195
-14.953305,-161.05743
-14.828831,-159.22192
-14.932827,-159.29688
-15.208791,-158.80731
-15.115624,-160.06383
-15.190772,-157.95073
-15.07487,-158.04044
-15.03933,-160.48051
-15.134768,-158.35565
-14.998225,-159.97307
-14.871217,-159.61794
-15.253023,-158.79568
-15.19616,-158.24765
-15.168079,-158.96437
-14.914814,-159.66165
-14.94943,-159.18507
-14.94373,-158.22862
-15.111909,-159.00858
-15.081195,-159.61665
-15.160732,-157.16991
-15.021108,-158.20297
-14.70154,-158.50529
-15.238247,-159.01416
-15.141888,-158.58321
-14.8751,-158.91116
-15.133198,-159.23448
-15.232533,-158.48454
-14.988593,-158.60014
-15.281425,-158.80652
-15.11638,-158.83424
-14.967508,-158.92436
-14.960609,-158.59061
-15.082455,-158.20737
-14.949166,-158.66129
-14.845572,-158.68399
-14.885386,-157.94435
-15.069177,-158.36919
-15.112893,-158.10384
-14.969976,-158.59805
-14.926959,-159.19193
-15.027213,-157.60561
-15.096368,-159.65181
-15.172435,-157.91367
-14.894832,-159.24393
-15.10748,-158.75233
-14.933995,-158.73866
-15.121336,-158.88426
-15.157207,-160.08652
-15.038723,-159.77379
-15.133812,-158.28296
-15.134441,-160.08109
-14.997439,-159.52251
-15.049339,-160.33228
-15.156778,-158.84662
-15.014526,-159.51141
-15.167528,-159.53076
-15.073359,-159.81773
-15.070295,-158.12776
-15.012042,-158.83861
-15.047219,-159.70728
-15.081372,-158.71611
-15.081668,-160.25049
-15.086157,-157.86656
-15.138108,-159.0938
-15.078915,-158.07027
-15.154482,-158.26582
-15.071502,-159.05182
-15.263302,-159.19411
-14.929494,-160.05475
-14.97917,-160.34673
-15.220804,-160.04021
-14.797431,-158.94937
-15.026902,-160.45317
-15.030409,-160.08316
-14.825074,-161.00905
-14.90243,-158.47049
-14.900861,-157.7404
-14.940185,-158.7787
-15.122981,-158.9791
-15.029152,-160.37788
-15.148726,-158.0201
-15.027061,-158.45921
-14.963329,-158.56183
-14.992555,-158.64845
-15.234003,-157.98007
-15.119796,-158.64232
-15.084442,-159.00159
-15.229455,-157.97647
-15.26615,-159.81105
-14.914795,-160.21516
-15.036548,-158.68002
-15.104143,-159.00247
-15.100556,-159.35883
-15.071693,-158.41422
-14.927396,-159.17097
-15.076673,-157.93402
-14.893861,-158.12424
-15.357203,-158.51161
-15.148074,-159.58151
-15.086946,-159.41754
-15.22581,-159.99437
-15.085318,-158.14494
-15.048639,-157.22487
-14.995757,-160.10634
-15.026448,-158.8559
-14.967848,-159.66017
-14.965564,-158.17059
-14.819375,-158.89877
-15.060818,-158.88849
-15.254863,-158.74498
-15.011395,-158.53638
-15.155124,-159.35574
-14.916762,-158.66925
-14.958754,-158.32622
-15.187372,-159.53185
-14.954367,-158.75844
-14.916107,-159.03842
-14.983422,-158.58176
-15.07445,-158.49957
-14.99934,-159.48093
-15.054457,-158.36108
-14.944126,-159.39764
-15.217332,-159.78708
-15.06979,-158.4772
-15.061784,-158.88622
-15.07855,-159.72507
-14.9593,-158.09799
-15.092262,-159.15395
-14.974072,-158.03963
-15.030755,-159.12169
-15.142837,-158.58624
-15.106234,-158.75385
-15.040156,-158.95146
-14.865013,-157.96605
-15.154913,-158.84175
-15.141756,-158.90169
-15.044949,-158.54494
-15.051011,-158.74295
-14.89828,-158.15932
-15.056528,-158.55333
-15.193318,-159.22993
-15.121122,-158.35353
-15.100918,-158.23724
-15.070598,-158.70367
-15.042759,-159.00018
-15.138577,-158.16261
-15.002079,-159.08914
-14.929003,-159.20189
-15.066005,-158.57277
-15.102366,-159.27423
-15.021704,-158.70511
-15.001979,-158.25075
-15.111612,-159.73917
-15.038926,-158.54654
-15.012639,-158.21205
-15.14528,-158.69051
-14.858772,-158.32433
-14.989235,-158.59244
-15.127072,-159.222
-15.000072,-157.9214
-15.08373,-158.78593
-15.107774,-159.13892
-15.158544,-159.0399
-15.02927,-158.92975
-15.022727,-159.01935
-15.11093,-158.8268
-15.129933,-159.35219
-15.071066,-159.14272
-14.987594,-159.40279
-14.982305,-158.26129
-15.006327,-159.09024
-15.051833,-158.36905
-15.170402,-158.22418
-15.134095,-159.02437
-15.090058,-160.22688
-15.119397,-159.0014
-15.084528,-159.24649
-15.22254,-157.82408
-15.193651,-159.43834
-15.110776,-159.08185
-15.006523,-158.61172
-15.050366,-159.62698
-15.039329,-157.51158
-15.174009,-159.03157
-14.940637,-160.45268
