CITIFILE A.01.01
!Agilent Technologies,N5230C,MY48100142,A.08.04.10
!Agilent N5230C: A.08.04.10
!Format: LogMag/Angle
!Date: Monday, September 14, 2020 15:25:13
NAME CH1_DATA
VAR Power MAG 801
DATA S11 DBANGLE
DATA S21 DBANGLE
DATA S12 DBANGLE
DATA S22 DBANGLE
VAR_LIST_BEGIN
-40
-39.975
-39.95
-39.925
-39.9
-39.875
-39.85
-39.825
-39.8
-39.775
-39.75
-39.725
-39.7
-39.675
-39.65
-39.625
-39.6
-39.575
-39.55
-39.525
-39.5
-39.475
-39.45
-39.425
-39.4
-39.375
-39.35
-39.325
-39.3
-39.275
-39.25
-39.225
-39.2
-39.175
-39.15
-39.125
-39.1
-39.075
-39.05
-39.025
-39
-38.975
-38.95
-38.925
-38.9
-38.875
-38.85
-38.825
-38.8
-38.775
-38.75
-38.725
-38.7
-38.675
-38.65
-38.625
-38.6
-38.575
-38.55
-38.525
-38.5
-38.475
-38.45
-38.425
-38.4
-38.375
-38.35
-38.325
-38.3
-38.275
-38.25
-38.225
-38.2
-38.175
-38.15
-38.125
-38.1
-38.075
-38.05
-38.025
-38
-37.975
-37.95
-37.925
-37.9
-37.875
-37.85
-37.825
-37.8
-37.775
-37.75
-37.725
-37.7
-37.675
-37.65
-37.625
-37.6
-37.575
-37.55
-37.525
-37.5
-37.475
-37.45
-37.425
-37.4
-37.375
-37.35
-37.325
-37.3
-37.275
-37.25
-37.225
-37.2
-37.175
-37.15
-37.125
-37.1
-37.075
-37.05
-37.025
-37
-36.975
-36.95
-36.925
-36.9
-36.875
-36.85
-36.825
-36.8
-36.775
-36.75
-36.725
-36.7
-36.675
-36.65
-36.625
-36.6
-36.575
-36.55
-36.525
-36.5
-36.475
-36.45
-36.425
-36.4
-36.375
-36.35
-36.325
-36.3
-36.275
-36.25
-36.225
-36.2
-36.175
-36.15
-36.125
-36.1
-36.075
-36.05
-36.025
-36
-35.975
-35.95
-35.925
-35.9
-35.875
-35.85
-35.825
-35.8
-35.775
-35.75
-35.725
-35.7
-35.675
-35.65
-35.625
-35.6
-35.575
-35.55
-35.525
-35.5
-35.475
-35.45
-35.425
-35.4
-35.375
-35.35
-35.325
-35.3
-35.275
-35.25
-35.225
-35.2
-35.175
-35.15
-35.125
-35.1
-35.075
-35.05
-35.025
-35
-34.975
-34.95
-34.925
-34.9
-34.875
-34.85
-34.825
-34.8
-34.775
-34.75
-34.725
-34.7
-34.675
-34.65
-34.625
-34.6
-34.575
-34.55
-34.525
-34.5
-34.475
-34.45
-34.425
-34.4
-34.375
-34.35
-34.325
-34.3
-34.275
-34.25
-34.225
-34.2
-34.175
-34.15
-34.125
-34.1
-34.075
-34.05
-34.025
-34
-33.975
-33.95
-33.925
-33.9
-33.875
-33.85
-33.825
-33.8
-33.775
-33.75
-33.725
-33.7
-33.675
-33.65
-33.625
-33.6
-33.575
-33.55
-33.525
-33.5
-33.475
-33.45
-33.425
-33.4
-33.375
-33.35
-33.325
-33.3
-33.275
-33.25
-33.225
-33.2
-33.175
-33.15
-33.125
-33.1
-33.075
-33.05
-33.025
-33
-32.975
-32.95
-32.925
-32.9
-32.875
-32.85
-32.825
-32.8
-32.775
-32.75
-32.725
-32.7
-32.675
-32.65
-32.625
-32.6
-32.575
-32.55
-32.525
-32.5
-32.475
-32.45
-32.425
-32.4
-32.375
-32.35
-32.325
-32.3
-32.275
-32.25
-32.225
-32.2
-32.175
-32.15
-32.125
-32.1
-32.075
-32.05
-32.025
-32
-31.975
-31.95
-31.925
-31.9
-31.875
-31.85
-31.825
-31.8
-31.775
-31.75
-31.725
-31.7
-31.675
-31.65
-31.625
-31.6
-31.575
-31.55
-31.525
-31.5
-31.475
-31.45
-31.425
-31.4
-31.375
-31.35
-31.325
-31.3
-31.275
-31.25
-31.225
-31.2
-31.175
-31.15
-31.125
-31.1
-31.075
-31.05
-31.025
-31
-30.975
-30.95
-30.925
-30.9
-30.875
-30.85
-30.825
-30.8
-30.775
-30.75
-30.725
-30.7
-30.675
-30.65
-30.625
-30.6
-30.575
-30.55
-30.525
-30.5
-30.475
-30.45
-30.425
-30.4
-30.375
-30.35
-30.325
-30.3
-30.275
-30.25
-30.225
-30.2
-30.175
-30.15
-30.125
-30.1
-30.075
-30.05
-30.025
-30
-29.975
-29.95
-29.925
-29.9
-29.875
-29.85
-29.825
-29.8
-29.775
-29.75
-29.725
-29.7
-29.675
-29.65
-29.625
-29.6
-29.575
-29.55
-29.525
-29.5
-29.475
-29.45
-29.425
-29.4
-29.375
-29.35
-29.325
-29.3
-29.275
-29.25
-29.225
-29.2
-29.175
-29.15
-29.125
-29.1
-29.075
-29.05
-29.025
-29
-28.975
-28.95
-28.925
-28.9
-28.875
-28.85
-28.825
-28.8
-28.775
-28.75
-28.725
-28.7
-28.675
-28.65
-28.625
-28.6
-28.575
-28.55
-28.525
-28.5
-28.475
-28.45
-28.425
-28.4
-28.375
-28.35
-28.325
-28.3
-28.275
-28.25
-28.225
-28.2
-28.175
-28.15
-28.125
-28.1
-28.075
-28.05
-28.025
-28
-27.975
-27.95
-27.925
-27.9
-27.875
-27.85
-27.825
-27.8
-27.775
-27.75
-27.725
-27.7
-27.675
-27.65
-27.625
-27.6
-27.575
-27.55
-27.525
-27.5
-27.475
-27.45
-27.425
-27.4
-27.375
-27.35
-27.325
-27.3
-27.275
-27.25
-27.225
-27.2
-27.175
-27.15
-27.125
-27.1
-27.075
-27.05
-27.025
-27
-26.975
-26.95
-26.925
-26.9
-26.875
-26.85
-26.825
-26.8
-26.775
-26.75
-26.725
-26.7
-26.675
-26.65
-26.625
-26.6
-26.575
-26.55
-26.525
-26.5
-26.475
-26.45
-26.425
-26.4
-26.375
-26.35
-26.325
-26.3
-26.275
-26.25
-26.225
-26.2
-26.175
-26.15
-26.125
-26.1
-26.075
-26.05
-26.025
-26
-25.975
-25.95
-25.925
-25.9
-25.875
-25.85
-25.825
-25.8
-25.775
-25.75
-25.725
-25.7
-25.675
-25.65
-25.625
-25.6
-25.575
-25.55
-25.525
-25.5
-25.475
-25.45
-25.425
-25.4
-25.375
-25.35
-25.325
-25.3
-25.275
-25.25
-25.225
-25.2
-25.175
-25.15
-25.125
-25.1
-25.075
-25.05
-25.025
-25
-24.975
-24.95
-24.925
-24.9
-24.875
-24.85
-24.825
-24.8
-24.775
-24.75
-24.725
-24.7
-24.675
-24.65
-24.625
-24.6
-24.575
-24.55
-24.525
-24.5
-24.475
-24.45
-24.425
-24.4
-24.375
-24.35
-24.325
-24.3
-24.275
-24.25
-24.225
-24.2
-24.175
-24.15
-24.125
-24.1
-24.075
-24.05
-24.025
-24
-23.975
-23.95
-23.925
-23.9
-23.875
-23.85
-23.825
-23.8
-23.775
-23.75
-23.725
-23.7
-23.675
-23.65
-23.625
-23.6
-23.575
-23.55
-23.525
-23.5
-23.475
-23.45
-23.425
-23.4
-23.375
-23.35
-23.325
-23.3
-23.275
-23.25
-23.225
-23.2
-23.175
-23.15
-23.125
-23.1
-23.075
-23.05
-23.025
-23
-22.975
-22.95
-22.925
-22.9
-22.875
-22.85
-22.825
-22.8
-22.775
-22.75
-22.725
-22.7
-22.675
-22.65
-22.625
-22.6
-22.575
-22.55
-22.525
-22.5
-22.475
-22.45
-22.425
-22.4
-22.375
-22.35
-22.325
-22.3
-22.275
-22.25
-22.225
-22.2
-22.175
-22.15
-22.125
-22.1
-22.075
-22.05
-22.025
-22
-21.975
-21.95
-21.925
-21.9
-21.875
-21.85
-21.825
-21.8
-21.775
-21.75
-21.725
-21.7
-21.675
-21.65
-21.625
-21.6
-21.575
-21.55
-21.525
-21.5
-21.475
-21.45
-21.425
-21.4
-21.375
-21.35
-21.325
-21.3
-21.275
-21.25
-21.225
-21.2
-21.175
-21.15
-21.125
-21.1
-21.075
-21.05
-21.025
-21
-20.975
-20.95
-20.925
-20.9
-20.875
-20.85
-20.825
-20.8
-20.775
-20.75
-20.725
-20.7
-20.675
-20.65
-20.625
-20.6
-20.575
-20.55
-20.525
-20.5
-20.475
-20.45
-20.425
-20.4
-20.375
-20.35
-20.325
-20.3
-20.275
-20.25
-20.225
-20.2
-20.175
-20.15
-20.125
-20.1
-20.075
-20.05
-20.025
-20
VAR_LIST_END
BEGIN
-15.860159,-149.18633
-14.43212,-155.59622
-15.319985,-156.93384
-15.124437,-160.86084
-14.217438,-160.87836
-15.353354,-167.77167
-14.62746,-158.86565
-15.255865,-160.89146
-17.009766,-162.49026
-14.361987,-159.03406
-14.57574,-161.11708
-14.41316,-161.48399
-15.118244,-160.36896
-16.092997,-156.04944
-14.266995,-159.90347
-15.140955,-160.02197
-14.335777,-155.83311
-15.565831,-155.96402
-14.613565,-157.18733
-15.621329,-156.2451
-14.801568,-157.39323
-16.061472,-161.16879
-15.596637,-159.76112
-15.025043,-162.59787
-14.642174,-159.42221
-14.901361,-162.35947
-15.116358,-152.05234
-14.80598,-167.79982
-15.195139,-163.52507
-15.337322,-156.35722
-14.064301,-163.27106
-15.104012,-156.66481
-15.123375,-159.11049
-15.419107,-161.63753
-15.821814,-155.90532
-15.066826,-160.49223
-14.341452,-158.67506
-15.688399,-160.7337
-15.783587,-162.82584
-15.761407,-157.15671
-14.641519,-144.83344
-15.68619,-159.65651
-15.428004,-153.25681
-14.290447,-161.75235
-14.894641,-157.9588
-14.559381,-164.08405
-14.686626,-162.25139
-15.809387,-154.065
-15.364686,-165.70393
-15.157393,-162.30125
-14.653493,-153.26065
-15.449026,-158.84505
-15.136497,-159.40706
-14.920472,-154.84442
-14.438807,-155.38948
-15.723854,-161.01057
-15.389641,-156.72169
-14.402723,-163.64911
-14.334966,-159.23492
-15.319677,-162.4326
-16.095083,-165.67506
-13.73439,-166.45053
-15.283759,-159.13599
-15.363351,-150.4223
-15.349813,-154.89473
-14.644748,-158.16093
-15.465988,-161.56483
-15.45209,-160.67201
-15.114817,-158.64716
-14.892035,-154.22159
-15.473929,-162.50226
-14.993758,-159.48753
-15.279712,-155.34706
-15.176552,-157.51877
-15.102802,-167.90982
-15.39803,-159.41116
-15.117059,-158.3002
-13.946859,-156.83659
-15.401867,-155.54355
-14.740833,-153.76511
-15.234191,-154.62094
-14.674308,-150.62593
-15.441208,-157.20389
-15.361889,-160.97716
-14.791559,-150.89507
-15.108541,-159.23561
-15.19176,-163.61418
-15.311619,-158.14743
-14.909231,-163.70447
-14.820324,-161.59908
-14.412534,-166.00562
-15.580999,-160.60617
-15.232347,-154.16992
-14.723283,-158.68546
-15.581969,-158.66936
-15.212082,-160.48929
-14.830946,-158.20322
-14.070151,-161.04271
-14.522146,-159.19087
-15.768489,-151.97466
-15.56929,-160.34721
-15.639364,-162.29808
-15.491875,-157.63744
-15.597094,-154.11647
-15.043365,-159.0509
-14.651793,-156.77737
-15.540429,-156.58244
-14.946206,-159.37065
-15.422218,-158.17052
-14.798938,-158.03311
-15.645674,-158.29994
-14.552999,-158.67049
-14.833623,-164.37683
-14.591185,-154.39061
-14.347956,-155.92331
-15.767543,-159.80937
-15.097918,-161.75104
-15.477846,-168.84608
-14.972424,-162.44583
-15.199541,-156.41754
-15.713592,-159.01334
-15.661238,-159.65805
-14.64226,-158.52264
-14.67212,-164.79387
-14.58849,-157.41985
-14.585434,-157.96539
-15.617577,-156.33005
-15.250335,-161.99242
-15.010013,-160.51085
-15.008648,-158.97093
-16.055212,-157.02342
-14.771678,-157.49767
-14.968556,-158.53877
-14.620378,-157.97
-14.226162,-160.3033
-14.843997,-163.19771
-14.414228,-161.86719
-16.019436,-162.98781
-14.489213,-156.42091
-14.647202,-155.02853
-14.989901,-160.47951
-15.718511,-161.27654
-15.062634,-155.3428
-15.316705,-160.79565
-14.565777,-160.61642
-15.382343,-159.66307
-15.207845,-161.9458
-15.779348,-158.45865
-14.906384,-160.58687
-15.615729,-153.66672
-14.958984,-167.72902
-14.911682,-160.24821
-14.844177,-157.85233
-15.487164,-161.50478
-15.651157,-163.27553
-14.877417,-162.76624
-15.282658,-159.33043
-15.46638,-165.30882
-15.056151,-164.30537
-16.191526,-153.7626
-14.662161,-156.19313
-14.627093,-161.97528
-15.179066,-161.48326
-15.970385,-164.85649
-15.462025,-162.11777
-14.639998,-160.41718
-14.369264,-163.91272
-13.961786,-156.75555
-14.7335,-163.02599
-14.868391,-158.98705
-15.783197,-155.21562
-15.441101,-157.8349
-15.335509,-157.63441
-14.42519,-159.16663
-15.308567,-156.68031
-15.100926,-160.83461
-14.587726,-160.3927
-14.866802,-160.10811
-14.844347,-161.08768
-15.917319,-163.18196
-13.880145,-158.36476
-15.67988,-163.19902
-15.194593,-158.96193
-16.110456,-167.70999
-14.294818,-160.21521
-15.620415,-159.02922
-14.388631,-159.31693
-15.001812,-160.51662
-15.046254,-160.62358
-14.465035,-160.94334
-15.045366,-156.42024
-15.250223,-156.10074
-16.256933,-159.40781
-15.141174,-159.12425
-15.142209,-159.29547
-15.04612,-159.56186
-15.434149,-158.32526
-16.211464,-156.84
-15.133466,-160.76463
-15.318344,-160.50047
-14.981997,-162.14822
-15.209977,-160.3676
-14.653941,-160.87662
-15.264923,-155.89635
-14.686497,-158.06874
-14.552088,-154.86621
-15.134012,-156.97615
-14.783001,-162.73207
-15.371491,-154.21362
-15.087941,-164.26688
-15.223987,-158.603
-14.410528,-155.66026
-14.819736,-158.62239
-14.780178,-156.86221
-14.741275,-158.93044
-14.39833,-158.07527
-14.819675,-160.20544
-14.468829,-159.82498
-15.337884,-159.02705
-15.106741,-160.48268
-15.008239,-156.60716
-14.515248,-160.71269
-14.888648,-156.30875
-15.096054,-156.86127
-14.804359,-158.37799
-15.034975,-158.01286
-14.957988,-163.56725
-14.685612,-156.00783
-14.971389,-157.32713
-14.922109,-164.22127
-14.643042,-160.89905
-15.482765,-157.27914
-14.512414,-158.77016
-15.499298,-158.26666
-15.23597,-160.52599
-15.152897,-160.48862
-15.364779,-159.27042
-15.623015,-158.02884
-14.833749,-161.1154
-14.959418,-159.07466
-14.803618,-156.88419
-15.453791,-157.4308
-14.791597,-159.84799
-14.939799,-157.98422
-14.871432,-160.71413
-15.345092,-159.13333
-15.482929,-163.29823
-15.678676,-163.80052
-15.362886,-154.39418
-15.131225,-158.56052
-14.966805,-162.28516
-15.299592,-161.0208
-14.894513,-163.19209
-15.233459,-157.54379
-14.674376,-160.9319
-14.797084,-158.16559
-15.013311,-158.57901
-14.867911,-158.6364
-15.430247,-159.58328
-14.752592,-157.74338
-14.559806,-159.78162
-15.383046,-155.94072
-15.284387,-156.68201
-14.683726,-159.85709
-14.962838,-159.44315
-15.334517,-159.3197
-14.819262,-160.31589
-14.799904,-155.25163
-14.938144,-162.79417
-15.152836,-156.82851
-15.48893,-160.22537
-15.435341,-160.47102
-14.672353,-159.40665
-14.98839,-160.44537
-15.057831,-157.80836
-15.085516,-161.87012
-14.806141,-160.37665
-15.135135,-157.58766
-14.870433,-160.16382
-15.216457,-159.29652
-15.231997,-161.36421
-14.335238,-159.87743
-14.526339,-160.76317
-15.496874,-157.20255
-14.939005,-156.3353
-15.34067,-160.55621
-15.53419,-160.45644
-15.252384,-161.79793
-14.932669,-157.82918
-15.380186,-163.79869
-15.325617,-160.25836
-15.29238,-161.48457
-15.350685,-155.51411
-14.951246,-161.07727
-14.82515,-159.67741
-14.776681,-157.51097
-15.364765,-157.85866
-15.443102,-158.79344
-14.983047,-163.31668
-14.778584,-162.20314
-14.623713,-156.94409
-15.478498,-158.71013
-14.973394,-157.89075
-15.17517,-158.276
-15.122094,-159.33493
-14.739176,-159.29044
-14.971491,-160.07899
-15.009711,-158.14259
-14.864664,-159.511
-14.733232,-159.18291
-15.130649,-157.42561
-14.831144,-162.00896
-15.987152,-156.71382
-15.120839,-158.63539
-14.853406,-157.86505
-15.394293,-158.15765
-15.2314,-162.40427
-14.610438,-162.12331
-14.146085,-158.73125
-15.641294,-157.53419
-15.098207,-161.90781
-15.048686,-157.42578
-14.793136,-157.1429
-14.570462,-161.02039
-15.163073,-163.76225
-15.066211,-159.4185
-14.96394,-158.61499
-15.166519,-159.46983
-15.287487,-156.95184
-15.25422,-158.5858
-15.098857,-157.13232
-15.132538,-157.41588
-15.365738,-161.42676
-15.33187,-159.09862
-14.965354,-156.10831
-15.103226,-161.21013
-15.275209,-159.56682
-14.860761,-157.84296
-14.583026,-157.37074
-14.963143,-160.41464
-14.942011,-161.17155
-14.886802,-158.11295
-15.153513,-159.9827
-15.384281,-158.66649
-14.834807,-157.34094
-14.662633,-160.65102
-14.936705,-159.09294
-14.540793,-161.42458
-15.128056,-160.56357
-15.210815,-159.51558
-15.06905,-157.91254
-14.589664,-158.19579
-15.126552,-159.32803
-14.683884,-160.54935
-15.608696,-160.40593
-14.695013,-160.47174
-14.960037,-159.6552
-15.302767,-159.17511
-14.49836,-160.9938
-14.722252,-161.05762
-14.489028,-159.46463
-15.167203,-157.27953
-14.949061,-160.83389
-15.1548,-157.71674
-15.104914,-156.12323
-15.601233,-160.98505
-15.006277,-159.53162
-15.268647,-156.68735
-14.630622,-159.66603
-15.226265,-159.50485
-14.915721,-160.62103
-14.780343,-159.87486
-15.016048,-157.57288
-15.194991,-160.10933
-14.881352,-157.71835
-15.193236,-158.06102
-15.396239,-157.97005
-15.04574,-159.87634
-15.153695,-159.35106
-15.136119,-159.80479
-15.068966,-158.79887
-14.722305,-158.85741
-14.900145,-160.76802
-15.15582,-159.58572
-15.114598,-161.89792
-15.102895,-159.37477
-15.181065,-157.32651
-14.98748,-160.80817
-15.046732,-160.38406
-14.989429,-158.64926
-14.922759,-157.25928
-15.257932,-158.63742
-15.183295,-155.35043
-15.162398,-161.8685
-15.063224,-160.10278
-14.860827,-161.34445
-14.959566,-159.09111
-15.481487,-159.49249
-15.029416,-160.93141
-15.015417,-162.18076
-14.958241,-158.02676
-15.109215,-159.34779
-15.350362,-160.61931
-15.060882,-158.75922
-15.419421,-157.70128
-14.904902,-161.4951
-14.737538,-156.74132
-14.611506,-160.21333
-15.018833,-156.53616
-15.123336,-158.61348
-15.055727,-158.34149
-15.070212,-159.46271
-14.878612,-160.6817
-15.471507,-157.64412
-14.993933,-160.23581
-14.864868,-158.25043
-15.231936,-159.33641
-14.762597,-158.66609
-15.054474,-159.45433
-14.490537,-159.4005
-14.783734,-158.77014
-15.324965,-159.80231
-14.772541,-158.36063
-15.017951,-158.5975
-14.883379,-159.96985
-15.163198,-159.86136
-14.973063,-161.35768
-15.178314,-157.92102
-15.229649,-157.68919
-15.190064,-158.61893
-14.994918,-160.63718
-15.165579,-158.73264
-15.010673,-159.6577
-15.320261,-159.41479
-14.782504,-158.21089
-15.300121,-159.11093
-15.328179,-158.81075
-15.055962,-158.57472
-15.268899,-158.22803
-15.180316,-157.58774
-15.350533,-156.9724
-14.745986,-158.14273
-14.78827,-159.82373
-15.045133,-159.09233
-15.160788,-158.49997
-14.937874,-160.64655
-15.358303,-160.56369
-14.866866,-158.25134
-14.921382,-159.53395
-15.218824,-161.72699
-15.305223,-157.97102
-14.849272,-157.52861
-15.072659,-160.53513
-15.167906,-159.23781
-15.272225,-159.47881
-14.784149,-157.43275
-14.955112,-158.0321
-15.249952,-159.84134
-15.35413,-159.46191
-14.929658,-156.53986
-14.861558,-160.01636
-15.181003,-156.79527
-15.118354,-161.87201
-14.952366,-158.72462
-14.922106,-160.27199
-15.207604,-159.61435
-15.001915,-160.08258
-15.373969,-161.30769
-14.785792,-158.79143
-15.133133,-159.00027
-14.841086,-161.3698
-15.251445,-158.73718
-14.736263,-157.51228
-15.198394,-157.45418
-14.754704,-158.78284
-15.128103,-160.74336
-15.082466,-159.10489
-14.855773,-159.5573
-15.374712,-160.31161
-15.16275,-156.95338
-15.249027,-158.25633
-14.895788,-159.07225
-15.208177,-159.46677
-15.513721,-158.48257
-15.30437,-159.34402
-14.875498,-159.455
-15.045515,-158.54388
-15.330341,-156.61333
-14.749714,-158.97942
-15.235419,-160.54553
-15.011792,-160.52251
-14.992965,-158.9502
-15.125041,-157.39844
-14.956544,-159.93481
-15.071539,-157.60582
-15.208972,-158.24896
-15.016477,-160.57597
-14.885486,-160.5836
-15.290071,-159.92067
-15.217422,-159.0575
-15.309208,-159.19687
-15.115753,-159.507
-15.091942,-159.85773
-15.395877,-158.09766
-15.161002,-160.73979
-15.041434,-160.06137
-14.768999,-155.65575
-15.099365,-159.87015
-15.054542,-157.76993
-15.256707,-160.67657
-14.694287,-158.29675
-14.816909,-159.37889
-15.317167,-160.91483
-15.020335,-159.88861
-14.533152,-159.1505
-15.298873,-160.9335
-15.307167,-161.40135
-15.05838,-158.16505
-15.252158,-158.62894
-14.798473,-157.75504
-14.606885,-160.60727
-15.040345,-162.57742
-15.12638,-156.88914
-15.294098,-160.41936
-15.254052,-159.20877
-15.089001,-159.84265
-14.766002,-158.95197
-14.838396,-159.95567
-15.316046,-157.72913
-14.818253,-160.44916
-15.344905,-158.13005
-14.859232,-158.99773
-15.167422,-159.86131
-15.059232,-158.51871
-15.066872,-159.99043
-15.115659,-158.86121
-15.096597,-158.46622
-15.168182,-158.60764
-14.930462,-159.85132
-15.017675,-156.29735
-15.339848,-157.64124
-14.826968,-158.4595
-15.144002,-158.91206
-14.975645,-159.72319
-14.766985,-158.66995
-15.204973,-159.04175
-15.148611,-159.38945
-15.051455,-160.50356
-14.946887,-159.23595
-15.254707,-161.05768
-15.101349,-160.1581
-15.011366,-157.63214
-14.812076,-159.51109
-14.950882,-158.13072
-15.286416,-158.1333
-14.906051,-159.75786
-15.014903,-159.51781
-15.360223,-160.50313
-14.869192,-159.3149
-15.081241,-159.04001
-15.210479,-157.47812
-15.121705,-159.74387
-15.004835,-158.54269
-15.126681,-159.62932
-15.222808,-159.51161
-15.125666,-159.39284
-15.204624,-160.16083
-15.098289,-159.49678
-15.130454,-158.41672
-15.173001,-158.00835
-14.875656,-160.03197
-15.356915,-158.79622
-14.775327,-158.7475
-15.087253,-159.36922
-15.318295,-159.1698
