CITIFILE A.01.01
!Agilent Technologies,N5230C,MY48100142,A.08.04.10
!Agilent N5230C: A.08.04.10
!Format: LogMag/Angle
!Date: Monday, September 14, 2020 15:22:46
NAME CH1_DATA
VAR Power MAG 801
DATA S11 DBANGLE
DATA S21 DBANGLE
DATA S12 DBANGLE
DATA S22 DBANGLE
VAR_LIST_BEGIN
-40
-39.975
-39.95
-39.925
-39.9
-39.875
-39.85
-39.825
-39.8
-39.775
-39.75
-39.725
-39.7
-39.675
-39.65
-39.625
-39.6
-39.575
-39.55
-39.525
-39.5
-39.475
-39.45
-39.425
-39.4
-39.375
-39.35
-39.325
-39.3
-39.275
-39.25
-39.225
-39.2
-39.175
-39.15
-39.125
-39.1
-39.075
-39.05
-39.025
-39
-38.975
-38.95
-38.925
-38.9
-38.875
-38.85
-38.825
-38.8
-38.775
-38.75
-38.725
-38.7
-38.675
-38.65
-38.625
-38.6
-38.575
-38.55
-38.525
-38.5
-38.475
-38.45
-38.425
-38.4
-38.375
-38.35
-38.325
-38.3
-38.275
-38.25
-38.225
-38.2
-38.175
-38.15
-38.125
-38.1
-38.075
-38.05
-38.025
-38
-37.975
-37.95
-37.925
-37.9
-37.875
-37.85
-37.825
-37.8
-37.775
-37.75
-37.725
-37.7
-37.675
-37.65
-37.625
-37.6
-37.575
-37.55
-37.525
-37.5
-37.475
-37.45
-37.425
-37.4
-37.375
-37.35
-37.325
-37.3
-37.275
-37.25
-37.225
-37.2
-37.175
-37.15
-37.125
-37.1
-37.075
-37.05
-37.025
-37
-36.975
-36.95
-36.925
-36.9
-36.875
-36.85
-36.825
-36.8
-36.775
-36.75
-36.725
-36.7
-36.675
-36.65
-36.625
-36.6
-36.575
-36.55
-36.525
-36.5
-36.475
-36.45
-36.425
-36.4
-36.375
-36.35
-36.325
-36.3
-36.275
-36.25
-36.225
-36.2
-36.175
-36.15
-36.125
-36.1
-36.075
-36.05
-36.025
-36
-35.975
-35.95
-35.925
-35.9
-35.875
-35.85
-35.825
-35.8
-35.775
-35.75
-35.725
-35.7
-35.675
-35.65
-35.625
-35.6
-35.575
-35.55
-35.525
-35.5
-35.475
-35.45
-35.425
-35.4
-35.375
-35.35
-35.325
-35.3
-35.275
-35.25
-35.225
-35.2
-35.175
-35.15
-35.125
-35.1
-35.075
-35.05
-35.025
-35
-34.975
-34.95
-34.925
-34.9
-34.875
-34.85
-34.825
-34.8
-34.775
-34.75
-34.725
-34.7
-34.675
-34.65
-34.625
-34.6
-34.575
-34.55
-34.525
-34.5
-34.475
-34.45
-34.425
-34.4
-34.375
-34.35
-34.325
-34.3
-34.275
-34.25
-34.225
-34.2
-34.175
-34.15
-34.125
-34.1
-34.075
-34.05
-34.025
-34
-33.975
-33.95
-33.925
-33.9
-33.875
-33.85
-33.825
-33.8
-33.775
-33.75
-33.725
-33.7
-33.675
-33.65
-33.625
-33.6
-33.575
-33.55
-33.525
-33.5
-33.475
-33.45
-33.425
-33.4
-33.375
-33.35
-33.325
-33.3
-33.275
-33.25
-33.225
-33.2
-33.175
-33.15
-33.125
-33.1
-33.075
-33.05
-33.025
-33
-32.975
-32.95
-32.925
-32.9
-32.875
-32.85
-32.825
-32.8
-32.775
-32.75
-32.725
-32.7
-32.675
-32.65
-32.625
-32.6
-32.575
-32.55
-32.525
-32.5
-32.475
-32.45
-32.425
-32.4
-32.375
-32.35
-32.325
-32.3
-32.275
-32.25
-32.225
-32.2
-32.175
-32.15
-32.125
-32.1
-32.075
-32.05
-32.025
-32
-31.975
-31.95
-31.925
-31.9
-31.875
-31.85
-31.825
-31.8
-31.775
-31.75
-31.725
-31.7
-31.675
-31.65
-31.625
-31.6
-31.575
-31.55
-31.525
-31.5
-31.475
-31.45
-31.425
-31.4
-31.375
-31.35
-31.325
-31.3
-31.275
-31.25
-31.225
-31.2
-31.175
-31.15
-31.125
-31.1
-31.075
-31.05
-31.025
-31
-30.975
-30.95
-30.925
-30.9
-30.875
-30.85
-30.825
-30.8
-30.775
-30.75
-30.725
-30.7
-30.675
-30.65
-30.625
-30.6
-30.575
-30.55
-30.525
-30.5
-30.475
-30.45
-30.425
-30.4
-30.375
-30.35
-30.325
-30.3
-30.275
-30.25
-30.225
-30.2
-30.175
-30.15
-30.125
-30.1
-30.075
-30.05
-30.025
-30
-29.975
-29.95
-29.925
-29.9
-29.875
-29.85
-29.825
-29.8
-29.775
-29.75
-29.725
-29.7
-29.675
-29.65
-29.625
-29.6
-29.575
-29.55
-29.525
-29.5
-29.475
-29.45
-29.425
-29.4
-29.375
-29.35
-29.325
-29.3
-29.275
-29.25
-29.225
-29.2
-29.175
-29.15
-29.125
-29.1
-29.075
-29.05
-29.025
-29
-28.975
-28.95
-28.925
-28.9
-28.875
-28.85
-28.825
-28.8
-28.775
-28.75
-28.725
-28.7
-28.675
-28.65
-28.625
-28.6
-28.575
-28.55
-28.525
-28.5
-28.475
-28.45
-28.425
-28.4
-28.375
-28.35
-28.325
-28.3
-28.275
-28.25
-28.225
-28.2
-28.175
-28.15
-28.125
-28.1
-28.075
-28.05
-28.025
-28
-27.975
-27.95
-27.925
-27.9
-27.875
-27.85
-27.825
-27.8
-27.775
-27.75
-27.725
-27.7
-27.675
-27.65
-27.625
-27.6
-27.575
-27.55
-27.525
-27.5
-27.475
-27.45
-27.425
-27.4
-27.375
-27.35
-27.325
-27.3
-27.275
-27.25
-27.225
-27.2
-27.175
-27.15
-27.125
-27.1
-27.075
-27.05
-27.025
-27
-26.975
-26.95
-26.925
-26.9
-26.875
-26.85
-26.825
-26.8
-26.775
-26.75
-26.725
-26.7
-26.675
-26.65
-26.625
-26.6
-26.575
-26.55
-26.525
-26.5
-26.475
-26.45
-26.425
-26.4
-26.375
-26.35
-26.325
-26.3
-26.275
-26.25
-26.225
-26.2
-26.175
-26.15
-26.125
-26.1
-26.075
-26.05
-26.025
-26
-25.975
-25.95
-25.925
-25.9
-25.875
-25.85
-25.825
-25.8
-25.775
-25.75
-25.725
-25.7
-25.675
-25.65
-25.625
-25.6
-25.575
-25.55
-25.525
-25.5
-25.475
-25.45
-25.425
-25.4
-25.375
-25.35
-25.325
-25.3
-25.275
-25.25
-25.225
-25.2
-25.175
-25.15
-25.125
-25.1
-25.075
-25.05
-25.025
-25
-24.975
-24.95
-24.925
-24.9
-24.875
-24.85
-24.825
-24.8
-24.775
-24.75
-24.725
-24.7
-24.675
-24.65
-24.625
-24.6
-24.575
-24.55
-24.525
-24.5
-24.475
-24.45
-24.425
-24.4
-24.375
-24.35
-24.325
-24.3
-24.275
-24.25
-24.225
-24.2
-24.175
-24.15
-24.125
-24.1
-24.075
-24.05
-24.025
-24
-23.975
-23.95
-23.925
-23.9
-23.875
-23.85
-23.825
-23.8
-23.775
-23.75
-23.725
-23.7
-23.675
-23.65
-23.625
-23.6
-23.575
-23.55
-23.525
-23.5
-23.475
-23.45
-23.425
-23.4
-23.375
-23.35
-23.325
-23.3
-23.275
-23.25
-23.225
-23.2
-23.175
-23.15
-23.125
-23.1
-23.075
-23.05
-23.025
-23
-22.975
-22.95
-22.925
-22.9
-22.875
-22.85
-22.825
-22.8
-22.775
-22.75
-22.725
-22.7
-22.675
-22.65
-22.625
-22.6
-22.575
-22.55
-22.525
-22.5
-22.475
-22.45
-22.425
-22.4
-22.375
-22.35
-22.325
-22.3
-22.275
-22.25
-22.225
-22.2
-22.175
-22.15
-22.125
-22.1
-22.075
-22.05
-22.025
-22
-21.975
-21.95
-21.925
-21.9
-21.875
-21.85
-21.825
-21.8
-21.775
-21.75
-21.725
-21.7
-21.675
-21.65
-21.625
-21.6
-21.575
-21.55
-21.525
-21.5
-21.475
-21.45
-21.425
-21.4
-21.375
-21.35
-21.325
-21.3
-21.275
-21.25
-21.225
-21.2
-21.175
-21.15
-21.125
-21.1
-21.075
-21.05
-21.025
-21
-20.975
-20.95
-20.925
-20.9
-20.875
-20.85
-20.825
-20.8
-20.775
-20.75
-20.725
-20.7
-20.675
-20.65
-20.625
-20.6
-20.575
-20.55
-20.525
-20.5
-20.475
-20.45
-20.425
-20.4
-20.375
-20.35
-20.325
-20.3
-20.275
-20.25
-20.225
-20.2
-20.175
-20.15
-20.125
-20.1
-20.075
-20.05
-20.025
-20
VAR_LIST_END
BEGIN
-14.761441,-159.81506
-15.20239,-162.04985
-14.789423,-158.85815
-14.856834,-154.54234
-13.859923,-154.00682
-14.955563,-146.38603
-14.828219,-157.63405
-15.172735,-156.83157
-15.506573,-150.59586
-14.198155,-164.78249
-16.448458,-161.43105
-13.308055,-170.7054
-14.50422,-155.79121
-17.062754,-163.89839
-14.815073,-164.43146
-15.446942,-153.70142
-16.21026,-153.77632
-14.405622,-162.15472
-13.912971,-159.85864
-14.382071,-153.76857
-14.804346,-154.94868
-15.340432,-156.87111
-15.752954,-166.09265
-14.074531,-156.07021
-13.656208,-162.62631
-14.743758,-155.55518
-13.906919,-164.2663
-15.543756,-160.79317
-15.120249,-157.15929
-15.903517,-163.05414
-14.819735,-156.42181
-15.101167,-153.30383
-15.171973,-158.23486
-15.411721,-156.71013
-14.068906,-160.36272
-14.288118,-161.681
-14.607943,-164.98994
-15.624288,-169.8004
-15.180346,-157.04294
-14.135331,-159.37132
-15.695967,-150.78627
-16.029779,-158.93195
-14.272243,-152.55496
-13.931082,-167.713
-15.631523,-156.18759
-14.914437,-161.10603
-15.225266,-155.57599
-13.796875,-159.61131
-14.876089,-157.19127
-15.980329,-162.39644
-14.565667,-149.49239
-14.838227,-159.60773
-17.095215,-155.67885
-15.10397,-159.55054
-15.070916,-152.58792
-15.945823,-161.1306
-15.327536,-162.19518
-14.37034,-168.74048
-16.143799,-152.14697
-16.115747,-167.20576
-14.409409,-154.84866
-14.600663,-164.35271
-15.26657,-159.15315
-15.551002,-155.43959
-15.182233,-159.56703
-15.042543,-160.34651
-15.182442,-163.42155
-15.397602,-166.20393
-15.821959,-157.19717
-14.942491,-172.23198
-15.6346,-158.42639
-15.606147,-158.16531
-17.125381,-155.14377
-15.304309,-158.44952
-15.821219,-154.81233
-15.359265,-160.90494
-14.445811,-164.68842
-14.59302,-157.68109
-15.804587,-157.87912
-15.069451,-160.16621
-14.862754,-154.88121
-15.831906,-155.80348
-15.376117,-159.01863
-15.653865,-160.55688
-14.408737,-161.25749
-14.783312,-148.40788
-14.179659,-155.10413
-14.199876,-162.81494
-15.024632,-158.86031
-14.382893,-155.77373
-14.663852,-165.34103
-16.039595,-159.64151
-13.740299,-162.06786
-15.841936,-154.22438
-15.609667,-162.51825
-14.564095,-157.32066
-14.355595,-163.78741
-15.785737,-154.66855
-15.718442,-156.87715
-15.634977,-162.71886
-15.473143,-162.60699
-15.038281,-158.42505
-15.869575,-152.75595
-16.7834,-159.09062
-14.994647,-169.6227
-15.705228,-163.24937
-15.199179,-166.29483
-14.277875,-156.81151
-14.929111,-154.3578
-15.35668,-158.9637
-15.435372,-168.19388
-14.710115,-168.32887
-14.756793,-151.10443
-14.743333,-162.21762
-14.652355,-165.68753
-14.606907,-166.08144
-14.78975,-164.27785
-15.877587,-154.38428
-14.939821,-163.78766
-16.461473,-162.36403
-14.489526,-164.27109
-15.619071,-167.54724
-14.788588,-159.52431
-14.380942,-159.80051
-14.824277,-159.17944
-14.788034,-160.07625
-14.681631,-163.32898
-14.598652,-160.08046
-14.016071,-163.47522
-14.385558,-153.88736
-14.842155,-160.98575
-14.133921,-150.37021
-14.442249,-160.46933
-14.732285,-162.30092
-15.386339,-166.13029
-14.402865,-163.02193
-14.464029,-159.90337
-15.826705,-158.53331
-15.461693,-155.57262
-15.380116,-153.87843
-14.080033,-156.46758
-14.873137,-156.32425
-14.958191,-153.47556
-14.410946,-157.29106
-16.102367,-159.99377
-15.123419,-163.4549
-14.100869,-160.59904
-16.153944,-156.40686
-14.912071,-159.74049
-14.970878,-148.05893
-15.555335,-159.26018
-15.465883,-160.20654
-15.150613,-165.08719
-14.653936,-150.85562
-15.938776,-154.32535
-16.159908,-156.75047
-15.329761,-158.39517
-14.861378,-163.6579
-15.362181,-157.70483
-15.121092,-159.51314
-15.884156,-148.02943
-15.341765,-154.78348
-14.576451,-161.81833
-14.9762,-159.40384
-15.506085,-161.27716
-15.124085,-162.94821
-15.040724,-158.46071
-14.73539,-162.88838
-15.174838,-158.285
-15.119967,-161.01981
-15.24929,-158.22806
-14.375702,-157.06189
-15.464767,-158.55202
-14.693542,-158.42235
-15.351319,-157.99757
-14.951602,-156.19403
-14.891094,-160.58289
-14.737611,-162.55518
-15.549337,-162.39146
-14.884598,-160.14323
-15.236112,-160.69388
-15.249909,-159.16782
-15.271467,-165.64275
-14.685442,-164.82391
-15.499724,-155.92657
-15.072203,-156.7074
-14.752964,-160.13841
-15.385609,-163.01146
-14.464199,-153.28191
-14.330312,-156.73135
-15.195451,-153.18309
-15.029667,-157.15106
-15.774587,-150.69354
-14.825023,-158.43494
-16.081636,-167.94142
-14.446331,-168.00031
-15.234888,-156.23265
-14.453156,-159.77444
-15.776017,-163.46121
-15.140547,-162.22552
-15.189441,-160.42188
-15.379582,-161.92543
-14.638414,-158.61357
-15.035283,-164.73483
-14.314068,-167.70114
-14.589765,-160.14198
-14.512153,-160.23906
-14.703814,-159.65112
-15.157411,-164.31789
-15.343382,-152.29318
-14.347481,-155.26738
-14.244119,-159.36967
-16.322367,-154.89923
-14.939271,-162.25763
-15.888311,-159.29395
-14.955479,-163.20625
-14.380949,-154.7674
-14.690547,-161.54395
-15.497394,-160.98708
-15.634235,-161.20352
-15.224798,-157.07942
-15.33805,-162.79736
-14.868897,-161.49756
-14.926837,-159.39661
-15.020339,-159.29951
-13.841249,-163.0667
-14.957352,-155.26915
-15.067776,-163.11285
-15.460215,-159.67476
-14.426208,-161.17036
-15.406182,-166.52403
-14.726718,-151.8195
-14.860619,-158.66455
-15.453547,-156.06482
-14.889389,-164.9772
-14.816498,-158.60699
-14.993051,-163.09056
-14.85157,-161.20078
-15.607591,-159.76323
-14.737049,-156.31952
-14.518095,-164.403
-14.621317,-157.60809
-15.454493,-153.30211
-15.484727,-157.51274
-15.537623,-156.74031
-15.148242,-161.90302
-15.643951,-156.25255
-15.145711,-162.6911
-15.65118,-159.45309
-15.010588,-159.85983
-14.870855,-161.62923
-14.847961,-161.72937
-14.6405,-154.12668
-15.014531,-157.57614
-15.715381,-160.35104
-14.609476,-156.88229
-14.877268,-160.33301
-15.326237,-156.88837
-15.599237,-163.18047
-14.376457,-160.56052
-14.939348,-161.96773
-14.892941,-154.83182
-15.148259,-156.80127
-15.446761,-155.97708
-15.846392,-166.31134
-15.544914,-157.12947
-15.349567,-161.22682
-15.422486,-156.01881
-14.957282,-157.64534
-15.886471,-160.89445
-14.498527,-161.83949
-15.040582,-160.95818
-14.594598,-163.18141
-14.542719,-154.44055
-14.856457,-156.48999
-14.516949,-163.03957
-15.010115,-163.03625
-14.7658,-162.15758
-15.659066,-161.1618
-15.326988,-158.2377
-14.950998,-163.84779
-14.464964,-160.29645
-14.839025,-156.68513
-14.844699,-157.64731
-15.079459,-159.39494
-15.244251,-156.84532
-15.013152,-158.97235
-15.162845,-154.64709
-14.384573,-156.61649
-15.160233,-157.21054
-15.070029,-157.40967
-14.880327,-161.26953
-15.493793,-157.73973
-15.068423,-155.41678
-14.984647,-158.18597
-14.297815,-162.18044
-14.805016,-158.68968
-15.515633,-158.06189
-15.243096,-159.50749
-15.56871,-162.00372
-15.153099,-155.78499
-14.963801,-158.85187
-15.67459,-157.78287
-14.794848,-158.75148
-15.174711,-155.21603
-14.478494,-160.58965
-15.143655,-167.86803
-15.559932,-159.22714
-14.957211,-157.10069
-14.694032,-160.04094
-14.469613,-156.47456
-15.141291,-160.12567
-15.090858,-161.15582
-15.250209,-160.49728
-15.195242,-158.43028
-15.196383,-162.07553
-14.923881,-162.04022
-14.6375,-161.19141
-14.53381,-157.73708
-15.265093,-161.18205
-15.597124,-157.72105
-14.425474,-158.45999
-14.558757,-155.64835
-14.871282,-157.3123
-14.613431,-152.61977
-15.467168,-155.72391
-15.049327,-159.78014
-14.599255,-158.07596
-14.982324,-158.66978
-14.948325,-161.64949
-14.799809,-160.30351
-14.852957,-161.52443
-14.922195,-160.04213
-15.190931,-159.8015
-15.605303,-153.78343
-14.915031,-161.25359
-15.320317,-165.55382
-15.430099,-154.12315
-15.990656,-156.64093
-15.311964,-153.99698
-14.733244,-162.09846
-15.053645,-156.73427
-15.115464,-160.54919
-14.787267,-158.83589
-14.905716,-161.73561
-15.50416,-162.52773
-15.317165,-157.63184
-14.834156,-155.57986
-15.099809,-163.255
-15.348384,-157.42749
-15.351426,-156.85367
-14.610342,-160.09914
-15.421403,-157.69086
-14.668545,-159.00444
-15.296394,-157.11752
-14.933634,-156.45313
-15.351959,-160.79271
-14.791514,-160.20039
-14.728461,-161.1891
-15.020126,-155.50276
-14.617812,-159.11894
-14.679896,-159.60526
-14.613087,-161.04144
-15.35529,-157.06889
-15.289197,-157.75072
-15.026985,-157.80937
-15.397182,-159.85951
-14.91731,-157.45505
-14.418172,-160.76143
-15.279819,-160.58127
-14.867638,-158.13576
-14.940119,-155.95905
-14.952325,-156.98763
-15.271235,-159.49103
-15.251228,-162.66837
-14.735303,-158.75789
-15.418521,-162.73795
-15.220927,-160.11092
-14.784918,-160.36876
-15.022206,-159.36476
-15.564219,-157.17505
-15.09411,-159.58514
-15.630968,-159.19214
-15.227273,-160.6235
-15.491781,-158.55566
-15.239106,-157.77682
-15.243152,-159.05479
-14.768498,-160.1441
-15.115353,-156.99902
-14.78707,-160.30713
-14.778365,-163.02386
-15.256762,-154.72421
-15.096357,-160.26212
-15.698009,-155.51483
-14.823735,-154.75421
-15.41654,-161.43341
-14.828089,-158.00804
-15.28098,-157.33835
-15.142513,-154.78786
-14.838252,-157.98384
-15.172254,-162.19223
-15.284131,-158.94366
-15.098722,-156.68494
-14.709717,-157.02565
-15.062401,-161.04271
-15.539392,-155.65579
-14.922543,-160.25827
-15.557863,-157.43066
-14.900404,-159.70914
-14.617443,-160.38289
-14.857395,-159.96498
-14.501277,-160.03056
-15.200311,-159.61847
-14.859822,-160.44196
-15.077711,-158.0929
-15.006415,-156.01939
-15.388892,-159.77255
-15.143296,-159.95325
-15.002254,-159.45898
-15.28344,-160.00117
-14.634223,-161.86156
-14.831583,-159.77225
-14.92734,-160.62799
-15.278255,-159.64603
-14.754622,-158.87363
-14.899675,-161.64275
-14.843297,-159.15637
-15.18154,-157.54059
-15.211288,-158.802
-15.124826,-159.22101
-15.288907,-158.9912
-14.78764,-156.88509
-14.45844,-158.09465
-15.331875,-156.28448
-15.315134,-161.58884
-15.199735,-157.11896
-14.936867,-158.98636
-15.331778,-162.94255
-15.635161,-161.51691
-15.118397,-160.70502
-14.846611,-160.2021
-15.13401,-157.46912
-14.947096,-157.07986
-15.04079,-160.80235
-14.5532,-158.80383
-15.150733,-160.97911
-14.934699,-160.48289
-14.578153,-157.67273
-15.255118,-161.05899
-15.01125,-159.51546
-15.118984,-159.93871
-15.20715,-157.5753
-14.558857,-157.97621
-15.129376,-158.78163
-14.742639,-155.39444
-14.718629,-163.1384
-15.53133,-160.01907
-14.744052,-162.67871
-14.754608,-158.51355
-14.935726,-160.90251
-14.77519,-161.14487
-15.156292,-156.85457
-15.015662,-158.44717
-15.048153,-158.68053
-15.539948,-160.18158
-15.296435,-155.74203
-14.949745,-162.10706
-15.244396,-155.85043
-15.657993,-157.92793
-14.641814,-163.86218
-15.311364,-157.03395
-15.254081,-160.46115
-14.759392,-157.86404
-15.360628,-157.18141
-15.522434,-159.91772
-15.294396,-158.36357
-15.440784,-158.99574
-14.965087,-157.88791
-14.477169,-160.97626
-14.771913,-160.93245
-15.172789,-159.45078
-15.143021,-161.40111
-15.375398,-158.10829
-15.062443,-160.68466
-15.347994,-158.64052
-15.339811,-157.92598
-15.369101,-160.04395
-14.93687,-160.31291
-15.344494,-157.33795
-15.675825,-158.74515
-14.933328,-160.40207
-15.254056,-159.80212
-14.825663,-159.60168
-14.756681,-159.18384
-15.341409,-161.73444
-14.96116,-159.25937
-14.699232,-157.92615
-14.976172,-158.60544
-15.16859,-159.26846
-15.120791,-159.53815
-14.993602,-159.62343
-15.246501,-159.21262
-15.433328,-160.3902
-15.195517,-159.86307
-15.366885,-158.8287
-15.170658,-159.45544
-14.612184,-159.29738
-15.220684,-157.24719
-15.039042,-158.51161
-15.313107,-160.94861
-15.004603,-160.43034
-14.922085,-159.99384
-15.115462,-158.7487
-14.859164,-157.45009
-15.365943,-160.56511
-15.135453,-157.91934
-14.745226,-159.0907
-14.987108,-157.81242
-15.106911,-158.54477
-15.279849,-159.60361
-15.318824,-158.52603
-15.190745,-160.79942
-14.70551,-160.01564
-14.9476,-160.40033
-14.968596,-161.11052
-15.598934,-157.45891
-15.067134,-159.06029
-15.052069,-159.65309
-14.836061,-160.90198
-15.317617,-161.04088
-15.003483,-159.82603
-15.061512,-161.14069
-15.133048,-159.34889
-15.111664,-159.8327
-14.931408,-160.63799
-15.099539,-158.38811
-14.74892,-157.11986
-14.972651,-161.96486
-15.131881,-159.45291
-14.878396,-157.16675
-15.181259,-160.47615
-15.173708,-156.72905
-15.261001,-158.66814
-15.289532,-159.42815
-14.796397,-159.15619
-15.201647,-158.06555
-15.387666,-159.04976
-15.038617,-158.20375
-15.004025,-157.24704
-15.216026,-159.52097
-14.990968,-159.4556
-15.278131,-161.12115
-14.859068,-157.3037
-15.128114,-162.10297
-15.024126,-160.0629
-15.082574,-157.94209
-14.988082,-157.31242
-15.1835,-157.07916
-15.410271,-161.56973
-15.01857,-158.71266
-15.187539,-158.17171
-15.190426,-157.34244
-15.284611,-158.8952
-15.050982,-158.94371
-14.989686,-159.3876
-15.043597,-159.50201
-15.076332,-158.73389
-14.964302,-161.28571
-15.097649,-158.80949
-15.225829,-160.59267
-15.184424,-158.80322
-15.214811,-159.07581
-15.508551,-159.01698
-14.954985,-158.07321
-15.122804,-159.29793
