CITIFILE A.01.01
!Agilent Technologies,N5230C,MY48100142,A.08.04.10
!Agilent N5230C: A.08.04.10
!Format: LogMag/Angle
!Date: Thursday, July 30, 2020 12:14:29
NAME CH1_DATA
VAR Freq MAG 801
DATA S11 DBANGLE
DATA S21 DBANGLE
DATA S12 DBANGLE
DATA S22 DBANGLE
VAR_LIST_BEGIN
3280000000
3292150000
3304300000
3316450000
3328600000
3340750000
3352900000
3365050000
3377200000
3389350000
3401500000
3413650000
3425800000
3437950000
3450100000
3462250000
3474400000
3486550000
3498700000
3510850000
3523000000
3535150000
3547300000
3559450000
3571600000
3583750000
3595900000
3608050000
3620200000
3632350000
3644500000
3656650000
3668800000
3680950000
3693100000
3705250000
3717400000
3729550000
3741700000
3753850000
3766000000
3778150000
3790300000
3802450000
3814600000
3826750000
3838900000
3851050000
3863200000
3875350000
3887500000
3899650000
3911800000
3923950000
3936100000
3948250000
3960400000
3972550000
3984700000
3996850000
4009000000
4021150000
4033300000
4045450000
4057600000
4069750000
4081900000
4094050000
4106200000
4118350000
4130500000
4142650000
4154800000
4166950000
4179100000
4191250000
4203400000
4215550000
4227700000
4239850000
4252000000
4264150000
4276300000
4288450000
4300600000
4312750000
4324900000
4337050000
4349200000
4361350000
4373500000
4385650000
4397800000
4409950000
4422100000
4434250000
4446400000
4458550000
4470700000
4482850000
4495000000
4507150000
4519300000
4531450000
4543600000
4555750000
4567900000
4580050000
4592200000
4604350000
4616500000
4628650000
4640800000
4652950000
4665100000
4677250000
4689400000
4701550000
4713700000
4725850000
4738000000
4750150000
4762300000
4774450000
4786600000
4798750000
4810900000
4823050000
4835200000
4847350000
4859500000
4871650000
4883800000
4895950000
4908100000
4920250000
4932400000
4944550000
4956700000
4968850000
4981000000
4993150000
5005300000
5017450000
5029600000
5041750000
5053900000
5066050000
5078200000
5090350000
5102500000
5114650000
5126800000
5138950000
5151100000
5163250000
5175400000
5187550000
5199700000
5211850000
5224000000
5236150000
5248300000
5260450000
5272600000
5284750000
5296900000
5309050000
5321200000
5333350000
5345500000
5357650000
5369800000
5381950000
5394100000
5406250000
5418400000
5430550000
5442700000
5454850000
5467000000
5479150000
5491300000
5503450000
5515600000
5527750000
5539900000
5552050000
5564200000
5576350000
5588500000
5600650000
5612800000
5624950000
5637100000
5649250000
5661400000
5673550000
5685700000
5697850000
5710000000
5722150000
5734300000
5746450000
5758600000
5770750000
5782900000
5795050000
5807200000
5819350000
5831500000
5843650000
5855800000
5867950000
5880100000
5892250000
5904400000
5916550000
5928700000
5940850000
5953000000
5965150000
5977300000
5989450000
6001600000
6013750000
6025900000
6038050000
6050200000
6062350000
6074500000
6086650000
6098800000
6110950000
6123100000
6135250000
6147400000
6159550000
6171700000
6183850000
6196000000
6208150000
6220300000
6232450000
6244600000
6256750000
6268900000
6281050000
6293200000
6305350000
6317500000
6329650000
6341800000
6353950000
6366100000
6378250000
6390400000
6402550000
6414700000
6426850000
6439000000
6451150000
6463300000
6475450000
6487600000
6499750000
6511900000
6524050000
6536200000
6548350000
6560500000
6572650000
6584800000
6596950000
6609100000
6621250000
6633400000
6645550000
6657700000
6669850000
6682000000
6694150000
6706300000
6718450000
6730600000
6742750000
6754900000
6767050000
6779200000
6791350000
6803500000
6815650000
6827800000
6839950000
6852100000
6864250000
6876400000
6888550000
6900700000
6912850000
6925000000
6937150000
6949300000
6961450000
6973600000
6985750000
6997900000
7010050000
7022200000
7034350000
7046500000
7058650000
7070800000
7082950000
7095100000
7107250000
7119400000
7131550000
7143700000
7155850000
7168000000
7180150000
7192300000
7204450000
7216600000
7228750000
7240900000
7253050000
7265200000
7277350000
7289500000
7301650000
7313800000
7325950000
7338100000
7350250000
7362400000
7374550000
7386700000
7398850000
7411000000
7423150000
7435300000
7447450000
7459600000
7471750000
7483900000
7496050000
7508200000
7520350000
7532500000
7544650000
7556800000
7568950000
7581100000
7593250000
7605400000
7617550000
7629700000
7641850000
7654000000
7666150000
7678300000
7690450000
7702600000
7714750000
7726900000
7739050000
7751200000
7763350000
7775500000
7787650000
7799800000
7811950000
7824100000
7836250000
7848400000
7860550000
7872700000
7884850000
7897000000
7909150000
7921300000
7933450000
7945600000
7957750000
7969900000
7982050000
7994200000
8006350000
8018500000
8030650000
8042800000
8054950000
8067100000
8079250000
8091400000
8103550000
8115700000
8127850000
8140000000
8152150000
8164300000
8176450000
8188600000
8200750000
8212900000
8225050000
8237200000
8249350000
8261500000
8273650000
8285800000
8297950000
8310100000
8322250000
8334400000
8346550000
8358700000
8370850000
8383000000
8395150000
8407300000
8419450000
8431600000
8443750000
8455900000
8468050000
8480200000
8492350000
8504500000
8516650000
8528800000
8540950000
8553100000
8565250000
8577400000
8589550000
8601700000
8613850000
8626000000
8638150000
8650300000
8662450000
8674600000
8686750000
8698900000
8711050000
8723200000
8735350000
8747500000
8759650000
8771800000
8783950000
8796100000
8808250000
8820400000
8832550000
8844700000
8856850000
8869000000
8881150000
8893300000
8905450000
8917600000
8929750000
8941900000
8954050000
8966200000
8978350000
8990500000
9002650000
9014800000
9026950000
9039100000
9051250000
9063400000
9075550000
9087700000
9099850000
9112000000
9124150000
9136300000
9148450000
9160600000
9172750000
9184900000
9197050000
9209200000
9221350000
9233500000
9245650000
9257800000
9269950000
9282100000
9294250000
9306400000
9318550000
9330700000
9342850000
9355000000
9367150000
9379300000
9391450000
9403600000
9415750000
9427900000
9440050000
9452200000
9464350000
9476500000
9488650000
9500800000
9512950000
9525100000
9537250000
9549400000
9561550000
9573700000
9585850000
9598000000
9610150000
9622300000
9634450000
9646600000
9658750000
9670900000
9683050000
9695200000
9707350000
9719500000
9731650000
9743800000
9755950000
9768100000
9780250000
9792400000
9804550000
9816700000
9828850000
9841000000
9853150000
9865300000
9877450000
9889600000
9901750000
9913900000
9926050000
9938200000
9950350000
9962500000
9974650000
9986800000
9998950000
10011100000
10023250000
10035400000
10047550000
10059700000
10071850000
10084000000
10096150000
10108300000
10120450000
10132600000
10144750000
10156900000
10169050000
10181200000
10193350000
10205500000
10217650000
10229800000
10241950000
10254100000
10266250000
10278400000
10290550000
10302700000
10314850000
10327000000
10339150000
10351300000
10363450000
10375600000
10387750000
10399900000
10412050000
10424200000
10436350000
10448500000
10460650000
10472800000
10484950000
10497100000
10509250000
10521400000
10533550000
10545700000
10557850000
10570000000
10582150000
10594300000
10606450000
10618600000
10630750000
10642900000
10655050000
10667200000
10679350000
10691500000
10703650000
10715800000
10727950000
10740100000
10752250000
10764400000
10776550000
10788700000
10800850000
10813000000
10825150000
10837300000
10849450000
10861600000
10873750000
10885900000
10898050000
10910200000
10922350000
10934500000
10946650000
10958800000
10970950000
10983100000
10995250000
11007400000
11019550000
11031700000
11043850000
11056000000
11068150000
11080300000
11092450000
11104600000
11116750000
11128900000
11141050000
11153200000
11165350000
11177500000
11189650000
11201800000
11213950000
11226100000
11238250000
11250400000
11262550000
11274700000
11286850000
11299000000
11311150000
11323300000
11335450000
11347600000
11359750000
11371900000
11384050000
11396200000
11408350000
11420500000
11432650000
11444800000
11456950000
11469100000
11481250000
11493400000
11505550000
11517700000
11529850000
11542000000
11554150000
11566300000
11578450000
11590600000
11602750000
11614900000
11627050000
11639200000
11651350000
11663500000
11675650000
11687800000
11699950000
11712100000
11724250000
11736400000
11748550000
11760700000
11772850000
11785000000
11797150000
11809300000
11821450000
11833600000
11845750000
11857900000
11870050000
11882200000
11894350000
11906500000
11918650000
11930800000
11942950000
11955100000
11967250000
11979400000
11991550000
12003700000
12015850000
12028000000
12040150000
12052300000
12064450000
12076600000
12088750000
12100900000
12113050000
12125200000
12137350000
12149500000
12161650000
12173800000
12185950000
12198100000
12210250000
12222400000
12234550000
12246700000
12258850000
12271000000
12283150000
12295300000
12307450000
12319600000
12331750000
12343900000
12356050000
12368200000
12380350000
12392500000
12404650000
12416800000
12428950000
12441100000
12453250000
12465400000
12477550000
12489700000
12501850000
12514000000
12526150000
12538300000
12550450000
12562600000
12574750000
12586900000
12599050000
12611200000
12623350000
12635500000
12647650000
12659800000
12671950000
12684100000
12696250000
12708400000
12720550000
12732700000
12744850000
12757000000
12769150000
12781300000
12793450000
12805600000
12817750000
12829900000
12842050000
12854200000
12866350000
12878500000
12890650000
12902800000
12914950000
12927100000
12939250000
12951400000
12963550000
12975700000
12987850000
13000000000
VAR_LIST_END
BEGIN
-17.348127,-119.7354
-17.196161,-177.02286
-15.708406,133.06775
-14.276224,92.216866
-13.46106,55.742538
-13.385045,20.683739
-14.024084,-15.455092
-15.31253,-55.340744
-16.672241,-103.3993
-17.046217,-157.92256
-15.959898,149.98885
-14.532705,105.76643
-13.624924,67.667267
-13.334794,32.296608
-13.656075,-3.4525859
-14.583151,-42.445061
-15.855522,-87.119797
-16.619583,-138.73328
-16.212088,169.21687
-14.96734,122.72084
-13.906484,82.076103
-13.421573,44.060368
-13.669763,7.5008421
-14.385144,-30.903185
-15.355028,-72.997665
-16.126169,-121.24164
-15.998684,-172.58322
-15.146778,139.0981
-14.312373,96.585587
-13.821945,58.053768
-13.735518,20.933821
-14.122065,-17.480499
-14.827673,-59.136959
-15.573126,-105.46989
-15.806302,-154.88904
-15.3923,157.46159
-14.616646,113.2881
-14.002015,72.689774
-13.779926,33.686394
-13.991881,-5.5284882
-14.526095,-46.047924
-15.154947,-90.01506
-15.479173,-136.48187
-15.35173,176.1834
-14.849743,130.79294
-14.365543,88.358215
-14.088522,47.773193
-14.181765,7.8039122
-14.403039,-33.204639
-14.834573,-75.13382
-15.080029,-119.92151
-15.117316,-165.51323
-14.955534,149.18826
-14.761435,105.64172
-14.599607,63.781128
-14.485386,22.493805
-14.438984,-18.835226
-14.613188,-61.298443
-14.839729,-104.86356
-15.074209,-148.67918
-15.154779,167.74554
-15.050395,124.30316
-14.906905,79.885918
-14.766073,36.110832
-14.7442,-6.9112983
-14.76259,-48.726227
-14.739186,-90.00354
-14.744335,-131.22766
-14.918123,-174.07497
-15.241222,142.18625
-15.526881,98.156769
-15.552117,53.780922
-15.379055,10.04638
-15.010606,-33.450596
-14.738225,-75.583603
-14.766348,-116.33333
-14.965758,-156.20496
-15.333582,162.40231
-15.758573,118.54863
-16.032791,72.092812
-15.939226,25.656265
-15.503767,-18.82102
-15.020411,-60.721188
-14.658202,-100.0307
-14.723479,-139.4549
-15.2326,-179.67101
-15.935567,137.19006
-16.475418,91.513885
-16.628225,42.990147
-16.073109,-3.5863974
-15.358535,-47.05225
-14.7983,-86.561722
-14.704224,-124.70912
-15.080042,-163.30775
-15.868587,156.47949
-16.816549,111.20321
-17.318464,62.155857
-16.93767,13.086657
-15.979114,-31.888777
-15.263724,-72.265984
-14.90855,-109.73718
-15.118845,-147.38542
-15.916548,174.11209
-16.93885,130.69102
-17.858442,82.090347
-17.683098,30.511826
-16.748766,-16.304695
-15.818093,-57.171658
-15.167762,-95.013435
-15.224551,-131.87662
-15.935623,-169.87943
-17.163942,148.5451
-18.33139,101.00378
-18.453547,49.130577
-17.468405,-0.31454191
-16.293304,-43.182297
-15.563804,-81.172722
-15.561929,-116.76226
-16.120625,-153.06422
-17.236309,167.67776
-18.613871,121.49648
-19.216593,68.423126
-18.453356,16.429062
-17.155432,-26.981213
-16.109964,-65.280144
-15.811787,-101.2002
-16.260981,-137.40442
-17.437944,-175.44325
-19.015762,140.51387
-19.987864,88.75264
-19.336576,35.108276
-17.972918,-10.950468
-16.86294,-50.575428
-16.406487,-86.046776
-16.785723,-121.10172
-17.857615,-158.09779
-19.491329,158.89214
-20.800022,106.6974
-20.387812,51.165016
-18.865318,3.5940354
-17.515291,-35.302322
-16.943155,-70.61396
-17.23122,-104.70924
-18.315914,-140.66292
-20.222046,178.95749
-21.977644,126.16478
-21.823034,67.329758
-20.03027,17.145315
-18.463802,-23.107079
-17.589739,-57.865929
-17.686251,-91.552803
-18.693003,-125.79875
-20.542461,-164.81389
-22.585691,144.57458
-22.884224,83.576576
-21.039152,31.047056
-19.230032,-9.6542578
-18.249834,-43.86792
-18.205021,-76.368538
-19.112547,-109.80654
-21.020828,-147.83247
-23.487261,163.0723
-24.092535,99.882179
-22.044901,45.220833
-19.980417,4.2714767
-18.898289,-29.498379
-18.754597,-61.497154
-19.621567,-93.540466
-21.746887,-129.74837
-24.707329,-177.75468
-25.862759,115.11902
-23.319525,56.897736
-20.818394,15.632724
-19.477207,-17.723131
-19.190046,-47.552757
-20.05723,-78.024399
-22.216774,-111.21005
-25.585075,-157.06638
-27.616165,130.85367
-24.599403,66.886902
-21.526413,27.731495
-19.88867,-3.9192905
-19.434776,-33.243065
-20.104113,-61.4119
-22.204308,-92.457649
-26.054987,-131.90166
-30.619118,155.54181
-26.801281,76.940155
-22.6479,35.611572
-20.596449,5.1557107
-19.818743,-21.391911
-20.147657,-48.220428
-21.926752,-76.210548
-25.482073,-109.78959
-31.488985,-167.61212
-29.897463,92.948288
-24.554361,47.164139
-21.834755,17.40115
-20.665333,-9.7579784
-20.838568,-35.109806
-22.233709,-61.408791
-25.407862,-89.940964
-31.635355,-137.284
-32.891853,109.20227
-26.268078,58.008606
-22.902163,28.928959
-21.462112,4.1396461
-21.341057,-20.09609
-22.529961,-44.476925
-25.523212,-69.909859
-31.867069,-100.93479
-39.156033,119.44662
-28.288971,63.992447
-23.942972,36.263313
-22.070738,13.119531
-21.685062,-9.9231997
-22.540094,-32.389301
-24.706573,-55.26239
-29.707256,-81.496254
-44.822033,-147.7991
-31.413683,75.040764
-25.781416,47.768692
-23.455288,24.325848
-22.553789,2.799669
-22.996981,-19.76359
-24.957533,-42.930889
-29.013327,-67.541656
-40.732494,-109.71531
-33.938099,88.345024
-26.9394,60.760155
-23.976696,37.467705
-22.756008,15.541078
-22.737591,-6.9163213
-23.868671,-29.730732
-26.623518,-54.184963
-32.242683,-86.399719
-41.453663,166.90494
-30.808393,88.351341
-26.55813,60.021244
-24.460686,35.757107
-23.892586,12.205862
-24.537302,-12.423839
-26.797506,-36.640697
-31.693014,-68.183884
-40.297565,-140.92409
-32.998844,112.53502
-27.729801,78.844032
-25.161547,51.98354
-24.198267,26.323986
-24.4645,1.2505907
-25.908014,-27.483091
-28.493979,-61.267735
-32.369305,-114.41766
-32.000576,168.65033
-28.418591,117.84758
-25.849445,85.342186
-24.626192,55.02103
-24.575386,26.145061
-25.693615,-4.7605629
-27.6833,-40.404957
-30.362679,-89.5457
-30.752972,-155.15633
-28.269653,154.39862
-26.08444,114.61335
-25.035683,81.020798
-24.958269,50.842068
-26.032705,18.066744
-27.881845,-21.926657
-29.564436,-74.915863
-29.037437,-134.62772
-26.668575,178.38141
-24.969954,141.0405
-24.176981,108.84805
-24.430195,77.287018
-25.742914,42.783951
-28.02071,0.21249686
-29.709314,-58.964375
-28.111216,-119.94013
-25.397491,-164.24272
-23.435461,160.97046
-22.72139,130.26585
-23.033064,100.61163
-24.439257,67.569176
-27.247807,26.036499
-29.886497,-36.551662
-27.731894,-105.61253
-24.31443,-149.46774
-22.068256,177.55765
-21.075508,148.37834
-21.223227,119.35439
-22.552034,89.905617
-25.341324,54.378735
-29.449181,-1.4513199
-28.540894,-82.324883
-24.197878,-133.43378
-21.44112,-166.97836
-20.091841,164.7746
-19.904953,137.36931
-20.851582,110.05629
-23.302418,77.854073
-27.84531,32.755566
-30.230484,-56.931492
-24.722036,-119.44108
-21.023491,-153.65533
-19.133377,178.06241
-18.50618,151.67081
-19.090479,125.48251
-21.012993,96.932564
-24.815388,61.333561
-30.640606,-7.0903945
-26.865265,-97.430412
-21.847918,-138.14896
-19.321365,-168.66687
-18.283297,165.11374
-18.423109,139.11534
-19.841431,112.20661
-23.129778,80.388046
-29.182447,26.145655
-28.070791,-76.333618
-22.173029,-124.52389
-19.049719,-155.7178
-17.566278,178.21793
-17.381811,152.62781
-18.239189,126.50065
-20.701666,97.925354
-25.599529,59.62542
-30.541868,-33.123089
-24.015106,-106.88777
-19.84654,-141.35107
-17.649334,-168.83208
-16.998388,165.38506
-17.559416,139.38702
-19.354559,111.68041
-23.269247,78.245872
-29.509441,14.128065
-25.935038,-84.178329
-20.737761,-125.67511
-18.085651,-155.35088
-17.001369,179.00629
-16.999702,153.50534
-18.250107,127.23946
-21.166464,97.533638
-26.978014,52.883999
-29.299631,-53.470924
-22.429352,-111.2126
-18.907663,-143.10315
-17.218727,-169.86642
-16.796806,163.81856
-17.659239,137.49918
-19.900003,107.84574
-24.209023,69.653885
-29.041605,-11.796727
-23.956301,-89.044502
-19.72591,-127.67133
-17.538826,-157.03902
-16.735682,175.96799
-17.008587,148.80913
-18.520119,119.9823
-21.678181,84.287041
-26.105913,27.71973
-25.34902,-55.531616
-21.191477,-105.8539
-18.404415,-139.63498
-17.168509,-168.88936
-17.152679,162.46321
-18.269785,133.46812
-20.627861,100.13278
-24.349411,53.025486
-26.044104,-22.211027
-22.459507,-84.587837
-19.473265,-123.17651
-17.951807,-154.71437
-17.478355,175.53468
-18.231508,145.20567
-19.965464,111.56125
-22.765806,69.286148
-24.913393,4.614028
-23.074268,-58.772263
-20.324568,-104.32091
-18.728649,-139.02939
-18.093977,-169.55963
-18.416271,158.57436
-19.753218,124.10941
-21.94075,82.758965
-23.987146,26.814791
-23.244802,-33.07217
-21.145718,-80.981369
-19.511496,-118.99617
-18.760918,-153.00346
-19.140972,173.21327
-20.299929,138.48212
-21.997589,98.418884
-23.729044,47.947235
-23.738235,-9.0071297
-22.390835,-59.234413
-20.954882,-99.741432
-20.409363,-136.24615
-20.661694,-171.82849
-21.593735,150.98138
-22.8717,107.88406
-23.846956,58.045292
-23.496052,6.6997671
-22.663023,-39.66608
-21.830957,-80.166405
-21.682077,-117.75685
-22.1852,-155.37874
-23.145884,163.10779
-24.038828,116.01572
-23.942221,65.73288
-23.011375,19.455566
-22.244898,-20.388508
-21.79731,-56.44949
-22.182116,-91.182587
-23.342464,-127.49694
-25.178314,-171.47493
-26.607616,134.90605
-25.842196,76.103897
-23.785238,31.391291
-22.507496,-3.9882081
-21.833393,-36.460896
-22.168869,-66.800095
-23.795267,-99.69709
-26.677969,-138.46989
-30.074942,163.28801
-28.675982,90.381088
-25.217308,43.928375
-22.785521,11.85425
-21.864542,-16.304558
-21.975172,-42.761307
-23.302088,-68.285492
-26.206236,-94.966309
-31.922234,-133.00774
-36.32357,114.21674
-28.326338,54.931026
-24.457325,24.960501
-22.673616,1.0945687
-22.076145,-20.834158
-22.725515,-41.433388
-24.688221,-62.38694
-29.065729,-80.623672
-43.240868,-86.238426
