CITIFILE A.01.01
!Agilent Technologies,N5230C,MY48100142,A.08.04.10
!Agilent N5230C: A.08.04.10
!Format: LogMag/Angle
!Date: Thursday, July 30, 2020 12:15:08
NAME CH1_DATA
VAR Power MAG 801
DATA S11 DBANGLE
DATA S21 DBANGLE
DATA S12 DBANGLE
DATA S22 DBANGLE
VAR_LIST_BEGIN
-40
-39.975
-39.95
-39.925
-39.9
-39.875
-39.85
-39.825
-39.8
-39.775
-39.75
-39.725
-39.7
-39.675
-39.65
-39.625
-39.6
-39.575
-39.55
-39.525
-39.5
-39.475
-39.45
-39.425
-39.4
-39.375
-39.35
-39.325
-39.3
-39.275
-39.25
-39.225
-39.2
-39.175
-39.15
-39.125
-39.1
-39.075
-39.05
-39.025
-39
-38.975
-38.95
-38.925
-38.9
-38.875
-38.85
-38.825
-38.8
-38.775
-38.75
-38.725
-38.7
-38.675
-38.65
-38.625
-38.6
-38.575
-38.55
-38.525
-38.5
-38.475
-38.45
-38.425
-38.4
-38.375
-38.35
-38.325
-38.3
-38.275
-38.25
-38.225
-38.2
-38.175
-38.15
-38.125
-38.1
-38.075
-38.05
-38.025
-38
-37.975
-37.95
-37.925
-37.9
-37.875
-37.85
-37.825
-37.8
-37.775
-37.75
-37.725
-37.7
-37.675
-37.65
-37.625
-37.6
-37.575
-37.55
-37.525
-37.5
-37.475
-37.45
-37.425
-37.4
-37.375
-37.35
-37.325
-37.3
-37.275
-37.25
-37.225
-37.2
-37.175
-37.15
-37.125
-37.1
-37.075
-37.05
-37.025
-37
-36.975
-36.95
-36.925
-36.9
-36.875
-36.85
-36.825
-36.8
-36.775
-36.75
-36.725
-36.7
-36.675
-36.65
-36.625
-36.6
-36.575
-36.55
-36.525
-36.5
-36.475
-36.45
-36.425
-36.4
-36.375
-36.35
-36.325
-36.3
-36.275
-36.25
-36.225
-36.2
-36.175
-36.15
-36.125
-36.1
-36.075
-36.05
-36.025
-36
-35.975
-35.95
-35.925
-35.9
-35.875
-35.85
-35.825
-35.8
-35.775
-35.75
-35.725
-35.7
-35.675
-35.65
-35.625
-35.6
-35.575
-35.55
-35.525
-35.5
-35.475
-35.45
-35.425
-35.4
-35.375
-35.35
-35.325
-35.3
-35.275
-35.25
-35.225
-35.2
-35.175
-35.15
-35.125
-35.1
-35.075
-35.05
-35.025
-35
-34.975
-34.95
-34.925
-34.9
-34.875
-34.85
-34.825
-34.8
-34.775
-34.75
-34.725
-34.7
-34.675
-34.65
-34.625
-34.6
-34.575
-34.55
-34.525
-34.5
-34.475
-34.45
-34.425
-34.4
-34.375
-34.35
-34.325
-34.3
-34.275
-34.25
-34.225
-34.2
-34.175
-34.15
-34.125
-34.1
-34.075
-34.05
-34.025
-34
-33.975
-33.95
-33.925
-33.9
-33.875
-33.85
-33.825
-33.8
-33.775
-33.75
-33.725
-33.7
-33.675
-33.65
-33.625
-33.6
-33.575
-33.55
-33.525
-33.5
-33.475
-33.45
-33.425
-33.4
-33.375
-33.35
-33.325
-33.3
-33.275
-33.25
-33.225
-33.2
-33.175
-33.15
-33.125
-33.1
-33.075
-33.05
-33.025
-33
-32.975
-32.95
-32.925
-32.9
-32.875
-32.85
-32.825
-32.8
-32.775
-32.75
-32.725
-32.7
-32.675
-32.65
-32.625
-32.6
-32.575
-32.55
-32.525
-32.5
-32.475
-32.45
-32.425
-32.4
-32.375
-32.35
-32.325
-32.3
-32.275
-32.25
-32.225
-32.2
-32.175
-32.15
-32.125
-32.1
-32.075
-32.05
-32.025
-32
-31.975
-31.95
-31.925
-31.9
-31.875
-31.85
-31.825
-31.8
-31.775
-31.75
-31.725
-31.7
-31.675
-31.65
-31.625
-31.6
-31.575
-31.55
-31.525
-31.5
-31.475
-31.45
-31.425
-31.4
-31.375
-31.35
-31.325
-31.3
-31.275
-31.25
-31.225
-31.2
-31.175
-31.15
-31.125
-31.1
-31.075
-31.05
-31.025
-31
-30.975
-30.95
-30.925
-30.9
-30.875
-30.85
-30.825
-30.8
-30.775
-30.75
-30.725
-30.7
-30.675
-30.65
-30.625
-30.6
-30.575
-30.55
-30.525
-30.5
-30.475
-30.45
-30.425
-30.4
-30.375
-30.35
-30.325
-30.3
-30.275
-30.25
-30.225
-30.2
-30.175
-30.15
-30.125
-30.1
-30.075
-30.05
-30.025
-30
-29.975
-29.95
-29.925
-29.9
-29.875
-29.85
-29.825
-29.8
-29.775
-29.75
-29.725
-29.7
-29.675
-29.65
-29.625
-29.6
-29.575
-29.55
-29.525
-29.5
-29.475
-29.45
-29.425
-29.4
-29.375
-29.35
-29.325
-29.3
-29.275
-29.25
-29.225
-29.2
-29.175
-29.15
-29.125
-29.1
-29.075
-29.05
-29.025
-29
-28.975
-28.95
-28.925
-28.9
-28.875
-28.85
-28.825
-28.8
-28.775
-28.75
-28.725
-28.7
-28.675
-28.65
-28.625
-28.6
-28.575
-28.55
-28.525
-28.5
-28.475
-28.45
-28.425
-28.4
-28.375
-28.35
-28.325
-28.3
-28.275
-28.25
-28.225
-28.2
-28.175
-28.15
-28.125
-28.1
-28.075
-28.05
-28.025
-28
-27.975
-27.95
-27.925
-27.9
-27.875
-27.85
-27.825
-27.8
-27.775
-27.75
-27.725
-27.7
-27.675
-27.65
-27.625
-27.6
-27.575
-27.55
-27.525
-27.5
-27.475
-27.45
-27.425
-27.4
-27.375
-27.35
-27.325
-27.3
-27.275
-27.25
-27.225
-27.2
-27.175
-27.15
-27.125
-27.1
-27.075
-27.05
-27.025
-27
-26.975
-26.95
-26.925
-26.9
-26.875
-26.85
-26.825
-26.8
-26.775
-26.75
-26.725
-26.7
-26.675
-26.65
-26.625
-26.6
-26.575
-26.55
-26.525
-26.5
-26.475
-26.45
-26.425
-26.4
-26.375
-26.35
-26.325
-26.3
-26.275
-26.25
-26.225
-26.2
-26.175
-26.15
-26.125
-26.1
-26.075
-26.05
-26.025
-26
-25.975
-25.95
-25.925
-25.9
-25.875
-25.85
-25.825
-25.8
-25.775
-25.75
-25.725
-25.7
-25.675
-25.65
-25.625
-25.6
-25.575
-25.55
-25.525
-25.5
-25.475
-25.45
-25.425
-25.4
-25.375
-25.35
-25.325
-25.3
-25.275
-25.25
-25.225
-25.2
-25.175
-25.15
-25.125
-25.1
-25.075
-25.05
-25.025
-25
-24.975
-24.95
-24.925
-24.9
-24.875
-24.85
-24.825
-24.8
-24.775
-24.75
-24.725
-24.7
-24.675
-24.65
-24.625
-24.6
-24.575
-24.55
-24.525
-24.5
-24.475
-24.45
-24.425
-24.4
-24.375
-24.35
-24.325
-24.3
-24.275
-24.25
-24.225
-24.2
-24.175
-24.15
-24.125
-24.1
-24.075
-24.05
-24.025
-24
-23.975
-23.95
-23.925
-23.9
-23.875
-23.85
-23.825
-23.8
-23.775
-23.75
-23.725
-23.7
-23.675
-23.65
-23.625
-23.6
-23.575
-23.55
-23.525
-23.5
-23.475
-23.45
-23.425
-23.4
-23.375
-23.35
-23.325
-23.3
-23.275
-23.25
-23.225
-23.2
-23.175
-23.15
-23.125
-23.1
-23.075
-23.05
-23.025
-23
-22.975
-22.95
-22.925
-22.9
-22.875
-22.85
-22.825
-22.8
-22.775
-22.75
-22.725
-22.7
-22.675
-22.65
-22.625
-22.6
-22.575
-22.55
-22.525
-22.5
-22.475
-22.45
-22.425
-22.4
-22.375
-22.35
-22.325
-22.3
-22.275
-22.25
-22.225
-22.2
-22.175
-22.15
-22.125
-22.1
-22.075
-22.05
-22.025
-22
-21.975
-21.95
-21.925
-21.9
-21.875
-21.85
-21.825
-21.8
-21.775
-21.75
-21.725
-21.7
-21.675
-21.65
-21.625
-21.6
-21.575
-21.55
-21.525
-21.5
-21.475
-21.45
-21.425
-21.4
-21.375
-21.35
-21.325
-21.3
-21.275
-21.25
-21.225
-21.2
-21.175
-21.15
-21.125
-21.1
-21.075
-21.05
-21.025
-21
-20.975
-20.95
-20.925
-20.9
-20.875
-20.85
-20.825
-20.8
-20.775
-20.75
-20.725
-20.7
-20.675
-20.65
-20.625
-20.6
-20.575
-20.55
-20.525
-20.5
-20.475
-20.45
-20.425
-20.4
-20.375
-20.35
-20.325
-20.3
-20.275
-20.25
-20.225
-20.2
-20.175
-20.15
-20.125
-20.1
-20.075
-20.05
-20.025
-20
VAR_LIST_END
BEGIN
-14.53186,-161.02502
-15.221988,-149.19307
-15.091363,-162.13414
-14.94737,-158.60286
-15.009379,-159.30232
-14.859162,-161.65053
-15.214078,-163.49811
-14.986948,-161.48308
-14.90146,-161.53847
-15.197049,-157.74139
-16.039274,-155.37874
-14.996443,-158.88405
-15.801077,-161.65523
-15.513758,-158.96593
-15.494057,-163.5033
-15.247534,-158.68181
-14.426409,-160.03609
-14.507332,-162.13441
-14.843744,-154.3455
-14.78809,-163.36844
-15.051788,-155.67268
-15.291043,-159.88216
-14.827463,-162.81482
-14.915275,-160.26041
-15.194198,-155.66811
-15.300453,-157.59969
-15.179984,-162.94968
-15.131782,-156.16589
-14.582854,-160.54721
-14.811259,-156.58011
-14.954308,-158.81075
-14.726566,-165.16434
-14.712016,-159.22165
-15.217875,-160.02791
-15.176774,-163.16628
-14.467257,-159.10677
-14.689568,-157.14346
-14.233462,-164.66875
-15.012374,-163.43112
-15.117885,-152.56209
-14.622363,-158.72946
-14.96947,-163.88832
-15.48423,-158.58075
-15.557384,-161.78845
-15.218307,-157.21829
-15.073195,-155.29813
-14.221509,-160.57016
-14.386237,-162.03716
-15.56313,-161.26544
-14.292118,-163.11987
-15.104389,-158.5191
-14.627254,-154.95934
-15.150638,-159.58644
-14.575449,-163.84096
-15.167793,-162.41071
-14.957922,-159.4633
-15.064676,-158.55251
-15.526487,-154.24344
-15.289004,-164.44131
-15.289233,-162.4313
-15.334896,-157.9232
-15.530246,-161.07787
-14.59567,-157.30075
-15.041176,-157.84969
-15.012127,-159.69891
-14.800164,-164.14926
-15.580377,-161.02774
-14.893536,-158.91292
-15.312039,-158.57138
-15.083477,-160.27693
-15.247004,-163.22856
-15.596639,-160.8614
-15.50398,-156.729
-15.353968,-155.71043
-14.986166,-158.45464
-14.864491,-161.02283
-14.819777,-154.1494
-14.89039,-163.35503
-14.84607,-163.01212
-15.141499,-158.10143
-15.395546,-158.16757
-15.271088,-160.6037
-15.524379,-162.91817
-15.809359,-156.80943
-15.04259,-161.96745
-14.812878,-160.03629
-14.972177,-156.8401
-15.412777,-156.01981
-15.419621,-162.04871
-15.664371,-161.17546
-15.301895,-160.23222
-14.669205,-160.23033
-15.279963,-158.63489
-15.666277,-163.4686
-15.026406,-162.23453
-15.948435,-164.41504
-14.998959,-157.4418
-14.896948,-157.94939
-15.38663,-162.7168
-15.523976,-159.69933
-15.042931,-158.6436
-14.669075,-155.95602
-15.105966,-158.52396
-14.462652,-159.54599
-14.703234,-160.33737
-14.969625,-163.53963
-15.065504,-157.52391
-15.039232,-160.90828
-15.703653,-163.21141
-15.157743,-159.96877
-15.439245,-162.72284
-14.693999,-158.09521
-14.662669,-159.56093
-14.705465,-158.54221
-15.639066,-159.48506
-15.088289,-160.32678
-15.310619,-158.84242
-15.146101,-158.5627
-14.758894,-163.01878
-15.39836,-162.13394
-14.795905,-162.1391
-15.269552,-160.03841
-15.100437,-162.28079
-14.9164,-159.53421
-15.118556,-159.77768
-16.021135,-161.34785
-14.526844,-158.18616
-14.808501,-164.28737
-15.036961,-155.6544
-15.478546,-161.32613
-15.158126,-159.40631
-14.709874,-162.60136
-15.291334,-157.90089
-14.547197,-162.87222
-14.341001,-157.53566
-15.109591,-161.27632
-15.395643,-163.9088
-14.88528,-159.32452
-15.013255,-161.22531
-15.530915,-158.17841
-15.283463,-158.47507
-15.355532,-161.40483
-15.165605,-159.79073
-14.844011,-162.3356
-15.387771,-160.76276
-14.407565,-159.83047
-14.866376,-162.48459
-14.811621,-155.89409
-15.179431,-162.02156
-15.498717,-161.75325
-14.991328,-156.66277
-14.966005,-161.79778
-15.463299,-162.14522
-15.949691,-159.72827
-15.809256,-160.23921
-14.920885,-160.58105
-14.483768,-161.24229
-15.243289,-160.80873
-15.503535,-157.7569
-15.263846,-161.25246
-14.687612,-156.79984
-14.949823,-160.01129
-14.686332,-158.52757
-15.323498,-156.3297
-15.06556,-161.85292
-15.706823,-164.20903
-14.928395,-157.44058
-15.201148,-160.29671
-15.120048,-159.16562
-14.596491,-158.62944
-15.027205,-159.67543
-15.589336,-161.90802
-14.941365,-161.60345
-15.307459,-157.70325
-15.028731,-156.82405
-14.447146,-160.92734
-15.288746,-156.70915
-15.002929,-158.22699
-15.260082,-153.96622
-14.315516,-159.51282
-15.02412,-160.22055
-15.289783,-160.94215
-15.644843,-162.7495
-15.488808,-157.78262
-14.850284,-158.56732
-15.247663,-160.87492
-15.011752,-160.44432
-15.037812,-160.37059
-15.306529,-158.74529
-15.685789,-162.12912
-15.165592,-157.4702
-15.637104,-163.92239
-14.92197,-160.28476
-14.997705,-160.89919
-14.519309,-160.34433
-14.967305,-159.85622
-15.039539,-159.62001
-14.955506,-162.2276
-15.214876,-159.36916
-15.102098,-158.56436
-15.518247,-157.55518
-15.144459,-158.49321
-14.698109,-159.57787
-15.08359,-160.90614
-15.5338,-162.60071
-14.949955,-161.11353
-15.057088,-161.00005
-15.268283,-160.07129
-15.171526,-159.06207
-14.978248,-158.11809
-15.313492,-164.49083
-15.469698,-160.6326
-15.432138,-162.61568
-15.118745,-160.10748
-15.328519,-162.20924
-15.264901,-160.26607
-14.823321,-161.01109
-15.100463,-163.80948
-14.994504,-158.50168
-14.923694,-159.33585
-15.082082,-161.40106
-15.050677,-157.21667
-14.778952,-160.30135
-15.17275,-160.50008
-14.965218,-159.02242
-15.344755,-156.67561
-14.634862,-159.2845
-15.250322,-158.45244
-15.08456,-157.68149
-15.469039,-162.91974
-15.044053,-162.28891
-15.284887,-159.49426
-15.090345,-157.52693
-15.133488,-162.24089
-15.097692,-159.71187
-14.896152,-158.23326
-15.346574,-160.4868
-15.41216,-161.61349
-15.443224,-162.72211
-15.665356,-159.8325
-15.392488,-159.34691
-15.061941,-158.00124
-14.98525,-160.77718
-15.333347,-159.50954
-15.051351,-157.44337
-14.758729,-158.46695
-14.869764,-159.64224
-15.348989,-154.15527
-14.960351,-161.36232
-15.383075,-161.33192
-15.142875,-159.53563
-15.191714,-162.88507
-15.503093,-158.81586
-15.489919,-158.9312
-15.063437,-160.65759
-15.397366,-159.74672
-15.088666,-159.28862
-15.150462,-161.98822
-15.026064,-159.35956
-15.068644,-157.22458
-14.644948,-161.89929
-14.920595,-160.34406
-15.173609,-160.05603
-15.345231,-159.99561
-15.217596,-160.51759
-15.338743,-159.29321
-14.879668,-159.6048
-15.072163,-160.54982
-15.537828,-159.69511
-14.847416,-161.82167
-15.362629,-162.12961
-15.166866,-160.23688
-15.367441,-159.7166
-15.295197,-163.6722
-14.823929,-158.80746
-15.071034,-158.10838
-15.120864,-161.59731
-15.477252,-159.79474
-15.425115,-162.81601
-15.04076,-161.15315
-15.311248,-157.78792
-14.90056,-160.34314
-15.150897,-158.18156
-15.093499,-160.81741
-15.438638,-160.80496
-15.286963,-158.50864
-15.545667,-158.28014
-15.153764,-158.9706
-14.880544,-157.00636
-14.928216,-161.50685
-14.964973,-161.93501
-15.014484,-159.98647
-14.901212,-160.24805
-15.240357,-158.95604
-14.808943,-161.56235
-15.175138,-160.00262
-15.517543,-159.18384
-15.185509,-159.65656
-14.649138,-159.28653
-14.940487,-160.18762
-14.957,-161.25101
-14.973951,-161.12285
-14.998847,-160.43037
-15.156621,-157.19571
-15.107273,-159.23744
-15.323287,-158.55215
-14.988956,-157.70999
-15.106223,-159.12242
-15.103421,-159.84877
-15.143636,-161.25298
-15.033484,-161.00784
-15.022567,-162.39841
-15.322775,-158.82083
-15.365674,-159.04103
-14.966939,-158.24899
-15.036508,-161.85469
-15.060131,-160.67683
-15.472328,-161.73476
-15.308614,-159.82854
-15.398508,-160.12106
-14.930899,-160.99051
-14.607997,-160.60081
-15.141146,-159.20609
-14.553595,-160.75821
-15.159142,-157.48409
-15.186642,-157.22354
-15.396063,-161.65131
-14.969753,-160.0544
-14.915762,-157.8439
-15.064588,-159.55437
-15.30786,-158.92039
-15.236963,-159.67723
-15.241271,-159.82964
-14.996978,-159.5015
-15.035777,-158.72324
-15.072128,-161.56529
-14.623093,-160.0246
-15.597626,-159.91563
-14.705073,-159.59796
-15.28435,-160.58234
-15.071936,-158.45802
-15.441216,-159.00502
-14.883817,-161.44095
-15.230301,-159.13608
-15.02319,-159.42934
-15.05896,-160.26466
-15.129656,-156.82861
-15.305573,-158.88048
-14.911968,-158.38086
-14.889426,-161.2372
-15.263668,-157.52913
-14.982115,-160.6385
-14.758145,-159.44891
-14.875532,-160.5042
-14.732249,-160.47974
-15.595725,-160.60422
-15.099615,-160.97583
-15.136784,-157.75876
-15.395128,-158.55765
-14.949154,-160.99933
-15.005743,-160.14563
-14.949564,-159.08899
-15.328851,-158.86362
-14.95525,-159.01405
-14.869347,-159.70567
-15.033406,-160.2175
-15.085302,-160.78976
-15.077301,-160.80948
-14.972432,-160.02791
-14.836864,-160.07712
-14.937415,-160.67831
-15.243587,-158.28377
-14.974307,-160.27861
-15.008055,-160.99768
-15.172588,-160.08284
-15.095313,-157.72064
-15.001358,-159.15376
-15.120461,-159.63368
-14.958885,-160.93427
-15.112099,-160.75204
-15.108676,-160.78052
-15.37863,-161.55003
-14.920009,-160.74951
-14.879907,-160.67027
-15.31585,-159.88477
-15.215729,-158.5665
-15.248023,-160.32234
-14.985146,-159.401
-15.403777,-159.16116
-14.917801,-160.44479
-14.857057,-158.55319
-15.197463,-159.40514
-15.010856,-158.25642
-15.163877,-159.83452
-15.107531,-158.66544
-15.062694,-158.69193
-15.200865,-159.58443
-14.938279,-161.11284
-15.237932,-160.02441
-15.130471,-160.35934
-15.081263,-160.94836
-14.969098,-160.06175
-15.041799,-161.87544
-15.387072,-159.3045
-15.069818,-160.08084
-15.154945,-160.79613
-15.029888,-158.63957
-15.276958,-160.40967
-14.686404,-158.42621
-15.111259,-160.11234
-15.078534,-160.20961
-14.970493,-158.84251
-14.861892,-158.56384
-14.934428,-160.65933
-15.059762,-160.13013
-15.06309,-160.06531
-15.325779,-158.5437
-15.405585,-158.21019
-14.88169,-161.56287
-14.764141,-161.6481
-14.975309,-159.53862
-15.101591,-159.22543
-15.462002,-161.34087
-15.234178,-160.38304
-15.082934,-160.9751
-15.178983,-160.41078
-15.133378,-159.93781
-14.987385,-160.33455
-14.919826,-159.92697
-15.114834,-159.09769
-15.001242,-158.60275
-15.184653,-161.8273
-14.900208,-160.52831
-15.089499,-160.56725
-15.001012,-161.63544
-15.165719,-158.82616
-15.225348,-158.79219
-15.060559,-159.09563
-15.037484,-158.59531
-15.206734,-159.56262
-15.31713,-159.92978
-15.129573,-161.4373
-15.208455,-159.51965
-14.922603,-160.07254
-14.931989,-160.61278
-15.056379,-160.02782
-14.917109,-161.15611
-15.023479,-158.95078
-15.089518,-158.70003
-15.155869,-160.30634
-15.121758,-159.50034
-15.024946,-160.0822
-15.098454,-158.9442
-15.168645,-160.20032
-15.288963,-158.54213
-14.704379,-160.72963
-15.231344,-158.37531
-14.958743,-159.26918
-15.246527,-160.94061
-15.071715,-158.94482
-14.837279,-160.80432
-15.357704,-158.68182
-15.416368,-158.5778
-15.109076,-159.52927
-15.03256,-160.17203
-15.0442,-162.06493
-15.289592,-160.47838
-15.123479,-160.42552
-15.070854,-160.3344
-14.923003,-159.11748
-15.217093,-159.81349
-15.233001,-161.50812
-15.359968,-161.9928
-15.203173,-160.63947
-14.943403,-159.21712
-15.018698,-159.72014
-15.135228,-160.51543
-15.089011,-159.74684
-15.032115,-160.13995
-14.914541,-159.22621
-15.124516,-160.41167
-14.970424,-158.48441
-14.997156,-159.44231
-15.258572,-159.8718
-15.028035,-161.01805
-15.095024,-158.35841
-15.168328,-160.86769
-15.046848,-159.20496
-15.051373,-160.2812
-15.191229,-159.53781
-15.258903,-158.27328
-14.971615,-160.32123
-14.951012,-160.34132
-15.107084,-159.82787
-14.817081,-160.77722
-14.971105,-159.99078
-14.997058,-159.73323
-15.269284,-160.87456
-15.227475,-159.83307
-15.212679,-159.44194
-15.237111,-158.47961
-14.990676,-160.48816
-14.887522,-159.3235
-15.126195,-161.40819
-15.212359,-160.62206
-15.13421,-160.62273
-15.17465,-159.72243
-15.047377,-159.02382
-15.218575,-159.71457
-15.000648,-159.08037
-15.179993,-160.15981
-15.13805,-160.39975
-15.085129,-158.76523
-14.968042,-160.23628
-15.173598,-161.31079
-14.988844,-160.19458
-15.063136,-161.13728
-14.946733,-160.63016
-15.254432,-159.61989
-15.140306,-160.74052
-15.017202,-160.24635
-15.016747,-160.18573
-15.084757,-158.9724
-15.014677,-159.47818
-15.113326,-159.71947
-15.172024,-159.31599
-14.970439,-159.80864
-14.975287,-158.97679
-15.276385,-158.96548
-15.10068,-160.30107
-15.084376,-160.90656
-15.140856,-159.1037
-14.976285,-159.63643
-14.9934,-159.66986
-15.073188,-160.33501
-15.131091,-160.11595
-15.190814,-159.91118
-15.121108,-158.71689
-15.097834,-159.11569
-15.206245,-161.06032
-15.125997,-159.61652
-15.011826,-159.68307
-15.210117,-159.54094
-15.23651,-159.77802
-15.100163,-161.9758
-15.023993,-160.45906
-15.135898,-160.38629
-15.088564,-159.70233
-15.129869,-158.43915
-15.037474,-158.82521
-14.880153,-159.42897
-15.175583,-159.88533
-15.176613,-159.53894
-15.030575,-159.33064
-15.051921,-159.96509
-15.136909,-160.90514
-14.994825,-160.3679
-15.122851,-160.48802
-15.161409,-160.52933
-15.049536,-160.00813
-15.223969,-159.1181
-15.116209,-160.18562
-15.151764,-159.67976
-15.125031,-159.42909
-15.038415,-160.08134
-15.154943,-160.84674
-15.200599,-159.98659
-15.072026,-158.99072
-14.947149,-160.74954
-15.004709,-159.71198
-15.149533,-160.21027
-14.984541,-159.1819
-15.189935,-158.22183
-15.041818,-159.70984
-15.16454,-159.76497
-15.269921,-159.17245
