CITIFILE A.01.01
!Agilent Technologies,N5230C,MY48100142,A.08.04.10
!Agilent N5230C: A.08.04.10
!Format: LogMag/Angle
!Date: Wednesday, September 04, 2019 14:36:01
NAME CH1_DATA
VAR Power MAG 801
DATA S11 DBANGLE
DATA S21 DBANGLE
DATA S12 DBANGLE
DATA S22 DBANGLE
VAR_LIST_BEGIN
-40
-39.975
-39.95
-39.925
-39.9
-39.875
-39.85
-39.825
-39.8
-39.775
-39.75
-39.725
-39.7
-39.675
-39.65
-39.625
-39.6
-39.575
-39.55
-39.525
-39.5
-39.475
-39.45
-39.425
-39.4
-39.375
-39.35
-39.325
-39.3
-39.275
-39.25
-39.225
-39.2
-39.175
-39.15
-39.125
-39.1
-39.075
-39.05
-39.025
-39
-38.975
-38.95
-38.925
-38.9
-38.875
-38.85
-38.825
-38.8
-38.775
-38.75
-38.725
-38.7
-38.675
-38.65
-38.625
-38.6
-38.575
-38.55
-38.525
-38.5
-38.475
-38.45
-38.425
-38.4
-38.375
-38.35
-38.325
-38.3
-38.275
-38.25
-38.225
-38.2
-38.175
-38.15
-38.125
-38.1
-38.075
-38.05
-38.025
-38
-37.975
-37.95
-37.925
-37.9
-37.875
-37.85
-37.825
-37.8
-37.775
-37.75
-37.725
-37.7
-37.675
-37.65
-37.625
-37.6
-37.575
-37.55
-37.525
-37.5
-37.475
-37.45
-37.425
-37.4
-37.375
-37.35
-37.325
-37.3
-37.275
-37.25
-37.225
-37.2
-37.175
-37.15
-37.125
-37.1
-37.075
-37.05
-37.025
-37
-36.975
-36.95
-36.925
-36.9
-36.875
-36.85
-36.825
-36.8
-36.775
-36.75
-36.725
-36.7
-36.675
-36.65
-36.625
-36.6
-36.575
-36.55
-36.525
-36.5
-36.475
-36.45
-36.425
-36.4
-36.375
-36.35
-36.325
-36.3
-36.275
-36.25
-36.225
-36.2
-36.175
-36.15
-36.125
-36.1
-36.075
-36.05
-36.025
-36
-35.975
-35.95
-35.925
-35.9
-35.875
-35.85
-35.825
-35.8
-35.775
-35.75
-35.725
-35.7
-35.675
-35.65
-35.625
-35.6
-35.575
-35.55
-35.525
-35.5
-35.475
-35.45
-35.425
-35.4
-35.375
-35.35
-35.325
-35.3
-35.275
-35.25
-35.225
-35.2
-35.175
-35.15
-35.125
-35.1
-35.075
-35.05
-35.025
-35
-34.975
-34.95
-34.925
-34.9
-34.875
-34.85
-34.825
-34.8
-34.775
-34.75
-34.725
-34.7
-34.675
-34.65
-34.625
-34.6
-34.575
-34.55
-34.525
-34.5
-34.475
-34.45
-34.425
-34.4
-34.375
-34.35
-34.325
-34.3
-34.275
-34.25
-34.225
-34.2
-34.175
-34.15
-34.125
-34.1
-34.075
-34.05
-34.025
-34
-33.975
-33.95
-33.925
-33.9
-33.875
-33.85
-33.825
-33.8
-33.775
-33.75
-33.725
-33.7
-33.675
-33.65
-33.625
-33.6
-33.575
-33.55
-33.525
-33.5
-33.475
-33.45
-33.425
-33.4
-33.375
-33.35
-33.325
-33.3
-33.275
-33.25
-33.225
-33.2
-33.175
-33.15
-33.125
-33.1
-33.075
-33.05
-33.025
-33
-32.975
-32.95
-32.925
-32.9
-32.875
-32.85
-32.825
-32.8
-32.775
-32.75
-32.725
-32.7
-32.675
-32.65
-32.625
-32.6
-32.575
-32.55
-32.525
-32.5
-32.475
-32.45
-32.425
-32.4
-32.375
-32.35
-32.325
-32.3
-32.275
-32.25
-32.225
-32.2
-32.175
-32.15
-32.125
-32.1
-32.075
-32.05
-32.025
-32
-31.975
-31.95
-31.925
-31.9
-31.875
-31.85
-31.825
-31.8
-31.775
-31.75
-31.725
-31.7
-31.675
-31.65
-31.625
-31.6
-31.575
-31.55
-31.525
-31.5
-31.475
-31.45
-31.425
-31.4
-31.375
-31.35
-31.325
-31.3
-31.275
-31.25
-31.225
-31.2
-31.175
-31.15
-31.125
-31.1
-31.075
-31.05
-31.025
-31
-30.975
-30.95
-30.925
-30.9
-30.875
-30.85
-30.825
-30.8
-30.775
-30.75
-30.725
-30.7
-30.675
-30.65
-30.625
-30.6
-30.575
-30.55
-30.525
-30.5
-30.475
-30.45
-30.425
-30.4
-30.375
-30.35
-30.325
-30.3
-30.275
-30.25
-30.225
-30.2
-30.175
-30.15
-30.125
-30.1
-30.075
-30.05
-30.025
-30
-29.975
-29.95
-29.925
-29.9
-29.875
-29.85
-29.825
-29.8
-29.775
-29.75
-29.725
-29.7
-29.675
-29.65
-29.625
-29.6
-29.575
-29.55
-29.525
-29.5
-29.475
-29.45
-29.425
-29.4
-29.375
-29.35
-29.325
-29.3
-29.275
-29.25
-29.225
-29.2
-29.175
-29.15
-29.125
-29.1
-29.075
-29.05
-29.025
-29
-28.975
-28.95
-28.925
-28.9
-28.875
-28.85
-28.825
-28.8
-28.775
-28.75
-28.725
-28.7
-28.675
-28.65
-28.625
-28.6
-28.575
-28.55
-28.525
-28.5
-28.475
-28.45
-28.425
-28.4
-28.375
-28.35
-28.325
-28.3
-28.275
-28.25
-28.225
-28.2
-28.175
-28.15
-28.125
-28.1
-28.075
-28.05
-28.025
-28
-27.975
-27.95
-27.925
-27.9
-27.875
-27.85
-27.825
-27.8
-27.775
-27.75
-27.725
-27.7
-27.675
-27.65
-27.625
-27.6
-27.575
-27.55
-27.525
-27.5
-27.475
-27.45
-27.425
-27.4
-27.375
-27.35
-27.325
-27.3
-27.275
-27.25
-27.225
-27.2
-27.175
-27.15
-27.125
-27.1
-27.075
-27.05
-27.025
-27
-26.975
-26.95
-26.925
-26.9
-26.875
-26.85
-26.825
-26.8
-26.775
-26.75
-26.725
-26.7
-26.675
-26.65
-26.625
-26.6
-26.575
-26.55
-26.525
-26.5
-26.475
-26.45
-26.425
-26.4
-26.375
-26.35
-26.325
-26.3
-26.275
-26.25
-26.225
-26.2
-26.175
-26.15
-26.125
-26.1
-26.075
-26.05
-26.025
-26
-25.975
-25.95
-25.925
-25.9
-25.875
-25.85
-25.825
-25.8
-25.775
-25.75
-25.725
-25.7
-25.675
-25.65
-25.625
-25.6
-25.575
-25.55
-25.525
-25.5
-25.475
-25.45
-25.425
-25.4
-25.375
-25.35
-25.325
-25.3
-25.275
-25.25
-25.225
-25.2
-25.175
-25.15
-25.125
-25.1
-25.075
-25.05
-25.025
-25
-24.975
-24.95
-24.925
-24.9
-24.875
-24.85
-24.825
-24.8
-24.775
-24.75
-24.725
-24.7
-24.675
-24.65
-24.625
-24.6
-24.575
-24.55
-24.525
-24.5
-24.475
-24.45
-24.425
-24.4
-24.375
-24.35
-24.325
-24.3
-24.275
-24.25
-24.225
-24.2
-24.175
-24.15
-24.125
-24.1
-24.075
-24.05
-24.025
-24
-23.975
-23.95
-23.925
-23.9
-23.875
-23.85
-23.825
-23.8
-23.775
-23.75
-23.725
-23.7
-23.675
-23.65
-23.625
-23.6
-23.575
-23.55
-23.525
-23.5
-23.475
-23.45
-23.425
-23.4
-23.375
-23.35
-23.325
-23.3
-23.275
-23.25
-23.225
-23.2
-23.175
-23.15
-23.125
-23.1
-23.075
-23.05
-23.025
-23
-22.975
-22.95
-22.925
-22.9
-22.875
-22.85
-22.825
-22.8
-22.775
-22.75
-22.725
-22.7
-22.675
-22.65
-22.625
-22.6
-22.575
-22.55
-22.525
-22.5
-22.475
-22.45
-22.425
-22.4
-22.375
-22.35
-22.325
-22.3
-22.275
-22.25
-22.225
-22.2
-22.175
-22.15
-22.125
-22.1
-22.075
-22.05
-22.025
-22
-21.975
-21.95
-21.925
-21.9
-21.875
-21.85
-21.825
-21.8
-21.775
-21.75
-21.725
-21.7
-21.675
-21.65
-21.625
-21.6
-21.575
-21.55
-21.525
-21.5
-21.475
-21.45
-21.425
-21.4
-21.375
-21.35
-21.325
-21.3
-21.275
-21.25
-21.225
-21.2
-21.175
-21.15
-21.125
-21.1
-21.075
-21.05
-21.025
-21
-20.975
-20.95
-20.925
-20.9
-20.875
-20.85
-20.825
-20.8
-20.775
-20.75
-20.725
-20.7
-20.675
-20.65
-20.625
-20.6
-20.575
-20.55
-20.525
-20.5
-20.475
-20.45
-20.425
-20.4
-20.375
-20.35
-20.325
-20.3
-20.275
-20.25
-20.225
-20.2
-20.175
-20.15
-20.125
-20.1
-20.075
-20.05
-20.025
-20
VAR_LIST_END
BEGIN
-15.018898,-167.26451
-13.168649,-152.40916
-13.844493,-153.38942
-12.944212,-161.54495
-14.738796,-159.85089
-13.784908,-161.19142
-14.238384,-155.40573
-13.679831,-161.90263
-12.156108,-168.72656
-13.750089,-163.92937
-14.238893,-169.78418
-14.405042,-164.14095
-14.504285,-174.83269
-12.63775,-166.88687
-12.955036,-159.69009
-17.047937,-162.62471
-14.006998,-165.71426
-14.447154,-158.10526
-13.140391,-159.9277
-15.0853,-171.61945
-13.801653,-169.55392
-13.3206,-162.65607
-14.057734,-154.31464
-13.315645,-168.33833
-13.902882,-163.10374
-12.615948,-164.66896
-13.683852,-160.49785
-14.672691,-146.7646
-15.178816,-154.96642
-14.853214,-156.86275
-14.161029,-171.63437
-13.424216,-162.18242
-13.689512,-158.20894
-14.365285,-158.06335
-13.161513,-171.51115
-12.322729,-161.55244
-12.279763,-155.60286
-14.495847,-170.28926
-13.364511,-151.2542
-14.687034,-163.45552
-14.502675,-166.77423
-14.071772,-167.2476
-13.231333,-152.32198
-13.219071,-160.54054
-14.197436,-163.29958
-15.354236,-169.77281
-14.201981,-163.48863
-14.863964,-167.81911
-13.686917,-163.75868
-14.673322,-159.23427
-13.56019,-163.46216
-12.635612,-166.98769
-13.710433,-159.80887
-14.606957,-155.29144
-15.074225,-160.68167
-15.247238,-160.44757
-13.510098,-158.80537
-13.329375,-168.13779
-13.041009,-162.49609
-12.819446,-167.97398
-13.445041,-162.07146
-13.120609,-170.26918
-14.384696,-159.81569
-13.662819,-160.79588
-14.777534,-165.77933
-13.743809,-164.76437
-15.222815,-165.73315
-14.575284,-158.66321
-13.667829,-154.97562
-13.477949,-164.54234
-15.074115,-167.68872
-13.921651,-159.73741
-13.948516,-160.38406
-13.110929,-167.06757
-14.756232,-150.22429
-13.685586,-161.69322
-12.186014,-171.13713
-14.16076,-160.26163
-13.321606,-156.87
-14.752104,-158.86407
-13.971874,-159.66948
-13.012016,-169.74443
-14.331063,-162.45915
-14.282464,-160.1505
-13.54141,-165.7202
-14.433672,-160.74828
-15.123479,-160.46907
-13.947049,-166.79004
-14.496843,-160.28723
-13.048039,-167.29811
-14.524024,-152.89397
-14.660713,-164.2628
-14.884501,-153.22148
-13.154253,-163.94156
-13.315488,-158.80437
-15.044336,-165.0732
-14.982368,-154.91138
-13.670456,-160.09721
-16.254431,-153.77483
-13.727863,-163.47064
-15.260776,-166.42667
-13.864289,-160.48573
-14.098251,-168.95642
-13.747993,-164.76537
-14.274009,-161.39247
-13.952355,-156.88928
-13.389589,-163.50064
-13.089849,-172.92268
-13.277628,-160.00322
-13.601663,-157.01599
-13.014776,-161.42487
-14.617534,-161.63116
-13.154655,-159.50258
-13.938842,-150.76889
-13.939116,-164.46214
-13.320229,-160.5215
-14.195799,-151.356
-14.89701,-159.62604
-12.445271,-158.85048
-12.689298,-162.06699
-14.624608,-168.34834
-14.808434,-161.9774
-13.47283,-154.8618
-14.850727,-166.09589
-13.24865,-163.67725
-14.693792,-155.43462
-13.973657,-153.59215
-13.998677,-161.07935
-14.551119,-156.61375
-14.077847,-163.85152
-14.590487,-154.24786
-14.212316,-160.87396
-14.07382,-165.08478
-13.061931,-159.36308
-15.575268,-152.91777
-13.524216,-162.18719
-15.815925,-168.18695
-13.8817,-164.77512
-14.53712,-164.21875
-14.350441,-162.03162
-13.148306,-165.31017
-12.970205,-162.54893
-13.296467,-162.40266
-14.371986,-163.01715
-14.293977,-167.57269
-14.270635,-161.75217
-14.467552,-159.94592
-14.093191,-166.13908
-13.570326,-157.60869
-13.485796,-160.59143
-13.684058,-158.64093
-13.906033,-156.6492
-13.476784,-163.04671
-14.468509,-160.45682
-13.667005,-163.27257
-14.779443,-168.39552
-14.06929,-163.15376
-14.307734,-162.47318
-13.354818,-162.44041
-13.840869,-160.25708
-15.09698,-162.88683
-13.964664,-160.23119
-13.990468,-158.18077
-13.338345,-157.46494
-14.611318,-165.76234
-14.777185,-165.84892
-14.058723,-160.82448
-14.552257,-162.56836
-14.626326,-161.63776
-13.400725,-164.54726
-12.879929,-167.11613
-14.397781,-158.86058
-13.867604,-164.71165
-14.275761,-162.13042
-13.18758,-157.42073
-13.860502,-154.39452
-13.241111,-163.04234
-14.931513,-159.61526
-13.752029,-159.37982
-13.707569,-168.51999
-13.015667,-155.49225
-14.573165,-166.39005
-14.540662,-167.23848
-13.360349,-154.6326
-13.903753,-160.52357
-13.890774,-162.17548
-14.215758,-163.37024
-13.83944,-165.79723
-13.56938,-157.9212
-15.135561,-160.79498
-14.224077,-159.33685
-15.079553,-175.81853
-13.775129,-165.7149
-13.60043,-164.49429
-15.297148,-161.03964
-13.695584,-158.83386
-14.395048,-168.69562
-14.472486,-157.24992
-14.941908,-164.19234
-15.416949,-167.65242
-14.105499,-162.75468
-14.505748,-159.98288
-14.163391,-162.95485
-14.948073,-158.4101
-14.178955,-157.51579
-13.704552,-155.95174
-15.082409,-156.72116
-14.280238,-166.70879
-13.629248,-161.51131
-13.856412,-159.8401
-14.558302,-159.13577
-14.984847,-164.59711
-14.361134,-159.57397
-13.82317,-161.33698
-14.30255,-162.04015
-15.042252,-157.97647
-12.569282,-164.50952
-13.907928,-163.28719
-14.711893,-160.31815
-13.330076,-158.93414
-14.172754,-158.12886
-14.187412,-162.97514
-13.637458,-157.61636
-14.843622,-158.76596
-13.781673,-157.99054
-13.86895,-158.23688
-14.426867,-166.39886
-14.074565,-158.02545
-14.323771,-160.13794
-13.953653,-167.52689
-13.242723,-155.85968
-13.503861,-158.06763
-14.290825,-157.22598
-14.05538,-165.60298
-14.342579,-163.83498
-13.851671,-162.00227
-13.6738,-161.74838
-15.047154,-153.96301
-13.558544,-159.38794
-13.891375,-166.67345
-13.476988,-158.94014
-13.937605,-157.70082
-13.577763,-162.05481
-14.347156,-162.76245
-14.079272,-159.26045
-13.772349,-164.19174
-14.146258,-162.28696
-14.367072,-161.33829
-13.831991,-164.29175
-14.109093,-164.5813
-13.919792,-158.59511
-13.937149,-161.53998
-13.877497,-160.84531
-14.055381,-160.94456
-14.212515,-162.87514
-13.869783,-164.23161
-13.81331,-163.69841
-14.075448,-163.25769
-12.723284,-163.5988
-12.955817,-167.03807
-13.818186,-165.5416
-14.864801,-162.43652
-14.638669,-160.98639
-13.628948,-163.3465
-14.240851,-173.54468
-14.340981,-159.35463
-14.101279,-159.53389
-13.931592,-167.50963
-14.31953,-157.01775
-14.556093,-164.98842
-13.260566,-159.02437
-14.257741,-164.77443
-14.589358,-159.62573
-14.428449,-157.29904
-14.565647,-161.62135
-13.59294,-158.96567
-14.181067,-166.22241
-14.077985,-159.8528
-14.51367,-159.37422
-13.549851,-163.16231
-14.136257,-160.51724
-14.621989,-159.09424
-13.952704,-165.31729
-13.775413,-158.72829
-14.738552,-162.85066
-13.673664,-159.43086
-14.341249,-159.82472
-14.275533,-162.33972
-14.347715,-155.83798
-13.672366,-161.24078
-13.863729,-161.53944
-14.009032,-164.48923
-14.010992,-161.63007
-13.848903,-161.92906
-14.595217,-160.97798
-13.938263,-168.31779
-14.690755,-162.71515
-14.123187,-158.2354
-13.232712,-164.42856
-14.084216,-162.58003
-14.269028,-161.52956
-14.191511,-163.15701
-14.201583,-162.91348
-13.709449,-163.23299
-14.690833,-163.96532
-13.315095,-160.08655
-13.927646,-160.0587
-14.023958,-161.75714
-14.27202,-159.78276
-14.501848,-159.87372
-14.385603,-153.69951
-13.979653,-166.25606
-14.056185,-160.65646
-13.823781,-165.59442
-13.434605,-164.4919
-14.431285,-163.96925
-14.54127,-168.75047
-14.030439,-162.66043
-13.943702,-161.45183
-14.419771,-166.25986
-13.811294,-162.77432
-13.920934,-160.60732
-13.743517,-161.5459
-14.373459,-162.55479
-14.715027,-161.23012
-14.771101,-162.22868
-14.5396,-163.04677
-14.000031,-164.54562
-13.591063,-160.79498
-13.568755,-165.07156
-14.100096,-164.42987
-13.846858,-162.64761
-13.914178,-162.37695
-13.821568,-164.67892
-13.708794,-165.00331
-14.82716,-161.64438
-13.98012,-161.15961
-13.915867,-161.75191
-13.962499,-167.17877
-13.864063,-165.22371
-13.865204,-161.05026
-14.729018,-162.47546
-14.138268,-163.66554
-14.269344,-157.61099
-13.685852,-165.79666
-14.030478,-168.30771
-14.377057,-165.85654
-13.990495,-162.21515
-14.34982,-166.27892
-13.98203,-164.03053
-14.297071,-160.44905
-14.329837,-161.73421
-13.961792,-162.89497
-14.437291,-161.558
-14.117383,-160.89944
-13.908401,-164.8044
-13.661265,-161.73558
-13.585275,-159.23361
-14.659403,-161.7765
-14.447241,-164.78987
-13.780179,-163.81818
-14.218902,-161.13997
-13.804343,-162.52141
-13.565361,-159.30736
-14.66859,-160.09189
-14.788875,-160.48149
-13.72998,-161.86914
-14.144169,-160.64575
-14.167664,-163.71709
-14.489979,-163.19527
-14.572639,-165.06245
-13.750855,-160.50285
-13.847459,-164.68927
-14.732,-156.73006
-14.184661,-160.12019
-14.26905,-160.38875
-13.585365,-164.49167
-13.911483,-164.33763
-13.916301,-163.5244
-14.056126,-158.09897
-13.435947,-160.79048
-14.022373,-161.41841
-13.918023,-160.37375
-14.203493,-163.3149
-14.455842,-163.72624
-13.704444,-160.01813
-14.877802,-164.46878
-13.710476,-163.11267
-13.416089,-165.67415
-14.419354,-158.14847
-14.35375,-160.26944
-14.012294,-161.08461
-14.255746,-161.2903
-13.89939,-162.95013
-13.877558,-162.37198
-13.311866,-158.82362
-13.833593,-160.44556
-13.707169,-161.13962
-14.613316,-165.20802
-14.035994,-159.50616
-13.757334,-159.72606
-13.818578,-164.40907
-13.625563,-161.57004
-13.760051,-165.56055
-13.638389,-163.72903
-14.226602,-161.34979
-14.251087,-159.33478
-14.248728,-161.35254
-14.034114,-160.9236
-13.936038,-158.11487
-14.073242,-159.56886
-14.154076,-163.99426
-14.183593,-163.83528
-14.197598,-165.17032
-14.324925,-166.71487
-14.187749,-163.07436
-14.281436,-159.65663
-13.895473,-160.78391
-14.626793,-162.84749
-13.760792,-162.00737
-13.83883,-161.8073
-14.068487,-157.48405
-14.094241,-163.51572
-13.735837,-162.39777
-14.53603,-159.87263
-14.099613,-165.07715
-14.092974,-161.52562
-14.658825,-161.42809
-14.003967,-162.31744
-13.83499,-156.98354
-13.975689,-165.48669
-14.2103,-167.01126
-14.286009,-163.39105
-13.992328,-162.8932
-14.184721,-160.98341
-13.527233,-156.80531
-14.127519,-158.93062
-14.200816,-160.82254
-14.318866,-160.94559
-14.373238,-159.65773
-13.963889,-160.74533
-14.45356,-156.3632
-13.944986,-159.74292
-14.105101,-161.05371
-14.511788,-163.763
-14.556613,-168.43054
-14.067081,-160.1649
-14.306312,-160.87845
-13.650496,-161.32854
-13.764938,-161.08305
-14.160351,-162.51625
-14.513231,-162.52507
-13.989246,-163.46135
-14.323355,-158.23163
-14.345885,-163.68834
-13.702812,-165.18668
-13.703681,-163.6176
-13.799115,-162.99208
-14.031312,-162.43312
-13.832215,-163.40797
-14.101487,-162.02341
-13.845091,-162.70154
-13.707701,-161.2355
-14.778638,-159.49538
-13.75314,-156.30974
-14.13544,-160.96997
-14.134337,-161.49077
-14.263621,-159.05275
-14.172627,-161.27931
-14.361397,-165.21899
-13.770769,-160.29385
-14.20744,-163.73851
-14.199089,-161.10179
-13.982139,-160.6545
-14.1199,-161.19806
-14.671639,-161.84756
-14.129869,-162.56209
-13.489478,-159.40326
-14.711201,-164.8378
-14.428376,-159.55771
-14.372264,-163.16974
-14.27749,-159.97383
-13.877401,-165.05898
-14.581028,-163.16487
-13.983907,-161.87776
-14.010526,-161.67293
-14.038397,-163.92644
-14.47616,-163.74097
-14.184167,-161.30455
-14.130116,-161.78307
-13.701948,-161.08527
-14.113224,-161.58748
-14.0806,-163.97646
-13.829502,-162.07291
-14.134046,-162.4803
-13.985792,-161.08067
-14.461568,-159.49872
-13.672829,-159.28577
-13.900108,-163.79648
-13.819893,-163.05107
-13.991762,-159.72227
-14.166218,-161.69008
-13.61877,-161.10782
-14.222733,-162.97913
-14.038539,-159.14925
-13.948245,-161.16254
-14.014378,-162.9807
-14.1752,-164.42207
-13.284602,-161.33847
-13.939253,-159.82411
-14.077533,-161.72002
-14.067684,-162.42558
-14.080206,-162.20245
-13.685485,-160.22629
-14.233782,-164.24733
-13.860265,-161.55528
-14.09035,-159.41385
-14.640209,-160.72287
-14.169756,-162.36449
-14.025233,-165.48022
-13.918059,-161.9543
-14.552817,-160.75897
-14.001184,-164.99811
-14.049697,-165.25246
-14.184973,-162.97154
-14.303307,-162.69875
-14.157546,-165.32695
-13.53098,-161.94122
-13.792277,-161.11612
-13.962693,-161.1124
-13.757132,-163.72304
-13.967916,-161.65964
-14.129267,-162.66338
-14.017365,-162.64812
-13.921395,-164.70525
-14.350534,-161.09219
-14.124069,-165.32422
-13.896067,-161.52747
-14.212735,-163.98753
-13.888179,-163.40533
-14.637671,-158.52586
-14.129629,-162.14702
-14.249381,-163.02252
-13.921072,-163.58618
-13.845244,-161.07187
-14.033627,-161.45412
-13.909883,-162.57985
-14.446368,-161.31351
-14.066319,-163.93839
-13.689696,-160.49638
-14.172984,-157.96104
-14.093739,-161.91675
-14.214892,-162.26935
-14.425447,-160.35574
-13.751622,-162.20401
-14.022762,-160.26799
-14.287332,-159.83061
-13.922233,-160.05974
-13.623087,-160.38821
-14.128081,-162.04271
-14.172686,-162.21782
-14.057506,-164.00343
-14.26298,-162.24852
-14.234411,-159.5864
-14.170827,-161.97781
-14.234411,-159.89023
-14.091954,-162.60718
-13.903821,-163.69896
-13.878002,-160.11668
-13.968408,-161.44963
-14.384563,-161.1076
-14.190969,-165.06099
-14.271452,-160.88054
-14.11658,-164.27367
-14.178538,-161.31482
