CITIFILE A.01.01
!Agilent Technologies,N5230C,MY48100142,A.08.04.10
!Agilent N5230C: A.08.04.10
!Format: LogMag/Angle
!Date: Friday, August 28, 2020 12:30:51
NAME CH1_DATA
VAR Power MAG 801
DATA S11 DBANGLE
DATA S21 DBANGLE
DATA S12 DBANGLE
DATA S22 DBANGLE
VAR_LIST_BEGIN
-40
-39.975
-39.95
-39.925
-39.9
-39.875
-39.85
-39.825
-39.8
-39.775
-39.75
-39.725
-39.7
-39.675
-39.65
-39.625
-39.6
-39.575
-39.55
-39.525
-39.5
-39.475
-39.45
-39.425
-39.4
-39.375
-39.35
-39.325
-39.3
-39.275
-39.25
-39.225
-39.2
-39.175
-39.15
-39.125
-39.1
-39.075
-39.05
-39.025
-39
-38.975
-38.95
-38.925
-38.9
-38.875
-38.85
-38.825
-38.8
-38.775
-38.75
-38.725
-38.7
-38.675
-38.65
-38.625
-38.6
-38.575
-38.55
-38.525
-38.5
-38.475
-38.45
-38.425
-38.4
-38.375
-38.35
-38.325
-38.3
-38.275
-38.25
-38.225
-38.2
-38.175
-38.15
-38.125
-38.1
-38.075
-38.05
-38.025
-38
-37.975
-37.95
-37.925
-37.9
-37.875
-37.85
-37.825
-37.8
-37.775
-37.75
-37.725
-37.7
-37.675
-37.65
-37.625
-37.6
-37.575
-37.55
-37.525
-37.5
-37.475
-37.45
-37.425
-37.4
-37.375
-37.35
-37.325
-37.3
-37.275
-37.25
-37.225
-37.2
-37.175
-37.15
-37.125
-37.1
-37.075
-37.05
-37.025
-37
-36.975
-36.95
-36.925
-36.9
-36.875
-36.85
-36.825
-36.8
-36.775
-36.75
-36.725
-36.7
-36.675
-36.65
-36.625
-36.6
-36.575
-36.55
-36.525
-36.5
-36.475
-36.45
-36.425
-36.4
-36.375
-36.35
-36.325
-36.3
-36.275
-36.25
-36.225
-36.2
-36.175
-36.15
-36.125
-36.1
-36.075
-36.05
-36.025
-36
-35.975
-35.95
-35.925
-35.9
-35.875
-35.85
-35.825
-35.8
-35.775
-35.75
-35.725
-35.7
-35.675
-35.65
-35.625
-35.6
-35.575
-35.55
-35.525
-35.5
-35.475
-35.45
-35.425
-35.4
-35.375
-35.35
-35.325
-35.3
-35.275
-35.25
-35.225
-35.2
-35.175
-35.15
-35.125
-35.1
-35.075
-35.05
-35.025
-35
-34.975
-34.95
-34.925
-34.9
-34.875
-34.85
-34.825
-34.8
-34.775
-34.75
-34.725
-34.7
-34.675
-34.65
-34.625
-34.6
-34.575
-34.55
-34.525
-34.5
-34.475
-34.45
-34.425
-34.4
-34.375
-34.35
-34.325
-34.3
-34.275
-34.25
-34.225
-34.2
-34.175
-34.15
-34.125
-34.1
-34.075
-34.05
-34.025
-34
-33.975
-33.95
-33.925
-33.9
-33.875
-33.85
-33.825
-33.8
-33.775
-33.75
-33.725
-33.7
-33.675
-33.65
-33.625
-33.6
-33.575
-33.55
-33.525
-33.5
-33.475
-33.45
-33.425
-33.4
-33.375
-33.35
-33.325
-33.3
-33.275
-33.25
-33.225
-33.2
-33.175
-33.15
-33.125
-33.1
-33.075
-33.05
-33.025
-33
-32.975
-32.95
-32.925
-32.9
-32.875
-32.85
-32.825
-32.8
-32.775
-32.75
-32.725
-32.7
-32.675
-32.65
-32.625
-32.6
-32.575
-32.55
-32.525
-32.5
-32.475
-32.45
-32.425
-32.4
-32.375
-32.35
-32.325
-32.3
-32.275
-32.25
-32.225
-32.2
-32.175
-32.15
-32.125
-32.1
-32.075
-32.05
-32.025
-32
-31.975
-31.95
-31.925
-31.9
-31.875
-31.85
-31.825
-31.8
-31.775
-31.75
-31.725
-31.7
-31.675
-31.65
-31.625
-31.6
-31.575
-31.55
-31.525
-31.5
-31.475
-31.45
-31.425
-31.4
-31.375
-31.35
-31.325
-31.3
-31.275
-31.25
-31.225
-31.2
-31.175
-31.15
-31.125
-31.1
-31.075
-31.05
-31.025
-31
-30.975
-30.95
-30.925
-30.9
-30.875
-30.85
-30.825
-30.8
-30.775
-30.75
-30.725
-30.7
-30.675
-30.65
-30.625
-30.6
-30.575
-30.55
-30.525
-30.5
-30.475
-30.45
-30.425
-30.4
-30.375
-30.35
-30.325
-30.3
-30.275
-30.25
-30.225
-30.2
-30.175
-30.15
-30.125
-30.1
-30.075
-30.05
-30.025
-30
-29.975
-29.95
-29.925
-29.9
-29.875
-29.85
-29.825
-29.8
-29.775
-29.75
-29.725
-29.7
-29.675
-29.65
-29.625
-29.6
-29.575
-29.55
-29.525
-29.5
-29.475
-29.45
-29.425
-29.4
-29.375
-29.35
-29.325
-29.3
-29.275
-29.25
-29.225
-29.2
-29.175
-29.15
-29.125
-29.1
-29.075
-29.05
-29.025
-29
-28.975
-28.95
-28.925
-28.9
-28.875
-28.85
-28.825
-28.8
-28.775
-28.75
-28.725
-28.7
-28.675
-28.65
-28.625
-28.6
-28.575
-28.55
-28.525
-28.5
-28.475
-28.45
-28.425
-28.4
-28.375
-28.35
-28.325
-28.3
-28.275
-28.25
-28.225
-28.2
-28.175
-28.15
-28.125
-28.1
-28.075
-28.05
-28.025
-28
-27.975
-27.95
-27.925
-27.9
-27.875
-27.85
-27.825
-27.8
-27.775
-27.75
-27.725
-27.7
-27.675
-27.65
-27.625
-27.6
-27.575
-27.55
-27.525
-27.5
-27.475
-27.45
-27.425
-27.4
-27.375
-27.35
-27.325
-27.3
-27.275
-27.25
-27.225
-27.2
-27.175
-27.15
-27.125
-27.1
-27.075
-27.05
-27.025
-27
-26.975
-26.95
-26.925
-26.9
-26.875
-26.85
-26.825
-26.8
-26.775
-26.75
-26.725
-26.7
-26.675
-26.65
-26.625
-26.6
-26.575
-26.55
-26.525
-26.5
-26.475
-26.45
-26.425
-26.4
-26.375
-26.35
-26.325
-26.3
-26.275
-26.25
-26.225
-26.2
-26.175
-26.15
-26.125
-26.1
-26.075
-26.05
-26.025
-26
-25.975
-25.95
-25.925
-25.9
-25.875
-25.85
-25.825
-25.8
-25.775
-25.75
-25.725
-25.7
-25.675
-25.65
-25.625
-25.6
-25.575
-25.55
-25.525
-25.5
-25.475
-25.45
-25.425
-25.4
-25.375
-25.35
-25.325
-25.3
-25.275
-25.25
-25.225
-25.2
-25.175
-25.15
-25.125
-25.1
-25.075
-25.05
-25.025
-25
-24.975
-24.95
-24.925
-24.9
-24.875
-24.85
-24.825
-24.8
-24.775
-24.75
-24.725
-24.7
-24.675
-24.65
-24.625
-24.6
-24.575
-24.55
-24.525
-24.5
-24.475
-24.45
-24.425
-24.4
-24.375
-24.35
-24.325
-24.3
-24.275
-24.25
-24.225
-24.2
-24.175
-24.15
-24.125
-24.1
-24.075
-24.05
-24.025
-24
-23.975
-23.95
-23.925
-23.9
-23.875
-23.85
-23.825
-23.8
-23.775
-23.75
-23.725
-23.7
-23.675
-23.65
-23.625
-23.6
-23.575
-23.55
-23.525
-23.5
-23.475
-23.45
-23.425
-23.4
-23.375
-23.35
-23.325
-23.3
-23.275
-23.25
-23.225
-23.2
-23.175
-23.15
-23.125
-23.1
-23.075
-23.05
-23.025
-23
-22.975
-22.95
-22.925
-22.9
-22.875
-22.85
-22.825
-22.8
-22.775
-22.75
-22.725
-22.7
-22.675
-22.65
-22.625
-22.6
-22.575
-22.55
-22.525
-22.5
-22.475
-22.45
-22.425
-22.4
-22.375
-22.35
-22.325
-22.3
-22.275
-22.25
-22.225
-22.2
-22.175
-22.15
-22.125
-22.1
-22.075
-22.05
-22.025
-22
-21.975
-21.95
-21.925
-21.9
-21.875
-21.85
-21.825
-21.8
-21.775
-21.75
-21.725
-21.7
-21.675
-21.65
-21.625
-21.6
-21.575
-21.55
-21.525
-21.5
-21.475
-21.45
-21.425
-21.4
-21.375
-21.35
-21.325
-21.3
-21.275
-21.25
-21.225
-21.2
-21.175
-21.15
-21.125
-21.1
-21.075
-21.05
-21.025
-21
-20.975
-20.95
-20.925
-20.9
-20.875
-20.85
-20.825
-20.8
-20.775
-20.75
-20.725
-20.7
-20.675
-20.65
-20.625
-20.6
-20.575
-20.55
-20.525
-20.5
-20.475
-20.45
-20.425
-20.4
-20.375
-20.35
-20.325
-20.3
-20.275
-20.25
-20.225
-20.2
-20.175
-20.15
-20.125
-20.1
-20.075
-20.05
-20.025
-20
VAR_LIST_END
BEGIN
-16.181286,-165.93488
-15.652267,-160.76718
-15.38969,-150.76907
-14.972615,-161.36278
-14.150533,-173.27933
-16.083927,-156.02791
-14.903552,-152.28365
-14.430244,-145.09807
-15.019166,-161.34286
-14.45977,-163.98868
-16.235884,-153.77425
-16.120502,-157.35204
-12.956909,-164.07201
-14.969169,-151.54428
-14.603238,-170.48325
-16.203999,-151.66599
-14.702224,-161.25807
-14.825433,-164.04515
-15.296065,-171.13402
-14.179344,-144.44518
-17.712738,-161.34572
-15.029355,-157.93231
-14.049367,-161.92252
-16.753172,-162.53687
-15.073117,-162.99207
-16.359198,-160.53336
-14.692416,-149.73309
-14.088098,-149.63976
-17.028458,-171.90837
-14.660916,-165.47368
-12.77724,-146.16759
-13.146799,-149.51752
-14.715672,-166.86572
-15.230932,-165.3076
-15.48075,-145.25952
-14.760125,-148.8636
-15.384442,-147.02786
-16.19953,-150.53232
-13.938128,-158.72058
-12.388286,-158.59409
-14.11604,-163.34854
-13.625731,-157.38693
-14.120448,-159.69032
-14.445586,-159.67363
-15.995337,-156.85565
-14.564928,-155.77173
-15.25783,-156.81485
-16.966934,-162.48288
-17.278051,-167.2701
-14.577535,-150.78336
-13.566124,-158.88344
-17.614607,-151.09937
-14.882786,-156.71019
-16.98369,-171.97232
-16.772417,-161.79762
-16.705999,-152.13179
-14.091587,-156.07771
-13.88302,-152.38033
-18.272188,-156.11378
-15.223412,-160.38377
-14.569942,-158.5811
-16.193457,-157.4111
-14.29924,-161.85349
-15.63248,-174.51682
-15.425095,-166.0993
-15.63479,-145.99113
-12.643672,-165.29204
-16.932436,-169.63799
-14.351712,-170.21571
-14.472122,-156.89645
-13.908604,-163.35513
-14.915577,-179.99451
-14.778866,-166.81024
-13.965243,-165.8287
-14.476294,-165.27682
-12.988481,-169.06575
-17.802465,-160.29694
-13.249081,-148.59134
-15.967463,-171.76019
-14.635901,-147.77722
-14.771811,-150.23152
-15.245818,-153.11386
-14.390862,-154.42581
-14.070748,-157.79141
-15.327837,-169.88075
-15.063693,-164.61043
-14.478912,-163.39972
-17.496149,-160.6433
-14.577765,-155.90352
-14.967611,-151.10762
-15.453894,-153.33766
-15.425955,-170.15733
-17.123886,-154.68791
-15.502379,-157.44774
-14.574178,-163.05704
-15.195646,-148.25586
-13.238876,-158.87451
-14.312841,-153.59337
-15.812533,-154.55513
-17.170448,-159.0742
-16.358774,-155.9169
-14.927879,-146.0929
-14.769567,-173.42279
-16.23531,-162.9884
-15.028634,-149.1521
-14.850396,-154.63063
-15.337322,-150.74101
-15.192006,-158.23529
-13.646732,-159.2933
-12.955194,-167.55475
-14.001578,-162.03523
-17.758081,-160.6008
-15.663579,-167.54582
-15.603239,-155.16344
-14.645143,-166.96831
-15.88091,-172.61276
-16.703335,-156.8844
-15.781096,-159.95093
-16.029745,-147.67415
-15.238867,-157.31885
-15.154718,-150.1209
-16.688269,-150.88232
-15.466718,-151.08928
-15.815321,-170.87819
-14.903179,-173.73312
-14.336601,-164.77994
-14.028756,-149.95348
-15.2821,-159.15858
-14.38055,-163.65106
-16.047773,-173.45639
-15.149756,-155.64003
-14.790886,-165.15695
-17.486967,-159.9498
-14.513478,-163.11996
-14.353681,-161.46638
-15.503291,-168.6931
-14.323079,-152.57808
-17.113783,-147.34058
-15.861856,-153.19753
-14.967777,-158.00543
-13.685892,-154.47134
-15.202037,-158.82169
-15.020792,-161.332
-14.760294,-159.89777
-15.206655,-154.59781
-14.117828,-147.71919
-16.287104,-148.57756
-13.812634,-160.78746
-14.835311,-161.89867
-15.486861,-148.55673
-13.780608,-150.60278
-14.777313,-156.65553
-15.54135,-160.89165
-15.647682,-159.77661
-14.585217,-154.45363
-17.464962,-157.10867
-14.300714,-172.42413
-15.321147,-163.95454
-16.060827,-177.83742
-14.602101,-166.89697
-16.528662,-162.18224
-13.62505,-165.19356
-14.623013,-163.20442
-15.643702,-169.13727
-14.341261,-150.7666
-15.589406,-167.14285
-15.690594,-160.95062
-14.461989,-158.36719
-16.917532,-159.0249
-14.231939,-161.79276
-15.106182,-162.56137
-15.465588,-150.08527
-14.149577,-172.74545
-14.6018,-152.11884
-13.72718,-161.69978
-13.892566,-155.04672
-14.06237,-161.28294
-14.046334,-153.56064
-15.615531,-158.02893
-16.577673,-151.97575
-14.015791,-149.42369
-14.329847,-153.61691
-14.093437,-166.53427
-15.322561,-165.17496
-13.44321,-164.58658
-14.752109,-160.71938
-14.2999,-148.31165
-14.479364,-161.10483
-17.473989,-161.48094
-15.466516,-149.38907
-14.373121,-154.91219
-14.904756,-158.95956
-15.258834,-166.20592
-14.680447,-154.77242
-14.967409,-165.40498
-15.524611,-158.06087
-14.513824,-159.86122
-15.527011,-158.47757
-14.480325,-160.82118
-15.531883,-155.6949
-14.306005,-158.33359
-16.240177,-153.95047
-17.066359,-165.22723
-15.337864,-163.55347
-15.682972,-164.67572
-14.945876,-159.48926
-15.447846,-158.46133
-15.6671,-165.35576
-14.387413,-156.99913
-15.387486,-162.31186
-14.443444,-169.23219
-15.123337,-166.24316
-16.340437,-149.8826
-15.815196,-161.84814
-16.254356,-150.17937
-14.397684,-154.3149
-15.351631,-171.16393
-15.220563,-157.83466
-14.765863,-167.33276
-15.240864,-154.91356
-13.85915,-164.88499
-15.824512,-146.10049
-15.144158,-159.71576
-14.690343,-158.76674
-13.937447,-160.4565
-14.543362,-151.95882
-14.976974,-158.78648
-14.14709,-158.21233
-14.824466,-160.91823
-15.327706,-159.81247
-15.362115,-158.35329
-14.166853,-153.32112
-15.080221,-151.90202
-16.464531,-147.67181
-15.314624,-160.69702
-14.445509,-155.51926
-14.942032,-149.32381
-16.540207,-169.32845
-15.384228,-154.06082
-16.32263,-167.1483
-14.46538,-162.82886
-14.440271,-156.79559
-15.119045,-150.88008
-14.647038,-159.65782
-14.426517,-164.72478
-15.21399,-161.11577
-14.048,-158.49075
-16.039465,-162.23393
-14.551287,-153.99631
-15.661547,-170.45834
-16.488144,-162.38979
-15.866073,-162.5392
-14.004316,-147.92645
-14.823592,-160.35138
-14.548698,-157.22565
-14.606855,-158.24144
-15.397723,-160.64288
-15.437014,-152.19659
-15.251953,-155.00644
-15.133473,-158.09305
-14.417867,-160.33151
-15.153947,-165.59935
-14.676064,-159.16824
-14.849826,-153.96873
-15.339468,-162.92616
-16.227449,-162.58514
-15.067921,-159.64024
-17.076389,-152.68668
-14.817873,-169.10408
-14.631326,-161.75702
-13.816061,-158.99989
-14.680052,-151.3578
-15.384164,-166.2303
-14.63569,-158.30814
-14.043808,-162.36389
-14.610254,-162.25952
-13.772344,-160.95473
-15.735709,-156.61459
-15.179617,-161.44016
-15.131966,-157.49998
-14.947007,-160.17746
-14.731827,-155.16606
-14.033744,-157.46844
-14.974545,-160.14027
-14.044443,-156.54311
-16.333572,-164.20216
-15.505331,-156.40083
-14.365666,-156.04352
-14.560678,-158.23866
-14.870029,-158.00159
-15.286516,-162.65031
-16.624126,-158.74268
-14.699871,-165.0764
-16.255823,-163.19688
-15.845215,-158.78534
-14.399715,-156.11592
-14.54406,-158.49181
-16.428478,-151.51579
-15.978545,-167.57416
-14.55681,-174.77393
-13.545526,-155.11182
-14.488813,-156.47691
-14.67004,-156.79637
-14.681973,-155.35893
-14.563284,-159.37177
-15.481121,-162.13802
-13.951466,-158.66551
-15.205134,-158.31184
-14.671011,-164.15042
-15.032598,-164.93298
-14.755291,-164.90027
-14.44553,-168.68503
-16.357264,-165.38857
-15.371856,-159.54573
-15.459985,-160.99844
-13.721023,-159.37376
-15.121093,-160.48685
-14.932381,-169.13661
-14.941328,-164.75272
-14.947783,-166.97177
-15.640298,-166.11186
-15.103785,-166.53667
-16.351259,-156.12601
-14.236208,-164.87587
-15.690705,-160.94746
-14.493252,-156.66052
-14.718697,-154.4041
-14.345875,-158.52155
-15.053855,-159.23744
-14.406332,-151.95699
-14.308305,-162.06119
-14.823633,-158.71191
-14.464352,-157.57567
-15.442089,-160.61549
-15.996685,-158.0843
-15.883346,-151.86722
-15.156049,-164.04742
-15.026187,-161.39622
-14.290425,-154.49973
-15.328321,-152.79356
-16.438951,-159.98804
-14.492346,-165.3136
-15.260452,-153.33176
-14.823464,-160.66342
-15.024129,-154.85815
-13.675167,-157.7506
-14.723501,-159.27887
-15.777699,-156.14412
-15.062511,-153.71475
-15.430952,-161.92708
-14.226794,-159.8985
-14.981885,-164.02304
-15.307246,-163.26967
-15.679298,-159.51663
-15.556311,-160.0038
-15.264818,-162.06331
-14.914296,-159.86861
-15.06731,-156.74146
-14.837276,-162.34761
-15.283165,-161.34137
-14.814339,-162.16182
-15.159092,-158.35805
-14.482696,-161.47449
-15.45119,-156.7986
-14.084669,-165.76695
-15.557796,-158.04539
-15.343371,-161.91119
-15.179353,-158.96658
-15.380034,-160.85802
-15.837874,-166.58778
-13.866809,-154.87161
-14.75738,-163.54608
-14.687755,-159.77272
-14.549398,-157.84242
-15.440255,-167.75705
-15.974634,-161.94856
-14.688051,-163.13222
-14.276769,-158.25931
-14.460497,-158.75601
-14.749928,-159.34195
-15.803621,-159.19968
-14.926579,-158.31186
-15.003793,-164.19495
-17.418983,-158.827
-15.528152,-162.90038
-15.752378,-161.73901
-15.873101,-159.96814
-15.626869,-159.41774
-14.185579,-161.25449
-15.4571,-154.97316
-14.36967,-157.85429
-15.265061,-162.94038
-15.198542,-154.27377
-15.372721,-159.8439
-16.238636,-161.8989
-15.199564,-158.59827
-14.633221,-159.47728
-14.413478,-162.93854
-16.083687,-154.08075
-14.993726,-157.968
-14.355965,-160.84875
-14.876406,-159.55844
-14.553097,-159.99417
-14.856864,-157.43736
-14.748758,-157.952
-15.502185,-161.76309
-15.899042,-164.55954
-14.602962,-156.4563
-15.517748,-154.79645
-14.703646,-162.21584
-15.36571,-158.47372
-15.704475,-154.94138
-15.35812,-158.59029
-14.428796,-153.39516
-15.613055,-158.00473
-15.345329,-161.95702
-15.137778,-154.41219
-15.655058,-159.33452
-15.279353,-154.68343
-15.435244,-161.40875
-14.821207,-163.97112
-14.961639,-161.70819
-14.995048,-161.49586
-15.04465,-161.4577
-15.581158,-166.8111
-15.05891,-161.18065
-15.182964,-160.75999
-13.892831,-159.97929
-15.360198,-159.73119
-14.554127,-159.15868
-15.518536,-154.61322
-15.12077,-157.67168
-14.690104,-158.20319
-14.629562,-160.96339
-14.619737,-154.21576
-15.126086,-161.36217
-15.700431,-158.13777
-14.835855,-156.36499
-14.682337,-163.05873
-14.721473,-160.34526
-15.165362,-157.62329
-15.764791,-161.09009
-15.465642,-159.49689
-14.652997,-157.30882
-14.875542,-157.77185
-14.849742,-158.68556
-14.650731,-157.69922
-16.261196,-159.59273
-14.250152,-162.97853
-14.772867,-158.16681
-14.910038,-154.87056
-15.148147,-163.85173
-15.637043,-164.59845
-14.460614,-161.14763
-15.078221,-161.52893
-14.902925,-163.24667
-15.116579,-158.78246
-15.25269,-157.51082
-15.148889,-157.83098
-14.964415,-158.74655
-14.641568,-164.2532
-15.115186,-162.42987
-15.737759,-157.4254
-15.25783,-159.03856
-14.901373,-163.41138
-14.401161,-158.08217
-15.363729,-158.85274
-14.388329,-163.51208
-15.560869,-156.73433
-15.257799,-152.06891
-15.074226,-159.07501
-14.790847,-160.25735
-14.714449,-159.50655
-15.081177,-157.53432
-14.652752,-156.53604
-15.472778,-158.51871
-14.559485,-161.20752
-14.86221,-157.97618
-14.686777,-160.5844
-14.879946,-154.15863
-14.712771,-161.56781
-15.487744,-161.08836
-14.96523,-162.83545
-15.093854,-160.40938
-15.231002,-161.18317
-15.493013,-158.90044
-14.547969,-158.94444
-15.023817,-161.39818
-14.630615,-159.45532
-14.735664,-159.72971
-15.389026,-158.09555
-14.965914,-154.5466
-15.083577,-160.07545
-14.997628,-160.30937
-14.69873,-158.49013
-14.978019,-158.62785
-14.879177,-159.6348
-15.816445,-157.96596
-14.685394,-155.99699
-15.086204,-162.98671
-15.227239,-160.61401
-15.756535,-159.29155
-15.047997,-158.89111
-15.121148,-162.28207
-14.994683,-164.20963
-15.267115,-159.72206
-15.180368,-159.03871
-14.581426,-161.22932
-15.370591,-157.89575
-15.405462,-161.65498
-15.764515,-158.58943
-15.291658,-161.66139
-15.217317,-158.13147
-15.032893,-161.47545
-14.609449,-158.58472
-15.824352,-158.58868
-14.671845,-158.06041
-15.185716,-163.30519
-14.684937,-162.1752
-15.78299,-159.72508
-15.146715,-159.54332
-15.524101,-156.47519
-15.465012,-160.43289
-16.184278,-159.66136
-14.978705,-162.38687
-14.941836,-157.26416
-15.464618,-160.20645
-14.825554,-159.39572
-14.651678,-154.58415
-15.284965,-157.70421
-14.912884,-157.45996
-15.239399,-159.76219
-14.760128,-154.18687
-15.32012,-160.9285
-15.194945,-158.6508
-14.846583,-160.88676
-14.836918,-157.59738
-14.73503,-159.4359
-15.330455,-162.27266
-14.853562,-159.77113
-15.349689,-162.31682
-15.760168,-160.25967
-15.227182,-158.38423
-15.431434,-158.74811
-14.743182,-159.05731
-15.257187,-158.145
-15.286124,-159.58672
-15.26926,-159.79608
-14.720134,-157.55168
-14.948674,-156.36618
-14.779199,-158.50977
-15.630023,-160.62823
-14.523632,-161.67365
-14.980931,-157.48776
-14.579118,-160.44279
-15.50731,-156.98671
-15.263409,-159.96828
-14.846026,-159.73335
-15.684646,-161.0753
-14.902962,-160.71414
-14.896602,-160.86156
-15.375643,-159.17056
-15.048407,-160.49245
-14.907506,-160.058
-15.391368,-159.97334
-15.425666,-162.13129
-15.029422,-159.04628
-15.120898,-158.90862
-15.161931,-154.21358
-15.347547,-159.30849
-15.340558,-158.58434
-14.776425,-158.38548
-15.646892,-158.95837
-14.894147,-157.25188
-14.681153,-162.19493
-14.957393,-160.21169
