CITIFILE A.01.01
!Agilent Technologies,N5230C,MY48100142,A.08.04.10
!Agilent N5230C: A.08.04.10
!Format: LogMag/Angle
!Date: Thursday, August 13, 2020 17:54:29
NAME CH1_DATA
VAR Power MAG 801
DATA S11 DBANGLE
DATA S21 DBANGLE
DATA S12 DBANGLE
DATA S22 DBANGLE
VAR_LIST_BEGIN
-40
-39.975
-39.95
-39.925
-39.9
-39.875
-39.85
-39.825
-39.8
-39.775
-39.75
-39.725
-39.7
-39.675
-39.65
-39.625
-39.6
-39.575
-39.55
-39.525
-39.5
-39.475
-39.45
-39.425
-39.4
-39.375
-39.35
-39.325
-39.3
-39.275
-39.25
-39.225
-39.2
-39.175
-39.15
-39.125
-39.1
-39.075
-39.05
-39.025
-39
-38.975
-38.95
-38.925
-38.9
-38.875
-38.85
-38.825
-38.8
-38.775
-38.75
-38.725
-38.7
-38.675
-38.65
-38.625
-38.6
-38.575
-38.55
-38.525
-38.5
-38.475
-38.45
-38.425
-38.4
-38.375
-38.35
-38.325
-38.3
-38.275
-38.25
-38.225
-38.2
-38.175
-38.15
-38.125
-38.1
-38.075
-38.05
-38.025
-38
-37.975
-37.95
-37.925
-37.9
-37.875
-37.85
-37.825
-37.8
-37.775
-37.75
-37.725
-37.7
-37.675
-37.65
-37.625
-37.6
-37.575
-37.55
-37.525
-37.5
-37.475
-37.45
-37.425
-37.4
-37.375
-37.35
-37.325
-37.3
-37.275
-37.25
-37.225
-37.2
-37.175
-37.15
-37.125
-37.1
-37.075
-37.05
-37.025
-37
-36.975
-36.95
-36.925
-36.9
-36.875
-36.85
-36.825
-36.8
-36.775
-36.75
-36.725
-36.7
-36.675
-36.65
-36.625
-36.6
-36.575
-36.55
-36.525
-36.5
-36.475
-36.45
-36.425
-36.4
-36.375
-36.35
-36.325
-36.3
-36.275
-36.25
-36.225
-36.2
-36.175
-36.15
-36.125
-36.1
-36.075
-36.05
-36.025
-36
-35.975
-35.95
-35.925
-35.9
-35.875
-35.85
-35.825
-35.8
-35.775
-35.75
-35.725
-35.7
-35.675
-35.65
-35.625
-35.6
-35.575
-35.55
-35.525
-35.5
-35.475
-35.45
-35.425
-35.4
-35.375
-35.35
-35.325
-35.3
-35.275
-35.25
-35.225
-35.2
-35.175
-35.15
-35.125
-35.1
-35.075
-35.05
-35.025
-35
-34.975
-34.95
-34.925
-34.9
-34.875
-34.85
-34.825
-34.8
-34.775
-34.75
-34.725
-34.7
-34.675
-34.65
-34.625
-34.6
-34.575
-34.55
-34.525
-34.5
-34.475
-34.45
-34.425
-34.4
-34.375
-34.35
-34.325
-34.3
-34.275
-34.25
-34.225
-34.2
-34.175
-34.15
-34.125
-34.1
-34.075
-34.05
-34.025
-34
-33.975
-33.95
-33.925
-33.9
-33.875
-33.85
-33.825
-33.8
-33.775
-33.75
-33.725
-33.7
-33.675
-33.65
-33.625
-33.6
-33.575
-33.55
-33.525
-33.5
-33.475
-33.45
-33.425
-33.4
-33.375
-33.35
-33.325
-33.3
-33.275
-33.25
-33.225
-33.2
-33.175
-33.15
-33.125
-33.1
-33.075
-33.05
-33.025
-33
-32.975
-32.95
-32.925
-32.9
-32.875
-32.85
-32.825
-32.8
-32.775
-32.75
-32.725
-32.7
-32.675
-32.65
-32.625
-32.6
-32.575
-32.55
-32.525
-32.5
-32.475
-32.45
-32.425
-32.4
-32.375
-32.35
-32.325
-32.3
-32.275
-32.25
-32.225
-32.2
-32.175
-32.15
-32.125
-32.1
-32.075
-32.05
-32.025
-32
-31.975
-31.95
-31.925
-31.9
-31.875
-31.85
-31.825
-31.8
-31.775
-31.75
-31.725
-31.7
-31.675
-31.65
-31.625
-31.6
-31.575
-31.55
-31.525
-31.5
-31.475
-31.45
-31.425
-31.4
-31.375
-31.35
-31.325
-31.3
-31.275
-31.25
-31.225
-31.2
-31.175
-31.15
-31.125
-31.1
-31.075
-31.05
-31.025
-31
-30.975
-30.95
-30.925
-30.9
-30.875
-30.85
-30.825
-30.8
-30.775
-30.75
-30.725
-30.7
-30.675
-30.65
-30.625
-30.6
-30.575
-30.55
-30.525
-30.5
-30.475
-30.45
-30.425
-30.4
-30.375
-30.35
-30.325
-30.3
-30.275
-30.25
-30.225
-30.2
-30.175
-30.15
-30.125
-30.1
-30.075
-30.05
-30.025
-30
-29.975
-29.95
-29.925
-29.9
-29.875
-29.85
-29.825
-29.8
-29.775
-29.75
-29.725
-29.7
-29.675
-29.65
-29.625
-29.6
-29.575
-29.55
-29.525
-29.5
-29.475
-29.45
-29.425
-29.4
-29.375
-29.35
-29.325
-29.3
-29.275
-29.25
-29.225
-29.2
-29.175
-29.15
-29.125
-29.1
-29.075
-29.05
-29.025
-29
-28.975
-28.95
-28.925
-28.9
-28.875
-28.85
-28.825
-28.8
-28.775
-28.75
-28.725
-28.7
-28.675
-28.65
-28.625
-28.6
-28.575
-28.55
-28.525
-28.5
-28.475
-28.45
-28.425
-28.4
-28.375
-28.35
-28.325
-28.3
-28.275
-28.25
-28.225
-28.2
-28.175
-28.15
-28.125
-28.1
-28.075
-28.05
-28.025
-28
-27.975
-27.95
-27.925
-27.9
-27.875
-27.85
-27.825
-27.8
-27.775
-27.75
-27.725
-27.7
-27.675
-27.65
-27.625
-27.6
-27.575
-27.55
-27.525
-27.5
-27.475
-27.45
-27.425
-27.4
-27.375
-27.35
-27.325
-27.3
-27.275
-27.25
-27.225
-27.2
-27.175
-27.15
-27.125
-27.1
-27.075
-27.05
-27.025
-27
-26.975
-26.95
-26.925
-26.9
-26.875
-26.85
-26.825
-26.8
-26.775
-26.75
-26.725
-26.7
-26.675
-26.65
-26.625
-26.6
-26.575
-26.55
-26.525
-26.5
-26.475
-26.45
-26.425
-26.4
-26.375
-26.35
-26.325
-26.3
-26.275
-26.25
-26.225
-26.2
-26.175
-26.15
-26.125
-26.1
-26.075
-26.05
-26.025
-26
-25.975
-25.95
-25.925
-25.9
-25.875
-25.85
-25.825
-25.8
-25.775
-25.75
-25.725
-25.7
-25.675
-25.65
-25.625
-25.6
-25.575
-25.55
-25.525
-25.5
-25.475
-25.45
-25.425
-25.4
-25.375
-25.35
-25.325
-25.3
-25.275
-25.25
-25.225
-25.2
-25.175
-25.15
-25.125
-25.1
-25.075
-25.05
-25.025
-25
-24.975
-24.95
-24.925
-24.9
-24.875
-24.85
-24.825
-24.8
-24.775
-24.75
-24.725
-24.7
-24.675
-24.65
-24.625
-24.6
-24.575
-24.55
-24.525
-24.5
-24.475
-24.45
-24.425
-24.4
-24.375
-24.35
-24.325
-24.3
-24.275
-24.25
-24.225
-24.2
-24.175
-24.15
-24.125
-24.1
-24.075
-24.05
-24.025
-24
-23.975
-23.95
-23.925
-23.9
-23.875
-23.85
-23.825
-23.8
-23.775
-23.75
-23.725
-23.7
-23.675
-23.65
-23.625
-23.6
-23.575
-23.55
-23.525
-23.5
-23.475
-23.45
-23.425
-23.4
-23.375
-23.35
-23.325
-23.3
-23.275
-23.25
-23.225
-23.2
-23.175
-23.15
-23.125
-23.1
-23.075
-23.05
-23.025
-23
-22.975
-22.95
-22.925
-22.9
-22.875
-22.85
-22.825
-22.8
-22.775
-22.75
-22.725
-22.7
-22.675
-22.65
-22.625
-22.6
-22.575
-22.55
-22.525
-22.5
-22.475
-22.45
-22.425
-22.4
-22.375
-22.35
-22.325
-22.3
-22.275
-22.25
-22.225
-22.2
-22.175
-22.15
-22.125
-22.1
-22.075
-22.05
-22.025
-22
-21.975
-21.95
-21.925
-21.9
-21.875
-21.85
-21.825
-21.8
-21.775
-21.75
-21.725
-21.7
-21.675
-21.65
-21.625
-21.6
-21.575
-21.55
-21.525
-21.5
-21.475
-21.45
-21.425
-21.4
-21.375
-21.35
-21.325
-21.3
-21.275
-21.25
-21.225
-21.2
-21.175
-21.15
-21.125
-21.1
-21.075
-21.05
-21.025
-21
-20.975
-20.95
-20.925
-20.9
-20.875
-20.85
-20.825
-20.8
-20.775
-20.75
-20.725
-20.7
-20.675
-20.65
-20.625
-20.6
-20.575
-20.55
-20.525
-20.5
-20.475
-20.45
-20.425
-20.4
-20.375
-20.35
-20.325
-20.3
-20.275
-20.25
-20.225
-20.2
-20.175
-20.15
-20.125
-20.1
-20.075
-20.05
-20.025
-20
VAR_LIST_END
BEGIN
-14.922728,-154.27708
-15.036525,-157.6631
-15.450315,-159.4998
-14.313181,-160.58311
-14.364569,-152.16661
-15.114616,-159.90536
-15.323852,-155.42159
-14.506146,-165.60448
-15.090567,-161.31192
-14.911447,-155.13316
-15.215335,-159.44389
-14.785759,-159.92465
-15.914228,-159.05122
-14.895934,-153.36763
-14.695721,-156.09625
-15.010319,-158.31361
-15.27691,-159.59721
-14.968466,-164.12616
-14.770235,-158.61157
-14.812727,-156.79898
-15.897923,-158.79149
-15.383621,-157.35645
-15.259064,-162.245
-14.509473,-160.80966
-14.754551,-158.07787
-15.402345,-160.25403
-15.001645,-152.97763
-14.414925,-162.12923
-15.945752,-158.2579
-14.939439,-162.69579
-14.811167,-156.01765
-15.130093,-157.22913
-15.171218,-155.56627
-14.585135,-161.3084
-14.369281,-158.55745
-14.806038,-153.02089
-14.616079,-155.38452
-15.289771,-161.39124
-14.907934,-157.994
-14.826055,-154.33971
-15.726579,-158.3508
-15.060096,-158.85336
-15.64136,-155.75369
-14.85568,-160.41934
-14.756712,-158.00421
-15.285394,-155.97188
-15.037808,-155.50125
-15.234973,-158.83073
-14.932695,-159.68802
-15.368618,-156.66037
-14.852922,-158.11075
-15.078671,-157.29352
-15.456925,-158.24393
-14.79009,-153.90869
-14.654897,-163.39383
-15.226431,-162.7133
-14.527477,-165.40018
-14.504562,-158.40527
-14.976645,-161.3457
-15.005197,-157.9247
-15.371648,-160.49577
-14.563624,-161.701
-15.091788,-162.72408
-14.9026,-158.25067
-15.773462,-153.31157
-15.108079,-161.92778
-14.690204,-157.77242
-15.652882,-157.12927
-14.593417,-158.28079
-15.925147,-160.07532
-15.006347,-159.13968
-15.520411,-159.47256
-14.8837,-155.76071
-15.8808,-159.49289
-15.02617,-159.0377
-15.032044,-159.06845
-15.18286,-160.99821
-15.403023,-157.88301
-15.276488,-157.38741
-15.153833,-165.07433
-14.618432,-158.91731
-15.110595,-164.19186
-14.846844,-157.38329
-14.871202,-156.94162
-14.903961,-155.82133
-15.171002,-159.58183
-14.804229,-159.3311
-14.897435,-158.47568
-14.711214,-159.14667
-15.465197,-160.29352
-14.692239,-157.3317
-14.968842,-159.69006
-14.677098,-159.60883
-15.317158,-159.31667
-14.842905,-161.53439
-14.128427,-158.41698
-14.884463,-162.17155
-14.826799,-160.57111
-14.988223,-159.40536
-15.345757,-161.40952
-15.81298,-154.57567
-15.430436,-156.72029
-14.908632,-159.58081
-14.989459,-160.19781
-14.83625,-154.57173
-15.501859,-155.37944
-14.98341,-158.79788
-15.226319,-163.40509
-15.225373,-158.82903
-14.569112,-161.84953
-15.107021,-157.58913
-15.123384,-160.23578
-15.666579,-159.77344
-15.488765,-158.71255
-14.900086,-160.86153
-15.251471,-157.98697
-14.378194,-158.74397
-14.353754,-155.01979
-14.993016,-153.94931
-15.698934,-157.28897
-14.880182,-159.44714
-14.958075,-154.68579
-14.643034,-156.22025
-14.955091,-160.51762
-14.646677,-156.34811
-15.160619,-156.62749
-15.052424,-159.31523
-14.88805,-159.7366
-14.803696,-160.39398
-14.716866,-159.00458
-15.298565,-158.35417
-15.382601,-159.21297
-15.275934,-158.76941
-15.502916,-161.77063
-15.073655,-158.99251
-14.386485,-155.85432
-14.951439,-158.38472
-15.646632,-161.67513
-14.878125,-158.44141
-14.780644,-157.19865
-14.804276,-161.61511
-14.998773,-157.16295
-15.372123,-160.1678
-14.982498,-157.71384
-15.888946,-159.13197
-15.069269,-158.25117
-14.829063,-153.92892
-14.93906,-156.59326
-14.96182,-158.51508
-14.668998,-162.09142
-15.293781,-155.37077
-15.157332,-157.75056
-15.169766,-160.26073
-15.518323,-165.5629
-14.510303,-156.97731
-15.785948,-158.50804
-15.122825,-160.22432
-15.392814,-155.09818
-15.523482,-159.88954
-15.069736,-160.07198
-15.459541,-158.27612
-15.307988,-159.81017
-14.642511,-159.10748
-15.731356,-159.07071
-14.834207,-161.11952
-14.618649,-157.21013
-14.776401,-158.73051
-14.688729,-159.96719
-15.107204,-154.05116
-15.336976,-157.76129
-14.97434,-159.02226
-15.467937,-158.20065
-14.882805,-162.62944
-15.431854,-160.037
-15.030934,-158.5462
-14.828601,-160.91032
-15.234786,-158.94922
-14.856464,-158.67816
-15.193962,-159.14516
-14.816454,-159.83418
-15.007938,-159.74458
-14.961337,-158.58942
-14.850004,-160.3712
-15.258616,-159.67644
-15.041677,-154.961
-15.414919,-159.99591
-15.352797,-159.08267
-14.895136,-158.72374
-15.613361,-155.8812
-15.3742,-157.2776
-15.194404,-156.50449
-15.208312,-161.75447
-15.013626,-156.04672
-14.798802,-156.63864
-14.431963,-158.9998
-14.78868,-160.06348
-14.567203,-158.19518
-14.715856,-157.74338
-15.047422,-159.12497
-15.180159,-158.07498
-14.615972,-155.91829
-15.101649,-161.46562
-15.131741,-157.89502
-15.581918,-159.17097
-15.054716,-158.60744
-15.661579,-159.73697
-15.11132,-157.16481
-15.148397,-162.57481
-15.271341,-157.57161
-14.802605,-157.84819
-15.106248,-158.96675
-14.893673,-156.28427
-15.205729,-158.70248
-14.986692,-160.66507
-14.781495,-160.43587
-15.488545,-160.42125
-15.534178,-158.65907
-14.929677,-162.4931
-14.947546,-157.6378
-15.237324,-162.82347
-14.906098,-161.28233
-15.570168,-154.60696
-14.77091,-158.61345
-15.142079,-158.65793
-15.185253,-155.17276
-15.128137,-157.36452
-14.805718,-160.54652
-14.834191,-158.56213
-15.011951,-158.85422
-14.587047,-160.59535
-14.816941,-158.15961
-15.163639,-159.30188
-15.115781,-157.5448
-14.897563,-157.96053
-15.278934,-158.39171
-15.530931,-160.93152
-15.11804,-159.51009
-15.367952,-158.45056
-15.513967,-158.13519
-15.020715,-159.74518
-14.740355,-157.59311
-14.664491,-157.88341
-15.393092,-157.09375
-14.858567,-156.95416
-15.202627,-159.01984
-15.122836,-155.52629
-15.339873,-155.97232
-14.960801,-156.97229
-15.213749,-157.32199
-15.262825,-157.29309
-15.127559,-160.38644
-14.674699,-159.28798
-15.095263,-159.51968
-15.390811,-158.87811
-14.720957,-160.12549
-15.009356,-156.95784
-15.13309,-162.40042
-14.538153,-157.38521
-15.309241,-159.7737
-15.277339,-156.72792
-15.366145,-157.96033
-14.797697,-157.56422
-15.436578,-159.16049
-14.9169,-157.41011
-15.346738,-156.91261
-15.613155,-157.62614
-14.922366,-159.10574
-15.437428,-161.58109
-15.226179,-159.27058
-14.713539,-156.21536
-14.943187,-157.97435
-14.994174,-156.30208
-15.123311,-155.36148
-14.989229,-160.11433
-14.98517,-159.35098
-15.105906,-158.98734
-15.196672,-159.45709
-15.069285,-158.19458
-15.077031,-159.07538
-15.180654,-161.97606
-15.171402,-157.04945
-15.377893,-156.084
-14.776617,-157.10074
-15.0373,-158.41899
-15.649682,-161.4201
-14.92906,-158.76869
-14.990129,-159.51154
-15.048967,-159.61182
-14.851428,-159.33339
-15.362342,-156.39468
-14.837536,-158.6313
-15.268266,-157.91029
-14.840381,-155.49078
-14.939382,-157.71675
-14.851957,-157.80078
-15.294918,-158.10121
-15.138554,-157.01494
-14.913356,-158.7368
-14.968018,-158.00789
-15.213292,-155.97107
-15.089719,-158.96008
-14.88235,-157.96539
-15.329294,-155.47516
-14.824878,-159.98859
-15.094761,-158.97221
-15.456595,-156.90926
-14.792326,-155.97943
-15.22513,-159.07018
-14.801667,-157.96005
-15.139934,-159.9825
-15.228139,-157.16988
-15.253873,-159.03783
-15.064285,-160.58186
-14.947341,-157.51448
-15.275169,-156.88506
-15.178978,-157.03697
-14.614017,-156.58003
-14.96745,-160.06319
-15.218287,-155.75996
-14.753698,-156.56088
-14.972881,-157.50516
-14.919367,-159.26993
-15.134987,-155.35063
-15.155381,-158.9633
-15.146006,-157.32582
-15.256278,-158.61868
-15.161105,-157.25565
-15.239149,-156.4585
-14.974507,-158.26089
-14.837768,-158.76131
-14.839633,-157.93987
-15.045091,-157.2859
-14.867797,-158.69232
-14.956211,-157.14482
-15.17277,-159.11786
-15.070835,-156.08334
-14.755244,-157.3936
-14.994155,-159.10944
-14.792482,-155.556
-14.761621,-156.9496
-14.955426,-159.28561
-15.219719,-158.93607
-15.419617,-161.87836
-15.116796,-158.19739
-15.236152,-158.67033
-15.02284,-158.92798
-15.564588,-157.07085
-15.19492,-157.06854
-14.97642,-158.6129
-15.062085,-156.9397
-14.874033,-159.00179
-15.282078,-160.71481
-15.294765,-157.91077
-15.089237,-157.46088
-15.020667,-158.27979
-14.740651,-157.6292
-15.249937,-159.72583
-15.101215,-156.60912
-15.091208,-158.32133
-15.176126,-159.86108
-14.98644,-162.10384
-15.307749,-160.30878
-14.674328,-157.35921
-15.092899,-157.78406
-15.361506,-158.46671
-14.97717,-159.31215
-15.418298,-155.99327
-14.973401,-158.20665
-15.174415,-161.25798
-14.898245,-157.10973
-14.985978,-157.95915
-14.902806,-157.67009
-15.051857,-158.43292
-15.09532,-158.32498
-15.056688,-156.19362
-15.311941,-158.09874
-14.95899,-158.25737
-15.132852,-159.15411
-14.884726,-158.94548
-14.779534,-157.01648
-15.125132,-159.77371
-15.097833,-157.33847
-15.12396,-156.87009
-15.03912,-159.20271
-15.566442,-156.29997
-15.201163,-157.27176
-15.092036,-159.06509
-15.099473,-157.51866
-15.149199,-158.15414
-15.198871,-156.45667
-15.442266,-158.44551
-14.743563,-159.79944
-15.032875,-160.20309
-15.013412,-156.97165
-14.901774,-157.66597
-15.076324,-155.65648
-15.191576,-159.45503
-15.013245,-158.40965
-15.15906,-157.54303
-15.071332,-160.31003
-15.21876,-158.29538
-14.855106,-159.43341
-15.023191,-158.97163
-14.968768,-158.81813
-14.89691,-158.0773
-15.522521,-156.83441
-15.198357,-158.6617
-15.138134,-158.88133
-15.310057,-159.36595
-14.950556,-159.75237
-15.040679,-157.99115
-15.003867,-159.21317
-15.136648,-158.56897
-14.903411,-157.03424
-14.737576,-158.53474
-15.048173,-156.38286
-14.944767,-158.73677
-15.191934,-157.63762
-15.175106,-160.70697
-14.985147,-159.16328
-14.914109,-156.70229
-15.298096,-159.16727
-14.901998,-158.43703
-15.090474,-157.47966
-15.133469,-157.82762
-14.976903,-156.77351
-14.725926,-156.2269
-15.054063,-158.71074
-15.101708,-157.40477
-15.048101,-158.11565
-14.963932,-159.69489
-15.068041,-158.179
-15.198909,-158.80841
-15.247199,-157.12331
-15.071108,-157.47055
-14.981373,-157.81276
-14.848436,-158.6246
-15.008183,-158.4707
-15.138373,-158.62564
-14.964973,-158.84982
-15.164118,-158.10689
-14.84986,-158.78174
-14.88694,-158.31848
-15.031898,-158.56401
-15.417304,-158.16354
-15.083018,-157.71367
-14.97332,-158.47234
-15.203897,-158.40607
-14.982138,-158.02467
-15.311028,-158.77383
-14.846868,-160.05856
-14.971687,-158.03093
-14.716764,-157.77496
-14.767072,-158.16733
-15.056724,-155.1693
-15.01993,-158.67293
-15.174325,-158.81218
-15.034813,-157.15785
-14.990721,-158.5694
-15.046869,-158.4149
-15.288875,-159.25096
-14.903277,-157.44525
-14.924675,-157.17221
-15.107414,-157.59901
-14.925306,-157.56458
-14.94513,-157.14708
-15.050741,-159.60916
-15.117969,-157.77522
-15.013981,-159.02663
-15.064519,-158.05257
-14.81088,-158.05417
-15.022057,-157.67778
-15.283086,-158.96417
-15.422955,-159.14238
-15.132234,-160.26476
-14.831703,-157.3954
-15.03864,-158.87932
-15.341333,-159.06242
-14.930255,-159.75478
-14.930327,-159.375
-15.254916,-158.40297
-14.951288,-158.13504
-15.27554,-158.46584
-14.782208,-158.59239
-15.201494,-158.82385
-14.826063,-157.8913
-14.946673,-158.41588
-15.163097,-157.41049
-14.909053,-157.73361
-14.874213,-157.61252
-15.010789,-158.40561
-14.983943,-157.8744
-15.058263,-158.86313
-15.060192,-156.90964
-15.054442,-157.33086
-15.122389,-155.34972
-15.036397,-159.39584
-14.959516,-158.45792
-15.17677,-158.54192
-15.153625,-157.8457
-15.064775,-158.13269
-14.999351,-157.76637
-14.818959,-158.99767
-14.983719,-158.16248
-15.036681,-158.5208
-15.118252,-158.03549
-14.937525,-158.15762
-15.185273,-157.21309
-15.142385,-158.37103
-15.15078,-158.40079
-15.152929,-158.92238
-15.238465,-156.59369
-15.098211,-157.36525
-14.857146,-158.58267
-15.046161,-157.65857
-15.077841,-157.9425
-14.852594,-158.74832
-14.79148,-157.39645
-15.1101,-158.36285
-15.14339,-158.54166
-15.220592,-157.13545
-15.005566,-158.83237
-15.080483,-158.50156
-15.033632,-157.42699
-15.070697,-157.54651
-15.008507,-157.3868
-14.986722,-158.4612
-14.955365,-157.74707
-14.97557,-157.83641
-15.193811,-158.56168
-15.058019,-158.47313
-14.926403,-159.07961
-15.122043,-159.0807
-14.995811,-158.31624
-15.177462,-158.9093
-15.215077,-157.84053
-15.089639,-159.59944
-15.0357,-158.51984
-14.93573,-158.60849
-15.186129,-158.54514
-15.019855,-157.52148
-15.110592,-159.02713
-15.07851,-158.36179
-15.066238,-157.68652
-15.244488,-157.68219
-15.149151,-158.17265
-15.145782,-157.86543
-15.092197,-158.52242
-15.038821,-158.39764
-15.01574,-158.64612
-15.049167,-158.69594
-15.007318,-156.27238
-15.102393,-158.42654
-15.188438,-158.91949
-15.022928,-158.85492
-15.069276,-157.94084
-15.025236,-157.99294
-15.153585,-158.43881
-14.838281,-157.25507
-14.872449,-157.22612
-15.019663,-157.4841
-14.764496,-157.8846
-14.916126,-157.87361
-14.980087,-158.11899
-14.896971,-157.65282
-14.852424,-158.31375
-15.122755,-159.62018
-14.861157,-158.6725
-14.999063,-158.52278
-15.155766,-159.11797
-14.94252,-158.27722
-15.167132,-158.83961
-14.808174,-158.21469
-15.175936,-158.88368
-15.099674,-158.25658
-15.201922,-158.77301
