CITIFILE A.01.01
!Agilent Technologies,N5230C,MY48100142,A.08.04.10
!Agilent N5230C: A.08.04.10
!Format: LogMag/Angle
!Date: Monday, September 14, 2020 11:34:00
NAME CH1_DATA
VAR Power MAG 801
DATA S11 DBANGLE
DATA S21 DBANGLE
DATA S12 DBANGLE
DATA S22 DBANGLE
VAR_LIST_BEGIN
-40
-39.975
-39.95
-39.925
-39.9
-39.875
-39.85
-39.825
-39.8
-39.775
-39.75
-39.725
-39.7
-39.675
-39.65
-39.625
-39.6
-39.575
-39.55
-39.525
-39.5
-39.475
-39.45
-39.425
-39.4
-39.375
-39.35
-39.325
-39.3
-39.275
-39.25
-39.225
-39.2
-39.175
-39.15
-39.125
-39.1
-39.075
-39.05
-39.025
-39
-38.975
-38.95
-38.925
-38.9
-38.875
-38.85
-38.825
-38.8
-38.775
-38.75
-38.725
-38.7
-38.675
-38.65
-38.625
-38.6
-38.575
-38.55
-38.525
-38.5
-38.475
-38.45
-38.425
-38.4
-38.375
-38.35
-38.325
-38.3
-38.275
-38.25
-38.225
-38.2
-38.175
-38.15
-38.125
-38.1
-38.075
-38.05
-38.025
-38
-37.975
-37.95
-37.925
-37.9
-37.875
-37.85
-37.825
-37.8
-37.775
-37.75
-37.725
-37.7
-37.675
-37.65
-37.625
-37.6
-37.575
-37.55
-37.525
-37.5
-37.475
-37.45
-37.425
-37.4
-37.375
-37.35
-37.325
-37.3
-37.275
-37.25
-37.225
-37.2
-37.175
-37.15
-37.125
-37.1
-37.075
-37.05
-37.025
-37
-36.975
-36.95
-36.925
-36.9
-36.875
-36.85
-36.825
-36.8
-36.775
-36.75
-36.725
-36.7
-36.675
-36.65
-36.625
-36.6
-36.575
-36.55
-36.525
-36.5
-36.475
-36.45
-36.425
-36.4
-36.375
-36.35
-36.325
-36.3
-36.275
-36.25
-36.225
-36.2
-36.175
-36.15
-36.125
-36.1
-36.075
-36.05
-36.025
-36
-35.975
-35.95
-35.925
-35.9
-35.875
-35.85
-35.825
-35.8
-35.775
-35.75
-35.725
-35.7
-35.675
-35.65
-35.625
-35.6
-35.575
-35.55
-35.525
-35.5
-35.475
-35.45
-35.425
-35.4
-35.375
-35.35
-35.325
-35.3
-35.275
-35.25
-35.225
-35.2
-35.175
-35.15
-35.125
-35.1
-35.075
-35.05
-35.025
-35
-34.975
-34.95
-34.925
-34.9
-34.875
-34.85
-34.825
-34.8
-34.775
-34.75
-34.725
-34.7
-34.675
-34.65
-34.625
-34.6
-34.575
-34.55
-34.525
-34.5
-34.475
-34.45
-34.425
-34.4
-34.375
-34.35
-34.325
-34.3
-34.275
-34.25
-34.225
-34.2
-34.175
-34.15
-34.125
-34.1
-34.075
-34.05
-34.025
-34
-33.975
-33.95
-33.925
-33.9
-33.875
-33.85
-33.825
-33.8
-33.775
-33.75
-33.725
-33.7
-33.675
-33.65
-33.625
-33.6
-33.575
-33.55
-33.525
-33.5
-33.475
-33.45
-33.425
-33.4
-33.375
-33.35
-33.325
-33.3
-33.275
-33.25
-33.225
-33.2
-33.175
-33.15
-33.125
-33.1
-33.075
-33.05
-33.025
-33
-32.975
-32.95
-32.925
-32.9
-32.875
-32.85
-32.825
-32.8
-32.775
-32.75
-32.725
-32.7
-32.675
-32.65
-32.625
-32.6
-32.575
-32.55
-32.525
-32.5
-32.475
-32.45
-32.425
-32.4
-32.375
-32.35
-32.325
-32.3
-32.275
-32.25
-32.225
-32.2
-32.175
-32.15
-32.125
-32.1
-32.075
-32.05
-32.025
-32
-31.975
-31.95
-31.925
-31.9
-31.875
-31.85
-31.825
-31.8
-31.775
-31.75
-31.725
-31.7
-31.675
-31.65
-31.625
-31.6
-31.575
-31.55
-31.525
-31.5
-31.475
-31.45
-31.425
-31.4
-31.375
-31.35
-31.325
-31.3
-31.275
-31.25
-31.225
-31.2
-31.175
-31.15
-31.125
-31.1
-31.075
-31.05
-31.025
-31
-30.975
-30.95
-30.925
-30.9
-30.875
-30.85
-30.825
-30.8
-30.775
-30.75
-30.725
-30.7
-30.675
-30.65
-30.625
-30.6
-30.575
-30.55
-30.525
-30.5
-30.475
-30.45
-30.425
-30.4
-30.375
-30.35
-30.325
-30.3
-30.275
-30.25
-30.225
-30.2
-30.175
-30.15
-30.125
-30.1
-30.075
-30.05
-30.025
-30
-29.975
-29.95
-29.925
-29.9
-29.875
-29.85
-29.825
-29.8
-29.775
-29.75
-29.725
-29.7
-29.675
-29.65
-29.625
-29.6
-29.575
-29.55
-29.525
-29.5
-29.475
-29.45
-29.425
-29.4
-29.375
-29.35
-29.325
-29.3
-29.275
-29.25
-29.225
-29.2
-29.175
-29.15
-29.125
-29.1
-29.075
-29.05
-29.025
-29
-28.975
-28.95
-28.925
-28.9
-28.875
-28.85
-28.825
-28.8
-28.775
-28.75
-28.725
-28.7
-28.675
-28.65
-28.625
-28.6
-28.575
-28.55
-28.525
-28.5
-28.475
-28.45
-28.425
-28.4
-28.375
-28.35
-28.325
-28.3
-28.275
-28.25
-28.225
-28.2
-28.175
-28.15
-28.125
-28.1
-28.075
-28.05
-28.025
-28
-27.975
-27.95
-27.925
-27.9
-27.875
-27.85
-27.825
-27.8
-27.775
-27.75
-27.725
-27.7
-27.675
-27.65
-27.625
-27.6
-27.575
-27.55
-27.525
-27.5
-27.475
-27.45
-27.425
-27.4
-27.375
-27.35
-27.325
-27.3
-27.275
-27.25
-27.225
-27.2
-27.175
-27.15
-27.125
-27.1
-27.075
-27.05
-27.025
-27
-26.975
-26.95
-26.925
-26.9
-26.875
-26.85
-26.825
-26.8
-26.775
-26.75
-26.725
-26.7
-26.675
-26.65
-26.625
-26.6
-26.575
-26.55
-26.525
-26.5
-26.475
-26.45
-26.425
-26.4
-26.375
-26.35
-26.325
-26.3
-26.275
-26.25
-26.225
-26.2
-26.175
-26.15
-26.125
-26.1
-26.075
-26.05
-26.025
-26
-25.975
-25.95
-25.925
-25.9
-25.875
-25.85
-25.825
-25.8
-25.775
-25.75
-25.725
-25.7
-25.675
-25.65
-25.625
-25.6
-25.575
-25.55
-25.525
-25.5
-25.475
-25.45
-25.425
-25.4
-25.375
-25.35
-25.325
-25.3
-25.275
-25.25
-25.225
-25.2
-25.175
-25.15
-25.125
-25.1
-25.075
-25.05
-25.025
-25
-24.975
-24.95
-24.925
-24.9
-24.875
-24.85
-24.825
-24.8
-24.775
-24.75
-24.725
-24.7
-24.675
-24.65
-24.625
-24.6
-24.575
-24.55
-24.525
-24.5
-24.475
-24.45
-24.425
-24.4
-24.375
-24.35
-24.325
-24.3
-24.275
-24.25
-24.225
-24.2
-24.175
-24.15
-24.125
-24.1
-24.075
-24.05
-24.025
-24
-23.975
-23.95
-23.925
-23.9
-23.875
-23.85
-23.825
-23.8
-23.775
-23.75
-23.725
-23.7
-23.675
-23.65
-23.625
-23.6
-23.575
-23.55
-23.525
-23.5
-23.475
-23.45
-23.425
-23.4
-23.375
-23.35
-23.325
-23.3
-23.275
-23.25
-23.225
-23.2
-23.175
-23.15
-23.125
-23.1
-23.075
-23.05
-23.025
-23
-22.975
-22.95
-22.925
-22.9
-22.875
-22.85
-22.825
-22.8
-22.775
-22.75
-22.725
-22.7
-22.675
-22.65
-22.625
-22.6
-22.575
-22.55
-22.525
-22.5
-22.475
-22.45
-22.425
-22.4
-22.375
-22.35
-22.325
-22.3
-22.275
-22.25
-22.225
-22.2
-22.175
-22.15
-22.125
-22.1
-22.075
-22.05
-22.025
-22
-21.975
-21.95
-21.925
-21.9
-21.875
-21.85
-21.825
-21.8
-21.775
-21.75
-21.725
-21.7
-21.675
-21.65
-21.625
-21.6
-21.575
-21.55
-21.525
-21.5
-21.475
-21.45
-21.425
-21.4
-21.375
-21.35
-21.325
-21.3
-21.275
-21.25
-21.225
-21.2
-21.175
-21.15
-21.125
-21.1
-21.075
-21.05
-21.025
-21
-20.975
-20.95
-20.925
-20.9
-20.875
-20.85
-20.825
-20.8
-20.775
-20.75
-20.725
-20.7
-20.675
-20.65
-20.625
-20.6
-20.575
-20.55
-20.525
-20.5
-20.475
-20.45
-20.425
-20.4
-20.375
-20.35
-20.325
-20.3
-20.275
-20.25
-20.225
-20.2
-20.175
-20.15
-20.125
-20.1
-20.075
-20.05
-20.025
-20
VAR_LIST_END
BEGIN
-14.594974,-160.12865
-15.210683,-157.39679
-15.106817,-159.05597
-15.117183,-157.85435
-14.755277,-157.51082
-15.984202,-159.23758
-15.076844,-156.6425
-14.841685,-162.5433
-14.263192,-163.4196
-15.267471,-158.31017
-14.281506,-157.15096
-15.042729,-160.85837
-14.939423,-163.61737
-14.692235,-157.48257
-15.989113,-157.4781
-16.637152,-154.96091
-14.815324,-161.47263
-14.768482,-162.28418
-14.8043,-162.53465
-15.13164,-157.40878
-13.734006,-157.25247
-15.032886,-159.28722
-15.286184,-166.08656
-14.872244,-160.78198
-15.039811,-161.62071
-15.12157,-164.59178
-15.420814,-169.01837
-15.029494,-165.97304
-14.246346,-157.96497
-14.356351,-157.35956
-15.105103,-163.33366
-15.111692,-163.86659
-14.259823,-161.56447
-15.264966,-156.69284
-15.025645,-164.79332
-14.344432,-164.62886
-14.789786,-158.8196
-15.459638,-159.91731
-14.832155,-164.46266
-15.360178,-163.04939
-14.484885,-165.6452
-15.238702,-162.92801
-14.385617,-157.66309
-14.837022,-161.74614
-15.819008,-162.64775
-14.691224,-160.01161
-14.551331,-153.04948
-15.826383,-163.87437
-15.281757,-165.19666
-14.461864,-156.96016
-15.098282,-157.7023
-15.665015,-161.68991
-14.596932,-159.95674
-14.69579,-170.00131
-14.316211,-163.93369
-16.581116,-154.50002
-15.001956,-159.3559
-14.671234,-158.20839
-14.946548,-159.32452
-14.672173,-154.81372
-15.102122,-157.37483
-14.430035,-161.62694
-15.796546,-163.36316
-15.167781,-154.72902
-15.214218,-158.56323
-14.896632,-158.17273
-14.628859,-159.08246
-15.570937,-164.31244
-14.680399,-161.95628
-14.795231,-160.82156
-14.825776,-162.6165
-15.230295,-163.28323
-14.833957,-155.95847
-15.497398,-157.1138
-15.353922,-165.70218
-14.604874,-158.80315
-14.145935,-165.29088
-14.987818,-162.16618
-15.025168,-159.00047
-15.227738,-157.08226
-15.34833,-164.14081
-14.897856,-158.67419
-15.073167,-157.85425
-15.205711,-162.77792
-15.087799,-153.25194
-14.466403,-163.33414
-14.782295,-160.96698
-14.983818,-160.18495
-14.855472,-158.74632
-14.881251,-162.68576
-15.805056,-160.63521
-14.563637,-162.3188
-15.093371,-163.06352
-15.381802,-160.92346
-15.152182,-163.10344
-15.336007,-158.48575
-16.213392,-154.36044
-14.844615,-160.69893
-14.43079,-158.16223
-14.735829,-159.79904
-15.071902,-157.31311
-14.747544,-160.00101
-15.164426,-158.09485
-15.301298,-157.45953
-14.886304,-160.41745
-14.836485,-161.2189
-15.062249,-162.75435
-14.726535,-160.86356
-14.705514,-158.02939
-15.568919,-159.78802
-14.716465,-159.66574
-14.669646,-159.96539
-14.372015,-160.70654
-14.875414,-159.18358
-14.960892,-157.06001
-15.906039,-162.28853
-16.074181,-161.38651
-14.647264,-161.20772
-15.409689,-154.77625
-15.224918,-159.01724
-15.130774,-159.84709
-15.181729,-160.14316
-15.77243,-163.6609
-14.81949,-162.8447
-14.353106,-165.43275
-15.275084,-164.73352
-14.553818,-160.28767
-14.997388,-162.56151
-14.745826,-159.73499
-14.722617,-157.08708
-14.881487,-158.60461
-14.845632,-160.6955
-14.86917,-156.6826
-15.210569,-160.76328
-14.93754,-159.81201
-15.368421,-162.57936
-15.138673,-160.30264
-15.341263,-161.91177
-14.342525,-160.0143
-15.947588,-162.81599
-15.748432,-165.42207
-14.890708,-161.11826
-15.00237,-160.34401
-15.388504,-156.08708
-15.233761,-158.51233
-15.256715,-156.6554
-15.454186,-157.44345
-15.444498,-161.54239
-14.616526,-163.39841
-15.214461,-164.59456
-15.595325,-155.80959
-15.097356,-165.45317
-14.69321,-167.28871
-14.524737,-161.79799
-15.00147,-162.32558
-15.268339,-157.49173
-14.598232,-160.78403
-15.081156,-162.17065
-15.063094,-161.31451
-14.978145,-156.83905
-15.337945,-158.69911
-15.749519,-159.80998
-15.091196,-159.93053
-14.10941,-157.39594
-15.103162,-159.23447
-15.272563,-158.18019
-15.890061,-157.53711
-15.255138,-158.83017
-15.454885,-162.14612
-15.012861,-162.38602
-15.193905,-158.50742
-14.470946,-160.19171
-15.478144,-155.80382
-14.537625,-158.8513
-15.397503,-158.73862
-15.019589,-161.78917
-14.624582,-160.7574
-14.739333,-156.15329
-15.05611,-159.35042
-15.007926,-160.34007
-14.938474,-161.49149
-14.842303,-158.80824
-14.806927,-161.02785
-14.306238,-160.53806
-15.331531,-159.10278
-15.025915,-157.35732
-15.394454,-160.1842
-15.677876,-157.91411
-14.697725,-155.24226
-15.255915,-156.85675
-14.911786,-159.06882
-15.077855,-162.48708
-14.715611,-164.95755
-15.14924,-163.25101
-15.052961,-158.83868
-14.826351,-159.78224
-15.664549,-162.18968
-14.700291,-157.98424
-15.363798,-160.26228
-15.159131,-156.89368
-15.073961,-158.53969
-14.827177,-159.6613
-14.521748,-162.19528
-15.011483,-162.74324
-15.001977,-165.07593
-14.887111,-163.09264
-15.255758,-163.95802
-15.54383,-158.9333
-14.896045,-161.11021
-15.196238,-159.54466
-14.882728,-155.86847
-15.423986,-164.15778
-15.268244,-162.62933
-14.967797,-162.43187
-14.806289,-160.1011
-14.810681,-160.71582
-14.995646,-162.74092
-15.061785,-158.81195
-15.230989,-160.35774
-14.767851,-163.29939
-15.272409,-162.51247
-14.741736,-158.86081
-14.758443,-160.63744
-14.552583,-164.04886
-15.099393,-161.09087
-14.951929,-162.49477
-14.882104,-161.85391
-15.476984,-163.58572
-15.319016,-160.6805
-15.267257,-161.63351
-15.142662,-155.44135
-14.999741,-162.21603
-15.015883,-159.157
-14.634737,-158.14488
-14.893818,-160.88446
-15.298775,-161.67642
-15.645152,-157.58655
-15.104305,-159.68059
-14.651276,-160.69547
-14.964236,-161.47923
-15.030189,-160.52739
-14.867188,-160.23169
-14.837441,-159.86147
-14.893705,-160.13309
-14.934625,-161.73633
-15.519982,-160.5582
-14.725711,-158.01173
-15.22666,-163.63771
-15.089865,-160.95703
-15.302317,-160.49104
-15.233038,-162.4325
-15.173568,-161.53503
-14.716786,-164.95529
-15.66919,-156.7348
-15.439874,-160.47337
-15.101404,-159.90564
-14.868956,-160.78972
-14.618392,-160.48358
-15.26009,-159.97633
-14.612626,-160.32214
-15.49954,-159.79482
-14.803808,-160.99907
-14.98035,-162.34018
-14.737514,-161.58234
-14.908459,-160.29587
-15.262148,-161.74158
-14.929045,-160.0396
-15.032848,-164.44527
-15.05354,-157.20102
-15.296665,-162.05936
-15.339653,-162.67387
-14.926599,-159.67459
-14.848099,-156.80244
-15.350611,-164.21861
-15.743199,-160.73247
-15.179259,-160.98621
-15.283172,-159.12061
-14.672194,-159.54636
-14.378557,-159.97034
-15.18676,-161.61296
-15.069088,-161.01935
-15.041162,-159.31085
-15.254128,-160.40428
-14.887731,-157.53374
-15.007465,-160.38803
-14.798446,-160.46129
-15.024629,-159.74345
-15.025704,-162.42207
-15.27492,-156.90108
-15.018467,-158.51433
-14.546689,-159.19077
-15.023017,-162.0191
-15.34864,-159.91817
-14.634995,-161.33997
-15.596244,-161.32555
-14.53509,-160.92343
-15.419348,-160.92213
-15.159332,-158.49928
-15.261865,-160.63676
-14.70178,-160.78174
-14.943104,-161.35394
-15.163616,-156.45764
-14.957436,-157.41231
-15.014626,-158.56892
-15.111074,-161.69655
-14.866427,-160.1295
-14.985428,-159.63245
-14.824359,-159.09828
-15.381568,-157.77106
-15.028285,-160.44974
-15.154769,-157.18094
-15.173639,-158.40608
-15.266877,-159.11029
-14.836598,-160.72278
-15.341378,-158.21729
-14.826975,-159.1216
-15.364375,-161.55067
-15.236359,-160.60809
-15.467159,-161.71812
-15.282074,-161.34004
-14.707769,-159.48195
-14.953476,-160.02197
-14.683998,-159.4805
-14.936333,-157.32286
-15.231284,-161.84439
-14.908491,-161.28467
-15.073756,-156.64204
-15.16765,-161.81702
-14.958671,-161.19034
-15.003999,-160.49161
-15.340888,-162.43956
-15.167459,-161.87857
-14.836655,-163.8486
-15.095145,-159.25095
-15.412115,-162.44296
-15.073214,-157.58142
-15.18532,-160.82092
-15.061791,-162.17815
-15.155374,-161.48763
-14.591614,-161.58032
-15.158437,-161.66466
-14.979353,-161.17677
-14.795594,-159.91228
-14.991703,-160.95717
-14.978641,-157.48161
-14.733989,-163.62289
-15.090179,-159.96074
-14.991333,-162.78217
-14.640141,-161.83636
-14.790462,-159.29045
-14.863013,-160.07141
-15.509076,-161.01297
-14.864241,-161.03603
-14.750102,-158.20938
-15.553473,-163.69295
-15.270771,-157.90604
-15.132132,-162.04871
-14.982515,-158.02815
-15.227186,-162.24391
-15.142136,-158.71791
-14.933809,-159.98595
-15.224331,-159.87923
-14.838404,-160.38239
-14.997506,-159.98277
-15.118553,-156.84988
-15.410327,-157.87134
-15.070107,-161.88274
-14.861888,-161.19481
-14.828012,-158.92119
-14.975595,-161.37468
-15.229549,-158.45009
-14.997944,-161.32819
-15.263212,-160.46228
-15.468163,-160.66351
-15.309614,-158.75043
-15.147055,-160.02074
-15.013161,-160.11617
-15.080808,-156.6655
-15.240656,-158.01198
-14.989204,-162.03815
-15.187468,-162.65956
-15.248638,-157.59074
-15.306297,-159.09421
-14.638907,-159.86215
-15.123827,-159.80766
-14.856488,-162.40428
-15.396344,-160.04845
-14.620709,-160.84154
-15.449093,-159.74162
-14.803877,-161.63206
-15.158401,-159.12706
-15.077808,-159.51649
-15.292088,-161.38397
-14.774677,-159.53461
-15.217463,-159.33543
-15.444944,-160.72105
-15.053257,-160.63058
-14.937297,-161.05391
-14.910986,-161.7592
-14.954806,-161.73703
-14.939724,-159.08765
-15.226475,-161.99617
-14.920293,-158.33113
-14.969836,-160.19234
-14.795378,-162.65709
-14.871891,-161.71825
-15.272752,-159.9722
-15.322309,-160.69914
-14.883647,-158.65581
-15.50702,-160.8829
-14.826612,-161.76302
-15.369642,-159.41704
-15.031806,-161.56969
-14.975532,-161.81108
-15.078217,-160.422
-15.513682,-160.44299
-14.967419,-161.27498
-14.944755,-159.94334
-15.127351,-160.62506
-15.041452,-159.79352
-15.287192,-158.62698
-15.124804,-162.16017
-14.775798,-161.79712
-15.207073,-160.45992
-14.945534,-161.35252
-14.92382,-160.18045
-15.199123,-161.15923
-15.099712,-163.46336
-15.223495,-159.96938
-15.068203,-162.04861
-15.08305,-160.45709
-15.415054,-160.77504
-15.236034,-160.56952
-14.865804,-160.43678
-14.846028,-161.75673
-15.067803,-160.37848
-15.276769,-161.24352
-15.28551,-160.20363
-15.257949,-160.14244
-15.121821,-158.78296
-14.903542,-161.97527
-15.468024,-159.88025
-14.915651,-161.20166
-14.798439,-161.25873
-15.068299,-160.40616
-15.183363,-160.40857
-15.159131,-159.90256
-15.176359,-161.60423
-15.360909,-161.27774
-15.076426,-162.21918
-14.98615,-161.97443
-15.109524,-160.48442
-14.993478,-159.44688
-15.209435,-159.43402
-15.300937,-159.96893
-14.948883,-160.55331
-14.879406,-159.95114
-15.067121,-160.9478
-15.101768,-159.56799
-15.081419,-159.68077
-15.140581,-159.94554
-15.053479,-159.42624
-14.932166,-159.73074
-15.043793,-160.57451
-15.088473,-161.70714
-15.068363,-162.30603
-14.699306,-161.4068
-15.206688,-159.80482
-14.983303,-159.86221
-15.055182,-160.11237
-15.096934,-160.29918
-14.845136,-162.33852
-15.065586,-159.6642
-15.200817,-160.10616
-14.891273,-161.28204
-14.916306,-160.44016
-15.251271,-160.75578
-14.950535,-160.81715
-15.274906,-161.0992
-15.144079,-162.20126
-14.942187,-159.38577
-15.074941,-159.22672
-15.024323,-160.64972
-15.297694,-162.60168
-15.044778,-161.59396
-15.055456,-161.63399
-15.313361,-159.65862
-15.083097,-161.61798
-15.153079,-159.81961
-14.865605,-159.85281
-15.341029,-160.94649
-15.08036,-160.77975
-15.295042,-160.06178
-15.330042,-163.0367
-15.155779,-160.68997
-14.91345,-159.853
-15.143916,-160.04031
-15.009553,-160.10042
-15.345147,-161.09483
-15.020331,-159.47556
-14.986835,-161.87901
-15.044453,-160.30954
-15.028771,-160.20934
-15.077449,-162.17386
-15.235152,-161.87619
-15.201769,-161.36446
-14.999927,-160.65233
-15.092798,-160.83066
-15.015506,-160.59978
-15.037013,-160.62807
-15.041986,-161.45418
-15.316763,-159.50684
-14.837624,-161.33429
-15.236083,-159.24069
-14.896902,-160.58893
-14.934791,-160.77193
-15.131932,-160.39568
-14.949887,-160.50237
-14.980258,-159.5168
-15.105054,-160.94873
-15.048962,-159.68378
-15.048332,-159.62695
-15.04896,-160.06537
-14.98702,-162.23822
-15.184268,-158.85379
-15.215991,-160.17485
-15.110229,-159.96021
-15.073102,-160.627
-15.042683,-160.48296
-15.17362,-159.1861
-14.968988,-160.65472
-15.056024,-159.78806
-15.069985,-161.35664
-14.970514,-160.60847
-15.140451,-159.20528
-15.005853,-161.61563
-14.972389,-160.60316
-15.275498,-160.69008
-15.113358,-161.14662
-15.221557,-160.19112
-15.429236,-159.99431
-15.059791,-160.37848
-15.117424,-160.36717
-15.206892,-159.75491
-15.252641,-161.69363
-15.060764,-162.03955
-15.070156,-160.87286
-15.116999,-160.03641
-15.417575,-160.93895
-15.064392,-160.04135
-15.152357,-160.86154
-15.169543,-160.93758
-14.902239,-160.75633
-14.85997,-161.38171
-15.028432,-160.11736
-15.003975,-161.13365
-15.09805,-160.2726
-15.040981,-159.5123
-15.114604,-161.82411
-15.261477,-161.07547
-15.183055,-160.47984
-15.19747,-159.66747
-14.944747,-161.37672
-14.868396,-160.74896
-15.129068,-160.83601
-15.052414,-159.7538
-15.274408,-159.7921
-14.911308,-160.52757
-14.863197,-160.20505
-15.286838,-160.16551
-15.150009,-160.40939
-14.973066,-160.90729
-15.023148,-160.65727
-15.078942,-159.60515
-14.9613,-161.12904
