CITIFILE A.01.01
!Agilent Technologies,N5230C,MY48100142,A.08.04.10
!Agilent N5230C: A.08.04.10
!Date: Monday, September 19, 2022 11:21:57
NAME CH1_DATA
VAR Power MAG 801
DATA S11 RI
DATA S21 RI
DATA S12 RI
DATA S22 RI
VAR_LIST_BEGIN
-40
-39.975
-39.95
-39.925
-39.9
-39.875
-39.85
-39.825
-39.8
-39.775
-39.75
-39.725
-39.7
-39.675
-39.65
-39.625
-39.6
-39.575
-39.55
-39.525
-39.5
-39.475
-39.45
-39.425
-39.4
-39.375
-39.35
-39.325
-39.3
-39.275
-39.25
-39.225
-39.2
-39.175
-39.15
-39.125
-39.1
-39.075
-39.05
-39.025
-39
-38.975
-38.95
-38.925
-38.9
-38.875
-38.85
-38.825
-38.8
-38.775
-38.75
-38.725
-38.7
-38.675
-38.65
-38.625
-38.6
-38.575
-38.55
-38.525
-38.5
-38.475
-38.45
-38.425
-38.4
-38.375
-38.35
-38.325
-38.3
-38.275
-38.25
-38.225
-38.2
-38.175
-38.15
-38.125
-38.1
-38.075
-38.05
-38.025
-38
-37.975
-37.95
-37.925
-37.9
-37.875
-37.85
-37.825
-37.8
-37.775
-37.75
-37.725
-37.7
-37.675
-37.65
-37.625
-37.6
-37.575
-37.55
-37.525
-37.5
-37.475
-37.45
-37.425
-37.4
-37.375
-37.35
-37.325
-37.3
-37.275
-37.25
-37.225
-37.2
-37.175
-37.15
-37.125
-37.1
-37.075
-37.05
-37.025
-37
-36.975
-36.95
-36.925
-36.9
-36.875
-36.85
-36.825
-36.8
-36.775
-36.75
-36.725
-36.7
-36.675
-36.65
-36.625
-36.6
-36.575
-36.55
-36.525
-36.5
-36.475
-36.45
-36.425
-36.4
-36.375
-36.35
-36.325
-36.3
-36.275
-36.25
-36.225
-36.2
-36.175
-36.15
-36.125
-36.1
-36.075
-36.05
-36.025
-36
-35.975
-35.95
-35.925
-35.9
-35.875
-35.85
-35.825
-35.8
-35.775
-35.75
-35.725
-35.7
-35.675
-35.65
-35.625
-35.6
-35.575
-35.55
-35.525
-35.5
-35.475
-35.45
-35.425
-35.4
-35.375
-35.35
-35.325
-35.3
-35.275
-35.25
-35.225
-35.2
-35.175
-35.15
-35.125
-35.1
-35.075
-35.05
-35.025
-35
-34.975
-34.95
-34.925
-34.9
-34.875
-34.85
-34.825
-34.8
-34.775
-34.75
-34.725
-34.7
-34.675
-34.65
-34.625
-34.6
-34.575
-34.55
-34.525
-34.5
-34.475
-34.45
-34.425
-34.4
-34.375
-34.35
-34.325
-34.3
-34.275
-34.25
-34.225
-34.2
-34.175
-34.15
-34.125
-34.1
-34.075
-34.05
-34.025
-34
-33.975
-33.95
-33.925
-33.9
-33.875
-33.85
-33.825
-33.8
-33.775
-33.75
-33.725
-33.7
-33.675
-33.65
-33.625
-33.6
-33.575
-33.55
-33.525
-33.5
-33.475
-33.45
-33.425
-33.4
-33.375
-33.35
-33.325
-33.3
-33.275
-33.25
-33.225
-33.2
-33.175
-33.15
-33.125
-33.1
-33.075
-33.05
-33.025
-33
-32.975
-32.95
-32.925
-32.9
-32.875
-32.85
-32.825
-32.8
-32.775
-32.75
-32.725
-32.7
-32.675
-32.65
-32.625
-32.6
-32.575
-32.55
-32.525
-32.5
-32.475
-32.45
-32.425
-32.4
-32.375
-32.35
-32.325
-32.3
-32.275
-32.25
-32.225
-32.2
-32.175
-32.15
-32.125
-32.1
-32.075
-32.05
-32.025
-32
-31.975
-31.95
-31.925
-31.9
-31.875
-31.85
-31.825
-31.8
-31.775
-31.75
-31.725
-31.7
-31.675
-31.65
-31.625
-31.6
-31.575
-31.55
-31.525
-31.5
-31.475
-31.45
-31.425
-31.4
-31.375
-31.35
-31.325
-31.3
-31.275
-31.25
-31.225
-31.2
-31.175
-31.15
-31.125
-31.1
-31.075
-31.05
-31.025
-31
-30.975
-30.95
-30.925
-30.9
-30.875
-30.85
-30.825
-30.8
-30.775
-30.75
-30.725
-30.7
-30.675
-30.65
-30.625
-30.6
-30.575
-30.55
-30.525
-30.5
-30.475
-30.45
-30.425
-30.4
-30.375
-30.35
-30.325
-30.3
-30.275
-30.25
-30.225
-30.2
-30.175
-30.15
-30.125
-30.1
-30.075
-30.05
-30.025
-30
-29.975
-29.95
-29.925
-29.9
-29.875
-29.85
-29.825
-29.8
-29.775
-29.75
-29.725
-29.7
-29.675
-29.65
-29.625
-29.6
-29.575
-29.55
-29.525
-29.5
-29.475
-29.45
-29.425
-29.4
-29.375
-29.35
-29.325
-29.3
-29.275
-29.25
-29.225
-29.2
-29.175
-29.15
-29.125
-29.1
-29.075
-29.05
-29.025
-29
-28.975
-28.95
-28.925
-28.9
-28.875
-28.85
-28.825
-28.8
-28.775
-28.75
-28.725
-28.7
-28.675
-28.65
-28.625
-28.6
-28.575
-28.55
-28.525
-28.5
-28.475
-28.45
-28.425
-28.4
-28.375
-28.35
-28.325
-28.3
-28.275
-28.25
-28.225
-28.2
-28.175
-28.15
-28.125
-28.1
-28.075
-28.05
-28.025
-28
-27.975
-27.95
-27.925
-27.9
-27.875
-27.85
-27.825
-27.8
-27.775
-27.75
-27.725
-27.7
-27.675
-27.65
-27.625
-27.6
-27.575
-27.55
-27.525
-27.5
-27.475
-27.45
-27.425
-27.4
-27.375
-27.35
-27.325
-27.3
-27.275
-27.25
-27.225
-27.2
-27.175
-27.15
-27.125
-27.1
-27.075
-27.05
-27.025
-27
-26.975
-26.95
-26.925
-26.9
-26.875
-26.85
-26.825
-26.8
-26.775
-26.75
-26.725
-26.7
-26.675
-26.65
-26.625
-26.6
-26.575
-26.55
-26.525
-26.5
-26.475
-26.45
-26.425
-26.4
-26.375
-26.35
-26.325
-26.3
-26.275
-26.25
-26.225
-26.2
-26.175
-26.15
-26.125
-26.1
-26.075
-26.05
-26.025
-26
-25.975
-25.95
-25.925
-25.9
-25.875
-25.85
-25.825
-25.8
-25.775
-25.75
-25.725
-25.7
-25.675
-25.65
-25.625
-25.6
-25.575
-25.55
-25.525
-25.5
-25.475
-25.45
-25.425
-25.4
-25.375
-25.35
-25.325
-25.3
-25.275
-25.25
-25.225
-25.2
-25.175
-25.15
-25.125
-25.1
-25.075
-25.05
-25.025
-25
-24.975
-24.95
-24.925
-24.9
-24.875
-24.85
-24.825
-24.8
-24.775
-24.75
-24.725
-24.7
-24.675
-24.65
-24.625
-24.6
-24.575
-24.55
-24.525
-24.5
-24.475
-24.45
-24.425
-24.4
-24.375
-24.35
-24.325
-24.3
-24.275
-24.25
-24.225
-24.2
-24.175
-24.15
-24.125
-24.1
-24.075
-24.05
-24.025
-24
-23.975
-23.95
-23.925
-23.9
-23.875
-23.85
-23.825
-23.8
-23.775
-23.75
-23.725
-23.7
-23.675
-23.65
-23.625
-23.6
-23.575
-23.55
-23.525
-23.5
-23.475
-23.45
-23.425
-23.4
-23.375
-23.35
-23.325
-23.3
-23.275
-23.25
-23.225
-23.2
-23.175
-23.15
-23.125
-23.1
-23.075
-23.05
-23.025
-23
-22.975
-22.95
-22.925
-22.9
-22.875
-22.85
-22.825
-22.8
-22.775
-22.75
-22.725
-22.7
-22.675
-22.65
-22.625
-22.6
-22.575
-22.55
-22.525
-22.5
-22.475
-22.45
-22.425
-22.4
-22.375
-22.35
-22.325
-22.3
-22.275
-22.25
-22.225
-22.2
-22.175
-22.15
-22.125
-22.1
-22.075
-22.05
-22.025
-22
-21.975
-21.95
-21.925
-21.9
-21.875
-21.85
-21.825
-21.8
-21.775
-21.75
-21.725
-21.7
-21.675
-21.65
-21.625
-21.6
-21.575
-21.55
-21.525
-21.5
-21.475
-21.45
-21.425
-21.4
-21.375
-21.35
-21.325
-21.3
-21.275
-21.25
-21.225
-21.2
-21.175
-21.15
-21.125
-21.1
-21.075
-21.05
-21.025
-21
-20.975
-20.95
-20.925
-20.9
-20.875
-20.85
-20.825
-20.8
-20.775
-20.75
-20.725
-20.7
-20.675
-20.65
-20.625
-20.6
-20.575
-20.55
-20.525
-20.5
-20.475
-20.45
-20.425
-20.4
-20.375
-20.35
-20.325
-20.3
-20.275
-20.25
-20.225
-20.2
-20.175
-20.15
-20.125
-20.1
-20.075
-20.05
-20.025
-20
VAR_LIST_END
BEGIN
-0.006973173,-0.028531687
0.0030293881,-0.052536547
0.0090204207,-0.04871783
-0.013164076,-0.037812702
0.034978811,-0.072566584
-0.016355498,-0.035746854
-0.0031371638,-0.032202661
-0.0052356408,-0.053117953
0.0027818691,-0.046483289
0.0024456335,-0.049975954
-0.00073501054,-0.037368428
-0.0015376201,-0.030468533
-0.018472867,-0.047591213
0.011000217,-0.036754519
-0.019087015,-0.067017362
-0.0053409408,-0.035142656
0.0071855839,-0.044790544
0.012301798,-0.038042866
-0.024829557,-0.031658366
-0.022337625,-0.037666615
0.013444483,-0.048132919
-0.013547646,-0.032242727
0.018295968,-0.050671551
-0.012767216,-0.031073811
-0.0016477548,-0.042368393
0.012660856,-0.052616563
-0.012257286,-0.022907795
0.00096198753,-0.043390524
0.018221343,-0.023710953
-0.0030630562,-0.03778445
-0.011472382,-0.039762907
-0.03202327,-0.036697052
0.0010977231,-0.031937882
0.0038326951,-0.044460405
-0.010668099,-0.038160443
0.0053703133,-0.03364427
-0.0055610994,-0.0387422
-0.031296793,-0.021714358
0.0086538689,-0.028543688
-0.010920712,-0.043320332
-0.024029978,-0.050334413
-0.028803444,-0.041319117
-0.018348128,-0.020474561
-0.01737161,-0.040403008
-0.021326188,-0.057358764
0.0048696045,-0.028697412
-0.021726072,-0.029112771
-0.01162389,-0.052929129
0.024153924,-0.052947406
0.0012754453,-0.031922556
-0.0059989286,-0.031126626
-0.0044375206,-0.033984978
-0.0034876752,-0.038060725
-0.00074510142,-0.037655465
-0.0036945494,-0.047456238
0.0096268971,-0.066438518
-0.0051047155,-0.049921185
0.020313794,-0.047444858
-0.0048917034,-0.042603172
-0.02275881,-0.0368676
-0.0086049596,-0.028827248
-0.019862555,-0.034057144
0.025576614,-0.051749315
0.0027093713,-0.062354773
-0.024591608,-0.025212687
-0.027383758,-0.060746968
-0.004433977,-0.053194262
-0.011175908,-0.053373892
-0.014564811,-0.029542428
0.0017729871,-0.040304814
-0.017392885,-0.047206089
-0.0069858707,-0.05049479
-0.0028393816,-0.0363077
-0.001373023,-0.045695994
-0.017164933,-0.050374925
-0.024038747,-0.067432553
0.00453714,-0.049091261
-0.011558074,-0.042081255
-0.011938387,-0.025212981
-0.004884949,-0.044469956
-0.0077256523,-0.045198672
-0.0049593123,-0.059142288
-0.01873976,-0.035544723
-0.014358799,-0.023794571
-0.0045447778,-0.060569163
-0.010420371,-0.042022426
0.0083485926,-0.025142478
-0.00090989785,-0.048263125
-0.011259987,-0.054282505
-0.01283131,-0.044581726
0.0011596235,-0.050358601
-0.021401374,-0.045204625
-0.011809466,-0.049052373
-0.012062848,-0.045521297
0.0095966868,-0.043742366
-0.016952384,-0.049280718
-0.012956847,-0.035069425
-0.0047494401,-0.046748884
-0.010609288,-0.034250446
-0.0011721452,-0.0514048
0.0024207756,-0.065682575
0.014606236,-0.033161279
-0.0031395755,-0.035199936
0.0042269202,-0.030158775
-0.023602294,-0.025945716
-0.022040617,-0.050031491
-0.0045894296,-0.043359067
0.00023912149,-0.038579781
-0.010052112,-0.067231841
-0.0023663975,-0.034589
-0.018437548,-0.03740583
0.012233365,-0.037983973
-0.017152209,-0.05912466
0.0057767406,-0.039308641
-0.0011790603,-0.045021608
-0.0070722103,-0.037134178
-0.0011277179,-0.045723196
0.0026354764,-0.035450082
0.0082683871,-0.040917531
-0.0024277952,-0.0449109
-0.019512964,-0.058786668
-0.003651703,-0.040828142
0.00090369373,-0.039430521
-0.026664024,-0.052103609
-0.0071060522,-0.032421973
-0.017478943,-0.050002765
-0.0021081702,-0.049321394
-0.021346128,-0.038852252
-0.018996745,-0.043108765
0.0035971145,-0.027599636
-0.0014173622,-0.035616644
-0.0005231722,-0.034654681
0.013394612,-0.049547747
0.0018400033,-0.032437287
-0.0056465315,-0.03413054
0.0084244246,-0.063698292
-0.013604336,-0.043284453
-0.018094696,-0.038127746
-0.016577974,-0.05097314
0.0058471495,-0.043619104
-0.010907563,-0.052071732
-0.0088498825,-0.039889377
-0.018557183,-0.035851832
0.017345201,-0.030572161
-0.0054627759,-0.048309479
-0.0052307448,-0.041495562
0.0012873167,-0.046074398
-0.010362431,-0.036794219
0.0098616015,-0.034418568
0.0027635593,-0.047586314
0.0021964093,-0.03364864
-0.0076672845,-0.04463562
0.0085113961,-0.043828376
-0.0069265603,-0.029401181
-0.016257701,-0.038748212
0.0011460206,-0.036996078
-0.0020571752,-0.049894568
-0.0044812579,-0.035374627
0.0010587854,-0.036463626
-0.012413808,-0.047044933
0.01546555,-0.064560197
-0.0067084543,-0.02885199
-0.00077764725,-0.044914067
-0.0085566407,-0.048817709
-0.0018728437,-0.028085103
0.00019503103,-0.052064322
-0.012038421,-0.043444861
-0.0031242548,-0.043893501
0.0018570353,-0.049507737
-0.00075224956,-0.053935822
-0.011701733,-0.051423673
-0.01317041,-0.030845515
-0.013944019,-0.037008081
0.0077837524,-0.051869344
-0.0080234585,-0.031974006
0.0041913055,-0.044990923
-0.0099471249,-0.049848221
0.0078823334,-0.053450417
0.0015388175,-0.039975673
-0.0099937338,-0.045909502
-0.0080444915,-0.045692071
0.0013427056,-0.05121896
0.0039968039,-0.055500533
-0.0024723108,-0.041161396
0.0035858871,-0.037486896
0.010778161,-0.02902717
0.011685301,-0.030282304
-0.019890606,-0.047943693
0.011917318,-0.049211748
-0.012518486,-0.039466355
0.0032655459,-0.044251107
-0.010195944,-0.044275563
-0.0012316746,-0.016032534
-0.021736564,-0.042655434
-0.0019012571,-0.043290246
-0.00080509001,-0.037553493
-0.0019473481,-0.046387438
0.010560173,-0.047039311
-0.00095960649,-0.030807033
-0.01153894,-0.032648854
-0.003898788,-0.0382616
0.010471509,-0.038637385
-0.010532809,-0.029062858
0.017602477,-0.032422703
0.00019158956,-0.050374668
0.0081923455,-0.04465862
-0.0017313999,-0.030516613
-0.021138676,-0.03989388
0.0040664296,-0.046859067
-0.001979949,-0.037284084
0.0016234437,-0.036574133
-0.0032848252,-0.040880729
-0.013248404,-0.027950719
-0.010702322,-0.040170096
0.0017882833,-0.032758437
-0.0029694766,-0.039283868
0.003481362,-0.04827093
-0.0084306831,-0.064095967
-0.0069114137,-0.040294115
-0.0012381558,-0.035763413
0.0020051585,-0.034762897
0.003448694,-0.03908227
-0.0041703512,-0.043470807
-0.0069158268,-0.045705281
-0.010953967,-0.033791542
0.0040670508,-0.046544995
0.011087646,-0.047759663
0.0068548811,-0.03714747
-0.011684719,-0.044383869
-0.0069999034,-0.054850135
-0.010587391,-0.033252031
0.0030282654,-0.037863344
-0.013317939,-0.048498124
0.0062890612,-0.034255262
-0.0093213767,-0.058355194
-0.001521947,-0.039107673
0.010243383,-0.047891404
-0.0075909449,-0.04696098
-0.013762347,-0.058940992
0.0018336854,-0.044372085
-0.004818487,-0.036461607
-0.00035274099,-0.050351877
0.0011321072,-0.034116231
-0.0078728506,-0.042037003
-0.010491814,-0.03733743
-0.0011953843,-0.047293801
-0.0059347339,-0.029831866
-0.0007576936,-0.034114245
0.0025773637,-0.036050063
-0.0043362612,-0.03795632
-0.0037939914,-0.056997247
-0.0077192266,-0.03031899
-0.0069614113,-0.035294741
-0.012209014,-0.051143415
0.0018888661,-0.041744515
-0.017364616,-0.026891647
-0.0047046989,-0.028959718
0.004306308,-0.057343371
0.0043911752,-0.039787501
-0.0047790441,-0.040065542
0.0076265433,-0.043433163
-0.013291852,-0.040117826
-0.028885424,-0.047031913
-0.0061855623,-0.043838877
-0.01054622,-0.05053873
-0.0070374883,-0.047215506
-0.0099788653,-0.046545394
-0.011380966,-0.048246056
-0.0062349262,-0.034841806
0.0098429779,-0.038920812
-0.0056501473,-0.036305059
0.0037975141,-0.042776261
-0.016378002,-0.039093252
-0.006928388,-0.046286948
-0.003849234,-0.032593884
0.0028982365,-0.03865229
-0.013257579,-0.05345469
-0.0062373793,-0.042341307
-0.0013838628,-0.047235794
-0.016847266,-0.045298066
-0.012578107,-0.029315883
0.00051718357,-0.052655227
0.0005000041,-0.043063827
0.0001095331,-0.051732492
-0.013278969,-0.041361172
-0.010383476,-0.051386565
-0.0071626892,-0.040989164
-0.0074824081,-0.048362255
-0.0084126526,-0.020685459
-0.0018132315,-0.038752116
-0.0018108629,-0.048094634
0.0049887896,-0.040192164
-0.0042097094,-0.0397701
0.0057142354,-0.04703756
-0.011714914,-0.041006055
0.0047937562,-0.042362727
-0.01125122,-0.040452089
-0.0088293869,-0.049633399
0.0060252431,-0.059559312
-0.017307142,-0.043162666
0.0051507959,-0.045290604
0.0092196679,-0.047005497
0.0051492401,-0.036003515
0.0083556548,-0.044228122
0.0037208453,-0.043129578
-0.0020159394,-0.046121128
0.0033739817,-0.047597244
-0.01093844,-0.047268678
-0.0071624001,-0.05449767
0.0086786058,-0.039531562
-0.0098106069,-0.044798322
-0.0046993182,-0.036388319
-0.011940798,-0.037935697
0.0016683184,-0.041006319
-0.00093114877,-0.033762686
0.0020166421,-0.037380841
-0.0060780183,-0.047317587
-0.009599369,-0.043367956
-0.011625485,-0.0427
-5.9866583e-005,-0.042063013
-0.0094630383,-0.033271167
-0.013233272,-0.039536897
-0.0040946431,-0.038679667
-0.0054652425,-0.047949594
-0.0013030653,-0.043643393
-0.0086776288,-0.045630135
0.01277087,-0.034604233
-0.013759824,-0.044561245
-0.019910876,-0.037613422
0.002575085,-0.048846923
0.0016532198,-0.048042763
-0.0050996076,-0.045482688
-0.01295958,-0.039817605
-0.0043857326,-0.042378712
0.0039179092,-0.041430548
-0.012218935,-0.04569478
-0.015275402,-0.036552537
-0.011172303,-0.041780483
-0.01634484,-0.045260325
-0.0047683045,-0.048905294
0.0032051736,-0.044470292
-0.0008996856,-0.043083847
0.0026285681,-0.02911048
0.0036783337,-0.049441207
-0.0087306099,-0.04130682
-0.011426323,-0.040496901
-0.0023022117,-0.050782762
0.001108287,-0.045020908
-0.01173469,-0.046899639
-0.0092705041,-0.041498896
-0.0042624613,-0.036714632
-0.024092274,-0.051798809
-0.0026454099,-0.045703914
-0.0085804844,-0.040213756
-0.00035900529,-0.044926614
0.0038788707,-0.043042012
-0.0025642444,-0.043110926
-0.0090006702,-0.044972382
-0.0027507378,-0.038821694
-0.0088496367,-0.038937941
-0.0071072676,-0.042256903
-0.0012474302,-0.044966619
-0.0057325624,-0.041547373
0.0053079827,-0.04758139
-0.0091737099,-0.045897342
-0.0028524643,-0.038484674
0.00022715464,-0.037935395
-0.0011113957,-0.035689216
-0.006478854,-0.039009411
-0.001090566,-0.037655022
-0.0049315542,-0.035196804
-0.0028034425,-0.03619713
-0.0064327349,-0.05390393
-0.0038090283,-0.02881792
-0.0050622365,-0.046817128
0.0012021497,-0.04710988
-0.00094385591,-0.044349544
-0.0094254585,-0.044849958
-0.0036897734,-0.041852225
-0.0010749176,-0.038011655
-0.0076690651,-0.046347182
-0.0041373274,-0.04236266
-0.0026088753,-0.04543411
0.0016179471,-0.042241834
-0.0084022731,-0.046282709
-0.0045189061,-0.047092449
-0.0010753361,-0.042426445
-0.0067381603,-0.039914928
-0.012737785,-0.044530183
-0.001595983,-0.038437482
-0.010534369,-0.045622546
0.0023180021,-0.045761369
-0.0060635949,-0.044336695
0.0037325912,-0.041891139
-0.0010452289,-0.036968719
-0.0013659075,-0.038448013
-0.0072068018,-0.034884378
-0.0074322964,-0.038693216
-0.0020321575,-0.043364145
0.0034074422,-0.04079796
-0.0096898908,-0.044095732
-0.0072945277,-0.037385944
-0.008355245,-0.046129737
0.0036713607,-0.037937425
-0.0012615102,-0.049778871
-0.00086487323,-0.040336598
-0.0063701747,-0.047309302
-0.006621636,-0.045838233
0.0010340498,-0.046490915
-0.0082531078,-0.040609922
0.0086025298,-0.046552204
0.001627531,-0.048525166
-0.015296993,-0.032621145
0.0029898302,-0.041811183
-0.01190511,-0.034541652
-0.0054387199,-0.04559952
-0.0078581283,-0.038623869
0.0072953496,-0.04730529
-0.0067917849,-0.038725272
-0.0064506144,-0.048312724
-0.0086502265,-0.04457318
-0.0068406858,-0.048292659
-0.0088575911,-0.045900553
-0.00062789215,-0.044349931
-0.002143766,-0.049817242
-0.00027986133,-0.043771219
-0.0083390642,-0.041559719
-0.0048360196,-0.039614931
-0.0049726139,-0.040304467
-0.00023854349,-0.039688624
-0.0028074069,-0.045102824
-0.00034340966,-0.039358858
-0.0060298834,-0.046772525
-0.006700499,-0.050015975
-0.00054463383,-0.042902119
-0.0068326974,-0.039882395
0.0072251875,-0.039814878
-0.00047211233,-0.039595179
-0.011594657,-0.042193636
0.003029753,-0.043211006
5.0083912e-005,-0.039349884
-0.004162821,-0.047689572
-0.006566728,-0.038606863
-0.0048934775,-0.044772364
-0.0083937254,-0.045212794
-0.0017390593,-0.04237644
-0.006132876,-0.04289462
-0.0076707341,-0.045223776
-0.0031646218,-0.045012359
-0.0092620235,-0.048082668
-0.0027965775,-0.045068029
-0.0092898654,-0.050139308
-0.002562827,-0.04208041
-0.00535157,-0.041991156
-0.013825133,-0.045612928
0.0045002466,-0.043651491
-0.0014990681,-0.042415831
-0.0094083752,-0.042763032
0.0017102621,-0.034050159
-0.0022805221,-0.039465647
-0.0094717322,-0.043919418
-0.006482902,-0.042246401
-0.0073397928,-0.039781265
0.0060219332,-0.04105318
0.0011723075,-0.038134787
-0.00067081209,-0.046078216
-0.0019924359,-0.044203293
-0.0053590122,-0.042732548
0.0044475785,-0.047052834
0.00044375283,-0.039158545
-0.00041040155,-0.056622952
-0.0090955943,-0.040552717
-0.0023641638,-0.04268172
-0.0043444135,-0.042084686
-0.0015876188,-0.045236405
-0.002864474,-0.042937517
-0.0068745352,-0.047090944
-0.0004883224,-0.041359931
-0.0017391894,-0.042971853
-0.00076828094,-0.043208443
-0.0065683196,-0.034193575
-0.00039100449,-0.036338404
0.00039128293,-0.039396241
