CITIFILE A.01.01
!Agilent Technologies,N5230C,MY48100142,A.08.04.10
!Agilent N5230C: A.08.04.10
!Date: Thursday, August 11, 2022 11:28:12
NAME CH1_DATA
VAR Power MAG 801
DATA S11 RI
DATA S21 RI
DATA S12 RI
DATA S22 RI
VAR_LIST_BEGIN
-40
-39.975
-39.95
-39.925
-39.9
-39.875
-39.85
-39.825
-39.8
-39.775
-39.75
-39.725
-39.7
-39.675
-39.65
-39.625
-39.6
-39.575
-39.55
-39.525
-39.5
-39.475
-39.45
-39.425
-39.4
-39.375
-39.35
-39.325
-39.3
-39.275
-39.25
-39.225
-39.2
-39.175
-39.15
-39.125
-39.1
-39.075
-39.05
-39.025
-39
-38.975
-38.95
-38.925
-38.9
-38.875
-38.85
-38.825
-38.8
-38.775
-38.75
-38.725
-38.7
-38.675
-38.65
-38.625
-38.6
-38.575
-38.55
-38.525
-38.5
-38.475
-38.45
-38.425
-38.4
-38.375
-38.35
-38.325
-38.3
-38.275
-38.25
-38.225
-38.2
-38.175
-38.15
-38.125
-38.1
-38.075
-38.05
-38.025
-38
-37.975
-37.95
-37.925
-37.9
-37.875
-37.85
-37.825
-37.8
-37.775
-37.75
-37.725
-37.7
-37.675
-37.65
-37.625
-37.6
-37.575
-37.55
-37.525
-37.5
-37.475
-37.45
-37.425
-37.4
-37.375
-37.35
-37.325
-37.3
-37.275
-37.25
-37.225
-37.2
-37.175
-37.15
-37.125
-37.1
-37.075
-37.05
-37.025
-37
-36.975
-36.95
-36.925
-36.9
-36.875
-36.85
-36.825
-36.8
-36.775
-36.75
-36.725
-36.7
-36.675
-36.65
-36.625
-36.6
-36.575
-36.55
-36.525
-36.5
-36.475
-36.45
-36.425
-36.4
-36.375
-36.35
-36.325
-36.3
-36.275
-36.25
-36.225
-36.2
-36.175
-36.15
-36.125
-36.1
-36.075
-36.05
-36.025
-36
-35.975
-35.95
-35.925
-35.9
-35.875
-35.85
-35.825
-35.8
-35.775
-35.75
-35.725
-35.7
-35.675
-35.65
-35.625
-35.6
-35.575
-35.55
-35.525
-35.5
-35.475
-35.45
-35.425
-35.4
-35.375
-35.35
-35.325
-35.3
-35.275
-35.25
-35.225
-35.2
-35.175
-35.15
-35.125
-35.1
-35.075
-35.05
-35.025
-35
-34.975
-34.95
-34.925
-34.9
-34.875
-34.85
-34.825
-34.8
-34.775
-34.75
-34.725
-34.7
-34.675
-34.65
-34.625
-34.6
-34.575
-34.55
-34.525
-34.5
-34.475
-34.45
-34.425
-34.4
-34.375
-34.35
-34.325
-34.3
-34.275
-34.25
-34.225
-34.2
-34.175
-34.15
-34.125
-34.1
-34.075
-34.05
-34.025
-34
-33.975
-33.95
-33.925
-33.9
-33.875
-33.85
-33.825
-33.8
-33.775
-33.75
-33.725
-33.7
-33.675
-33.65
-33.625
-33.6
-33.575
-33.55
-33.525
-33.5
-33.475
-33.45
-33.425
-33.4
-33.375
-33.35
-33.325
-33.3
-33.275
-33.25
-33.225
-33.2
-33.175
-33.15
-33.125
-33.1
-33.075
-33.05
-33.025
-33
-32.975
-32.95
-32.925
-32.9
-32.875
-32.85
-32.825
-32.8
-32.775
-32.75
-32.725
-32.7
-32.675
-32.65
-32.625
-32.6
-32.575
-32.55
-32.525
-32.5
-32.475
-32.45
-32.425
-32.4
-32.375
-32.35
-32.325
-32.3
-32.275
-32.25
-32.225
-32.2
-32.175
-32.15
-32.125
-32.1
-32.075
-32.05
-32.025
-32
-31.975
-31.95
-31.925
-31.9
-31.875
-31.85
-31.825
-31.8
-31.775
-31.75
-31.725
-31.7
-31.675
-31.65
-31.625
-31.6
-31.575
-31.55
-31.525
-31.5
-31.475
-31.45
-31.425
-31.4
-31.375
-31.35
-31.325
-31.3
-31.275
-31.25
-31.225
-31.2
-31.175
-31.15
-31.125
-31.1
-31.075
-31.05
-31.025
-31
-30.975
-30.95
-30.925
-30.9
-30.875
-30.85
-30.825
-30.8
-30.775
-30.75
-30.725
-30.7
-30.675
-30.65
-30.625
-30.6
-30.575
-30.55
-30.525
-30.5
-30.475
-30.45
-30.425
-30.4
-30.375
-30.35
-30.325
-30.3
-30.275
-30.25
-30.225
-30.2
-30.175
-30.15
-30.125
-30.1
-30.075
-30.05
-30.025
-30
-29.975
-29.95
-29.925
-29.9
-29.875
-29.85
-29.825
-29.8
-29.775
-29.75
-29.725
-29.7
-29.675
-29.65
-29.625
-29.6
-29.575
-29.55
-29.525
-29.5
-29.475
-29.45
-29.425
-29.4
-29.375
-29.35
-29.325
-29.3
-29.275
-29.25
-29.225
-29.2
-29.175
-29.15
-29.125
-29.1
-29.075
-29.05
-29.025
-29
-28.975
-28.95
-28.925
-28.9
-28.875
-28.85
-28.825
-28.8
-28.775
-28.75
-28.725
-28.7
-28.675
-28.65
-28.625
-28.6
-28.575
-28.55
-28.525
-28.5
-28.475
-28.45
-28.425
-28.4
-28.375
-28.35
-28.325
-28.3
-28.275
-28.25
-28.225
-28.2
-28.175
-28.15
-28.125
-28.1
-28.075
-28.05
-28.025
-28
-27.975
-27.95
-27.925
-27.9
-27.875
-27.85
-27.825
-27.8
-27.775
-27.75
-27.725
-27.7
-27.675
-27.65
-27.625
-27.6
-27.575
-27.55
-27.525
-27.5
-27.475
-27.45
-27.425
-27.4
-27.375
-27.35
-27.325
-27.3
-27.275
-27.25
-27.225
-27.2
-27.175
-27.15
-27.125
-27.1
-27.075
-27.05
-27.025
-27
-26.975
-26.95
-26.925
-26.9
-26.875
-26.85
-26.825
-26.8
-26.775
-26.75
-26.725
-26.7
-26.675
-26.65
-26.625
-26.6
-26.575
-26.55
-26.525
-26.5
-26.475
-26.45
-26.425
-26.4
-26.375
-26.35
-26.325
-26.3
-26.275
-26.25
-26.225
-26.2
-26.175
-26.15
-26.125
-26.1
-26.075
-26.05
-26.025
-26
-25.975
-25.95
-25.925
-25.9
-25.875
-25.85
-25.825
-25.8
-25.775
-25.75
-25.725
-25.7
-25.675
-25.65
-25.625
-25.6
-25.575
-25.55
-25.525
-25.5
-25.475
-25.45
-25.425
-25.4
-25.375
-25.35
-25.325
-25.3
-25.275
-25.25
-25.225
-25.2
-25.175
-25.15
-25.125
-25.1
-25.075
-25.05
-25.025
-25
-24.975
-24.95
-24.925
-24.9
-24.875
-24.85
-24.825
-24.8
-24.775
-24.75
-24.725
-24.7
-24.675
-24.65
-24.625
-24.6
-24.575
-24.55
-24.525
-24.5
-24.475
-24.45
-24.425
-24.4
-24.375
-24.35
-24.325
-24.3
-24.275
-24.25
-24.225
-24.2
-24.175
-24.15
-24.125
-24.1
-24.075
-24.05
-24.025
-24
-23.975
-23.95
-23.925
-23.9
-23.875
-23.85
-23.825
-23.8
-23.775
-23.75
-23.725
-23.7
-23.675
-23.65
-23.625
-23.6
-23.575
-23.55
-23.525
-23.5
-23.475
-23.45
-23.425
-23.4
-23.375
-23.35
-23.325
-23.3
-23.275
-23.25
-23.225
-23.2
-23.175
-23.15
-23.125
-23.1
-23.075
-23.05
-23.025
-23
-22.975
-22.95
-22.925
-22.9
-22.875
-22.85
-22.825
-22.8
-22.775
-22.75
-22.725
-22.7
-22.675
-22.65
-22.625
-22.6
-22.575
-22.55
-22.525
-22.5
-22.475
-22.45
-22.425
-22.4
-22.375
-22.35
-22.325
-22.3
-22.275
-22.25
-22.225
-22.2
-22.175
-22.15
-22.125
-22.1
-22.075
-22.05
-22.025
-22
-21.975
-21.95
-21.925
-21.9
-21.875
-21.85
-21.825
-21.8
-21.775
-21.75
-21.725
-21.7
-21.675
-21.65
-21.625
-21.6
-21.575
-21.55
-21.525
-21.5
-21.475
-21.45
-21.425
-21.4
-21.375
-21.35
-21.325
-21.3
-21.275
-21.25
-21.225
-21.2
-21.175
-21.15
-21.125
-21.1
-21.075
-21.05
-21.025
-21
-20.975
-20.95
-20.925
-20.9
-20.875
-20.85
-20.825
-20.8
-20.775
-20.75
-20.725
-20.7
-20.675
-20.65
-20.625
-20.6
-20.575
-20.55
-20.525
-20.5
-20.475
-20.45
-20.425
-20.4
-20.375
-20.35
-20.325
-20.3
-20.275
-20.25
-20.225
-20.2
-20.175
-20.15
-20.125
-20.1
-20.075
-20.05
-20.025
-20
VAR_LIST_END
BEGIN
-0.16683669,-0.11076299
-0.17114265,-0.093249977
-0.1740319,-0.077788107
-0.17870119,-0.087407365
-0.17143519,-0.064105786
-0.15261102,-0.085910209
-0.17327841,-0.072383218
-0.2010496,-0.088364534
-0.17476954,-0.061691262
-0.18218587,-0.092993245
-0.18807858,-0.070670128
-0.17021857,-0.045607086
-0.19621287,-0.080037862
-0.17404974,-0.10091503
-0.16807978,-0.059284952
-0.20143807,-0.045940291
-0.15008849,-0.078755721
-0.17240338,-0.070266135
-0.18849944,-0.091557696
-0.16110238,-0.061273288
-0.16979191,-0.094932541
-0.18777604,-0.11239208
-0.17746148,-0.068139687
-0.1506511,-0.090652436
-0.16764061,-0.089638412
-0.18210566,-0.051586933
-0.18682924,-0.084745266
-0.16176297,-0.078121945
-0.16066615,-0.077423409
-0.15695246,-0.064288564
-0.16294073,-0.077100083
-0.15135737,-0.059293795
-0.18562526,-0.075703368
-0.17792295,-0.10650022
-0.17465489,-0.053094432
-0.16889457,-0.075666673
-0.18596834,-0.076177977
-0.16069132,-0.072556831
-0.16823128,-0.07614065
-0.17399986,-0.10742782
-0.19714309,-0.063275449
-0.17430426,-0.11379204
-0.20201185,-0.073225439
-0.2087768,-0.083007984
-0.14079568,-0.10748328
-0.16185866,-0.071790829
-0.16938904,-0.08152061
-0.18902665,-0.067268953
-0.16368468,-0.064943135
-0.18148728,-0.063478909
-0.17245534,-0.080038294
-0.1651345,-0.081247047
-0.18853438,-0.058215268
-0.17982769,-0.091771953
-0.15200113,-0.083916478
-0.17298198,-0.065792158
-0.17424716,-0.091822334
-0.16991113,-0.082195684
-0.18816021,-0.069171824
-0.17360154,-0.10461534
-0.15491538,-0.076395102
-0.16843057,-0.08046703
-0.14864956,-0.064909063
-0.16218466,-0.08813744
-0.17940314,-0.089100882
-0.18819258,-0.082006156
-0.177348,-0.081027761
-0.16720966,-0.076989897
-0.17239533,-0.083006173
-0.1887188,-0.085024342
-0.16651474,-0.06665644
-0.18795837,-0.0998502
-0.156213,-0.075244658
-0.17278069,-0.07143528
-0.18012924,-0.076555483
-0.18359973,-0.08702331
-0.17747581,-0.080416113
-0.18223527,-0.086213246
-0.20328562,-0.086508334
-0.18380393,-0.0786964
-0.17474599,-0.08190193
-0.17106263,-0.085392319
-0.15995872,-0.07907322
-0.18388204,-0.058725152
-0.17469688,-0.075619042
-0.15964964,-0.10088962
-0.16163534,-0.062474873
-0.17812464,-0.081417359
-0.19137947,-0.093976222
-0.14379175,-0.081522465
-0.16812998,-0.081243716
-0.17519516,-0.064118817
-0.17972942,-0.073673666
-0.17147651,-0.087509856
-0.19055757,-0.052985456
-0.16453128,-0.075474843
-0.16814512,-0.091843776
-0.15893237,-0.086808726
-0.16571492,-0.062618993
-0.16269004,-0.076812334
-0.16985628,-0.072155148
-0.14396721,-0.076432742
-0.16425283,-0.084856786
-0.15709823,-0.08656355
-0.18085164,-0.082695156
-0.18763457,-0.077795438
-0.18923953,-0.061353594
-0.17247996,-0.088385403
-0.1637688,-0.084996283
-0.16915166,-0.080784343
-0.17992234,-0.065087892
-0.18786487,-0.080334038
-0.1553321,-0.096790835
-0.15951377,-0.080722593
-0.16582562,-0.091109417
-0.16747133,-0.07521642
-0.18663403,-0.091508314
-0.17612407,-0.065348014
-0.19321071,-0.098800361
-0.17882936,-0.071689621
-0.18493244,-0.068935804
-0.16963176,-0.069770589
-0.2015975,-0.086118802
-0.19139943,-0.096594624
-0.17018496,-0.066819392
-0.19486547,-0.088381305
-0.18028195,-0.10105807
-0.16627505,-0.080719762
-0.1634198,-0.079309285
-0.16881658,-0.084190294
-0.16108811,-0.085769743
-0.18253703,-0.074309759
-0.17755139,-0.080209397
-0.184642,-0.1085864
-0.16506071,-0.095714398
-0.15384713,-0.089096323
-0.16551997,-0.088533476
-0.17682707,-0.085920185
-0.1908194,-0.083085164
-0.18269473,-0.065735117
-0.17093253,-0.060429424
-0.15537672,-0.085860774
-0.17610353,-0.093079701
-0.172728,-0.08727476
-0.17649065,-0.091003276
-0.17957756,-0.082025342
-0.17047617,-0.063321017
-0.17132984,-0.088771172
-0.17074284,-0.073069796
-0.18211327,-0.092437722
-0.15437379,-0.078984477
-0.1824376,-0.07138703
-0.19339499,-0.0776136
-0.15873478,-0.080755956
-0.17027694,-0.088034377
-0.19387294,-0.079121247
-0.16955988,-0.082333192
-0.18532138,-0.093061753
-0.15820964,-0.084202476
-0.15673162,-0.070534766
-0.18626185,-0.075737029
-0.18040435,-0.077738747
-0.16470015,-0.085423462
-0.16313329,-0.070986211
-0.17967449,-0.067642272
-0.17683129,-0.10704049
-0.17661951,-0.098251469
-0.1795983,-0.097362198
-0.16574487,-0.092573561
-0.17289504,-0.079840153
-0.17874143,-0.082212001
-0.16910937,-0.088782005
-0.17156003,-0.070984751
-0.18071142,-0.075161718
-0.17339911,-0.07113561
-0.16706668,-0.10426599
-0.17700264,-0.09973532
-0.18544112,-0.089583494
-0.17538984,-0.06998162
-0.17892659,-0.082243539
-0.16875532,-0.09607777
-0.17855991,-0.075050771
-0.16302232,-0.097570091
-0.16520758,-0.07576485
-0.17152482,-0.08131355
-0.17489795,-0.095031902
-0.17756978,-0.072273061
-0.1641172,-0.095050156
-0.15834661,-0.068781041
-0.17058779,-0.065924041
-0.17884125,-0.082150646
-0.17940006,-0.083096214
-0.1749904,-0.086181007
-0.15857111,-0.075246215
-0.17269593,-0.11365677
-0.17288058,-0.085783586
-0.16480981,-0.078271396
-0.16667873,-0.067052297
-0.18311843,-0.064787619
-0.17472774,-0.089739986
-0.16020918,-0.096446238
-0.17623304,-0.088770531
-0.17382979,-0.086266957
-0.15573245,-0.09296754
-0.18080503,-0.09004914
-0.18235686,-0.075607635
-0.16826355,-0.083797425
-0.18390557,-0.090617567
-0.17923471,-0.095669843
-0.18048544,-0.093206465
-0.15819997,-0.08875864
-0.18192035,-0.086064406
-0.17847477,-0.077629417
-0.16525719,-0.078448676
-0.17727654,-0.070795909
-0.1756189,-0.087853067
-0.17635374,-0.090137511
-0.18732452,-0.090680793
-0.17684935,-0.062925376
-0.16690668,-0.083813585
-0.17677881,-0.08306887
-0.1792164,-0.080217838
-0.18571223,-0.078400053
-0.18058637,-0.089392699
-0.17517754,-0.094282463
-0.17118713,-0.074709177
-0.18065554,-0.091625325
-0.1734415,-0.094263785
-0.16729751,-0.082513802
-0.19560844,-0.083084323
-0.18994822,-0.071331576
-0.16308063,-0.078264743
-0.16701478,-0.07222414
-0.17656818,-0.079224221
-0.17476107,-0.092396937
-0.1784901,-0.095184274
-0.16504946,-0.064988963
-0.18333218,-0.074103631
-0.1738539,-0.09682747
-0.15839121,-0.090032049
-0.19128628,-0.088665299
-0.1718822,-0.099740699
-0.18122621,-0.097805053
-0.16901965,-0.090033606
-0.17404796,-0.083302401
-0.18401138,-0.067636795
-0.15389426,-0.082203753
-0.16764219,-0.089446254
-0.18240806,-0.086861059
-0.18325858,-0.08458785
-0.16760205,-0.10056449
-0.17719674,-0.083752714
-0.18316627,-0.085612804
-0.18444538,-0.085885458
-0.16261157,-0.079696663
-0.1748483,-0.090600714
-0.1707844,-0.080493353
-0.16725902,-0.083986439
-0.16144538,-0.077892281
-0.17103449,-0.085017331
-0.17404893,-0.078071825
-0.18002498,-0.082427569
-0.16707389,-0.087382182
-0.15288523,-0.068098724
-0.17585927,-0.072710082
-0.18603757,-0.067230426
-0.18462367,-0.078050517
-0.19233216,-0.077894658
-0.1765815,-0.081098743
-0.16771162,-0.073129207
-0.16260672,-0.080574125
-0.17921615,-0.07431104
-0.17318049,-0.088768579
-0.18122555,-0.077184223
-0.16814084,-0.089411043
-0.17051926,-0.076715216
-0.17332709,-0.082674228
-0.17486247,-0.073114991
-0.16324574,-0.084578618
-0.17117491,-0.077810317
-0.17199865,-0.095069103
-0.18097053,-0.090417102
-0.17702021,-0.072431557
-0.17772354,-0.095516503
-0.18391772,-0.070263751
-0.17244898,-0.084633768
-0.18225867,-0.089763075
-0.1647806,-0.078151479
-0.17766395,-0.080304079
-0.17713368,-0.082524188
-0.17654939,-0.064823851
-0.17514502,-0.094400406
-0.1812184,-0.088938132
-0.18556049,-0.083161294
-0.1644861,-0.088957183
-0.1637605,-0.079092704
-0.1560455,-0.086462118
-0.17628802,-0.092808835
-0.16166656,-0.084693633
-0.16959894,-0.071861565
-0.18075745,-0.092187092
-0.17967097,-0.077812761
-0.18188769,-0.07537403
-0.17366649,-0.089465201
-0.15966736,-0.077632844
-0.18203121,-0.098733693
-0.17521109,-0.069432981
-0.17654449,-0.0892995
-0.17739381,-0.093050227
-0.16159594,-0.068764627
-0.17899296,-0.083533429
-0.17954002,-0.074943021
-0.16464776,-0.072283
-0.17362942,-0.087657802
-0.18393809,-0.086332597
-0.17549872,-0.083453059
-0.1622393,-0.078202382
-0.17268316,-0.074781112
-0.17859736,-0.082801916
-0.17658648,-0.076712854
-0.18410406,-0.084180295
-0.18078676,-0.079798147
-0.16607589,-0.098695874
-0.17696472,-0.084691785
-0.18409237,-0.08840327
-0.17764087,-0.077865168
-0.16675973,-0.084592164
-0.16871148,-0.078325704
-0.1700258,-0.082197815
-0.16276398,-0.089119218
-0.16414024,-0.084047377
-0.16377123,-0.089939646
-0.16816965,-0.085386202
-0.17767856,-0.088526502
-0.1706486,-0.086790472
-0.18949793,-0.0799459
-0.17689376,-0.072145082
-0.1765984,-0.094572127
-0.169018,-0.075255297
-0.17781425,-0.076977968
-0.17231295,-0.086100206
-0.17720413,-0.081273235
-0.18119775,-0.07984449
-0.18285738,-0.077977084
-0.18461289,-0.094268993
-0.17392497,-0.080146089
-0.18679193,-0.07825274
-0.16999063,-0.078412138
-0.16233449,-0.078005441
-0.16695546,-0.084359646
-0.17087099,-0.076572008
-0.17156324,-0.082953237
-0.17549749,-0.088205859
-0.1769529,-0.079118542
-0.16778019,-0.086170733
-0.17167905,-0.08522889
-0.17634457,-0.082067393
-0.17264226,-0.079563908
-0.17480527,-0.085044526
-0.17452817,-0.078865334
-0.18124931,-0.079038963
-0.17874338,-0.084195532
-0.1636752,-0.087726198
-0.16980508,-0.079189025
-0.17583291,-0.079587169
-0.18549593,-0.09030579
-0.17747559,-0.085754097
-0.17509472,-0.089272946
-0.17400274,-0.072925001
-0.18726198,-0.083120532
-0.16569184,-0.092477962
-0.17740247,-0.078931913
-0.16415992,-0.079652607
-0.16540134,-0.095018297
-0.17904437,-0.085645795
-0.16764349,-0.073932216
-0.17443588,-0.083919227
-0.17395742,-0.080757357
-0.18577698,-0.076375261
-0.18004516,-0.084316313
-0.18343362,-0.074105598
-0.17947681,-0.076230422
-0.18168734,-0.07263393
-0.17699528,-0.083378635
-0.16306776,-0.074483298
-0.16923088,-0.088684149
-0.18443982,-0.094965763
-0.16936281,-0.07975933
-0.1754946,-0.073762074
-0.16677135,-0.081578054
-0.17033793,-0.087949716
-0.17272514,-0.069863923
-0.17446992,-0.079245321
-0.17228787,-0.086937882
-0.1710113,-0.07249853
-0.16753714,-0.076533712
-0.17395997,-0.082983702
-0.1705187,-0.08967001
-0.17176726,-0.086181894
-0.17260863,-0.081159018
-0.16527759,-0.084320351
-0.17369902,-0.088212401
-0.16516899,-0.079428382
-0.18336546,-0.094656713
-0.1722039,-0.088105679
-0.16845642,-0.084864348
-0.1717198,-0.091329895
-0.18104039,-0.082653694
-0.17102876,-0.088532023
-0.1805542,-0.086817116
-0.17492519,-0.084503785
-0.17072579,-0.076448299
-0.1781209,-0.080248863
-0.18670021,-0.072702475
-0.18090582,-0.08256501
-0.17989336,-0.079453662
-0.18033542,-0.087657943
-0.16858488,-0.096019819
-0.1674816,-0.078379057
-0.17714514,-0.084493011
-0.17609772,-0.075450025
-0.17735614,-0.074929141
-0.18086861,-0.094226398
-0.18057382,-0.084536649
-0.17090002,-0.091207072
-0.17116781,-0.078163549
-0.1773981,-0.084509537
-0.17879777,-0.08367227
-0.16878386,-0.080341607
-0.1718436,-0.090086855
-0.16951968,-0.08272066
-0.16875614,-0.082238197
-0.17444944,-0.077594347
-0.17444789,-0.088570677
-0.17036372,-0.088254973
-0.17657101,-0.082014188
-0.16702524,-0.075802714
-0.18235469,-0.071759112
-0.17700209,-0.074143283
-0.17801569,-0.095196277
-0.17322347,-0.082774132
-0.17655891,-0.0783085
-0.17487881,-0.082627133
-0.17154999,-0.08186131
-0.17278363,-0.085706249
-0.1764584,-0.086853065
-0.18151985,-0.077579655
-0.16683814,-0.077987276
-0.17440371,-0.087634392
-0.16831696,-0.083410561
-0.17447193,-0.078881554
-0.16929691,-0.083244987
-0.17953603,-0.084452026
-0.18406798,-0.081127569
-0.17377116,-0.086207733
-0.17454328,-0.083625391
-0.17398952,-0.080436006
-0.17567314,-0.08159741
-0.17381267,-0.081824429
-0.17318197,-0.083909214
-0.17177087,-0.083735779
-0.17476073,-0.07638222
-0.18014567,-0.080150619
-0.1747226,-0.077238552
-0.1703473,-0.083765879
-0.17458734,-0.083653495
-0.18027683,-0.081436642
-0.16994336,-0.085181944
-0.1775443,-0.071491428
-0.17665727,-0.08357688
-0.17404386,-0.088366486
-0.17940818,-0.080140971
-0.17501041,-0.078457624
-0.18316214,-0.083853617
-0.17496036,-0.09082479
-0.17549692,-0.084773235
-0.17794482,-0.097873367
-0.17214854,-0.079438403
-0.17250197,-0.081584319
-0.17502022,-0.09437719
-0.17805283,-0.077588588
-0.17344277,-0.083004259
-0.17599182,-0.084971435
-0.17303172,-0.082745925
-0.17852087,-0.085404724
-0.17076124,-0.08302623
-0.17755529,-0.08534883
-0.1691643,-0.083962634
-0.17897293,-0.08721187
-0.16988897,-0.078186065
-0.17385726,-0.086648859
-0.17558274,-0.085515894
-0.18301457,-0.086763173
-0.17180029,-0.08099857
-0.17310189,-0.089087814
-0.17711975,-0.078798138
-0.17547829,-0.093552738
-0.16961005,-0.075605683
-0.17277476,-0.081171572
-0.17478423,-0.084848523
-0.16794081,-0.08261849
-0.17441827,-0.081751361
-0.16819859,-0.083108097
-0.16996609,-0.081895351
-0.17652644,-0.081471123
-0.18063599,-0.081714392
-0.17704141,-0.088174298
-0.16820063,-0.081181437
-0.16900893,-0.082307287
-0.17541814,-0.08788383
-0.17039478,-0.084508471
-0.17575566,-0.076581635
