CITIFILE A.01.01
!Agilent Technologies,N5230C,MY48100142,A.08.04.10
!Agilent N5230C: A.08.04.10
!Format: LogMag/Angle
!Date: Friday, August 07, 2020 13:08:30
NAME CH1_DATA
VAR Power MAG 801
DATA S11 DBANGLE
DATA S21 DBANGLE
DATA S12 DBANGLE
DATA S22 DBANGLE
VAR_LIST_BEGIN
-40
-39.975
-39.95
-39.925
-39.9
-39.875
-39.85
-39.825
-39.8
-39.775
-39.75
-39.725
-39.7
-39.675
-39.65
-39.625
-39.6
-39.575
-39.55
-39.525
-39.5
-39.475
-39.45
-39.425
-39.4
-39.375
-39.35
-39.325
-39.3
-39.275
-39.25
-39.225
-39.2
-39.175
-39.15
-39.125
-39.1
-39.075
-39.05
-39.025
-39
-38.975
-38.95
-38.925
-38.9
-38.875
-38.85
-38.825
-38.8
-38.775
-38.75
-38.725
-38.7
-38.675
-38.65
-38.625
-38.6
-38.575
-38.55
-38.525
-38.5
-38.475
-38.45
-38.425
-38.4
-38.375
-38.35
-38.325
-38.3
-38.275
-38.25
-38.225
-38.2
-38.175
-38.15
-38.125
-38.1
-38.075
-38.05
-38.025
-38
-37.975
-37.95
-37.925
-37.9
-37.875
-37.85
-37.825
-37.8
-37.775
-37.75
-37.725
-37.7
-37.675
-37.65
-37.625
-37.6
-37.575
-37.55
-37.525
-37.5
-37.475
-37.45
-37.425
-37.4
-37.375
-37.35
-37.325
-37.3
-37.275
-37.25
-37.225
-37.2
-37.175
-37.15
-37.125
-37.1
-37.075
-37.05
-37.025
-37
-36.975
-36.95
-36.925
-36.9
-36.875
-36.85
-36.825
-36.8
-36.775
-36.75
-36.725
-36.7
-36.675
-36.65
-36.625
-36.6
-36.575
-36.55
-36.525
-36.5
-36.475
-36.45
-36.425
-36.4
-36.375
-36.35
-36.325
-36.3
-36.275
-36.25
-36.225
-36.2
-36.175
-36.15
-36.125
-36.1
-36.075
-36.05
-36.025
-36
-35.975
-35.95
-35.925
-35.9
-35.875
-35.85
-35.825
-35.8
-35.775
-35.75
-35.725
-35.7
-35.675
-35.65
-35.625
-35.6
-35.575
-35.55
-35.525
-35.5
-35.475
-35.45
-35.425
-35.4
-35.375
-35.35
-35.325
-35.3
-35.275
-35.25
-35.225
-35.2
-35.175
-35.15
-35.125
-35.1
-35.075
-35.05
-35.025
-35
-34.975
-34.95
-34.925
-34.9
-34.875
-34.85
-34.825
-34.8
-34.775
-34.75
-34.725
-34.7
-34.675
-34.65
-34.625
-34.6
-34.575
-34.55
-34.525
-34.5
-34.475
-34.45
-34.425
-34.4
-34.375
-34.35
-34.325
-34.3
-34.275
-34.25
-34.225
-34.2
-34.175
-34.15
-34.125
-34.1
-34.075
-34.05
-34.025
-34
-33.975
-33.95
-33.925
-33.9
-33.875
-33.85
-33.825
-33.8
-33.775
-33.75
-33.725
-33.7
-33.675
-33.65
-33.625
-33.6
-33.575
-33.55
-33.525
-33.5
-33.475
-33.45
-33.425
-33.4
-33.375
-33.35
-33.325
-33.3
-33.275
-33.25
-33.225
-33.2
-33.175
-33.15
-33.125
-33.1
-33.075
-33.05
-33.025
-33
-32.975
-32.95
-32.925
-32.9
-32.875
-32.85
-32.825
-32.8
-32.775
-32.75
-32.725
-32.7
-32.675
-32.65
-32.625
-32.6
-32.575
-32.55
-32.525
-32.5
-32.475
-32.45
-32.425
-32.4
-32.375
-32.35
-32.325
-32.3
-32.275
-32.25
-32.225
-32.2
-32.175
-32.15
-32.125
-32.1
-32.075
-32.05
-32.025
-32
-31.975
-31.95
-31.925
-31.9
-31.875
-31.85
-31.825
-31.8
-31.775
-31.75
-31.725
-31.7
-31.675
-31.65
-31.625
-31.6
-31.575
-31.55
-31.525
-31.5
-31.475
-31.45
-31.425
-31.4
-31.375
-31.35
-31.325
-31.3
-31.275
-31.25
-31.225
-31.2
-31.175
-31.15
-31.125
-31.1
-31.075
-31.05
-31.025
-31
-30.975
-30.95
-30.925
-30.9
-30.875
-30.85
-30.825
-30.8
-30.775
-30.75
-30.725
-30.7
-30.675
-30.65
-30.625
-30.6
-30.575
-30.55
-30.525
-30.5
-30.475
-30.45
-30.425
-30.4
-30.375
-30.35
-30.325
-30.3
-30.275
-30.25
-30.225
-30.2
-30.175
-30.15
-30.125
-30.1
-30.075
-30.05
-30.025
-30
-29.975
-29.95
-29.925
-29.9
-29.875
-29.85
-29.825
-29.8
-29.775
-29.75
-29.725
-29.7
-29.675
-29.65
-29.625
-29.6
-29.575
-29.55
-29.525
-29.5
-29.475
-29.45
-29.425
-29.4
-29.375
-29.35
-29.325
-29.3
-29.275
-29.25
-29.225
-29.2
-29.175
-29.15
-29.125
-29.1
-29.075
-29.05
-29.025
-29
-28.975
-28.95
-28.925
-28.9
-28.875
-28.85
-28.825
-28.8
-28.775
-28.75
-28.725
-28.7
-28.675
-28.65
-28.625
-28.6
-28.575
-28.55
-28.525
-28.5
-28.475
-28.45
-28.425
-28.4
-28.375
-28.35
-28.325
-28.3
-28.275
-28.25
-28.225
-28.2
-28.175
-28.15
-28.125
-28.1
-28.075
-28.05
-28.025
-28
-27.975
-27.95
-27.925
-27.9
-27.875
-27.85
-27.825
-27.8
-27.775
-27.75
-27.725
-27.7
-27.675
-27.65
-27.625
-27.6
-27.575
-27.55
-27.525
-27.5
-27.475
-27.45
-27.425
-27.4
-27.375
-27.35
-27.325
-27.3
-27.275
-27.25
-27.225
-27.2
-27.175
-27.15
-27.125
-27.1
-27.075
-27.05
-27.025
-27
-26.975
-26.95
-26.925
-26.9
-26.875
-26.85
-26.825
-26.8
-26.775
-26.75
-26.725
-26.7
-26.675
-26.65
-26.625
-26.6
-26.575
-26.55
-26.525
-26.5
-26.475
-26.45
-26.425
-26.4
-26.375
-26.35
-26.325
-26.3
-26.275
-26.25
-26.225
-26.2
-26.175
-26.15
-26.125
-26.1
-26.075
-26.05
-26.025
-26
-25.975
-25.95
-25.925
-25.9
-25.875
-25.85
-25.825
-25.8
-25.775
-25.75
-25.725
-25.7
-25.675
-25.65
-25.625
-25.6
-25.575
-25.55
-25.525
-25.5
-25.475
-25.45
-25.425
-25.4
-25.375
-25.35
-25.325
-25.3
-25.275
-25.25
-25.225
-25.2
-25.175
-25.15
-25.125
-25.1
-25.075
-25.05
-25.025
-25
-24.975
-24.95
-24.925
-24.9
-24.875
-24.85
-24.825
-24.8
-24.775
-24.75
-24.725
-24.7
-24.675
-24.65
-24.625
-24.6
-24.575
-24.55
-24.525
-24.5
-24.475
-24.45
-24.425
-24.4
-24.375
-24.35
-24.325
-24.3
-24.275
-24.25
-24.225
-24.2
-24.175
-24.15
-24.125
-24.1
-24.075
-24.05
-24.025
-24
-23.975
-23.95
-23.925
-23.9
-23.875
-23.85
-23.825
-23.8
-23.775
-23.75
-23.725
-23.7
-23.675
-23.65
-23.625
-23.6
-23.575
-23.55
-23.525
-23.5
-23.475
-23.45
-23.425
-23.4
-23.375
-23.35
-23.325
-23.3
-23.275
-23.25
-23.225
-23.2
-23.175
-23.15
-23.125
-23.1
-23.075
-23.05
-23.025
-23
-22.975
-22.95
-22.925
-22.9
-22.875
-22.85
-22.825
-22.8
-22.775
-22.75
-22.725
-22.7
-22.675
-22.65
-22.625
-22.6
-22.575
-22.55
-22.525
-22.5
-22.475
-22.45
-22.425
-22.4
-22.375
-22.35
-22.325
-22.3
-22.275
-22.25
-22.225
-22.2
-22.175
-22.15
-22.125
-22.1
-22.075
-22.05
-22.025
-22
-21.975
-21.95
-21.925
-21.9
-21.875
-21.85
-21.825
-21.8
-21.775
-21.75
-21.725
-21.7
-21.675
-21.65
-21.625
-21.6
-21.575
-21.55
-21.525
-21.5
-21.475
-21.45
-21.425
-21.4
-21.375
-21.35
-21.325
-21.3
-21.275
-21.25
-21.225
-21.2
-21.175
-21.15
-21.125
-21.1
-21.075
-21.05
-21.025
-21
-20.975
-20.95
-20.925
-20.9
-20.875
-20.85
-20.825
-20.8
-20.775
-20.75
-20.725
-20.7
-20.675
-20.65
-20.625
-20.6
-20.575
-20.55
-20.525
-20.5
-20.475
-20.45
-20.425
-20.4
-20.375
-20.35
-20.325
-20.3
-20.275
-20.25
-20.225
-20.2
-20.175
-20.15
-20.125
-20.1
-20.075
-20.05
-20.025
-20
VAR_LIST_END
BEGIN
-14.991224,-160.73468
-15.435144,-152.36594
-15.296139,-160.08188
-14.87658,-157.6875
-14.652168,-158.01077
-15.306239,-168.95903
-14.806153,-158.01494
-15.054093,-157.37003
-14.537564,-158.86461
-14.453743,-158.46292
-15.051583,-160.48055
-14.648793,-160.00304
-15.49641,-162.85475
-14.520987,-156.77602
-14.592347,-162.01613
-16.047667,-159.77681
-14.232388,-161.11214
-15.882425,-158.46436
-14.954417,-160.20764
-15.39943,-167.78357
-15.289071,-156.7795
-14.897909,-159.45433
-15.109336,-160.98972
-15.158751,-156.84735
-15.176022,-155.43208
-14.102572,-163.92505
-15.327045,-158.87965
-15.454671,-155.35072
-14.607326,-159.791
-15.668163,-158.67944
-15.38768,-157.58237
-15.888918,-158.44685
-14.721595,-159.77827
-14.402492,-160.56003
-15.264535,-163.64137
-15.162914,-163.85333
-14.818612,-158.56197
-15.080235,-158.877
-14.573053,-161.28842
-14.823846,-160.57861
-14.86479,-160.95898
-15.103672,-160.52611
-14.039317,-156.6035
-14.832002,-159.20834
-14.737094,-161.55894
-14.953083,-155.71512
-15.118279,-161.75699
-14.821166,-163.10892
-15.250405,-159.9698
-15.69823,-155.20181
-15.279738,-157.80276
-14.214861,-159.64848
-16.50967,-156.41667
-15.045544,-158.15793
-14.778518,-157.79884
-15.193705,-160.17696
-15.262685,-156.71288
-15.272813,-155.67784
-15.04836,-160.67439
-14.736219,-158.52051
-15.875467,-155.38577
-15.027808,-164.11426
-14.792739,-159.70055
-15.111929,-159.55473
-14.897098,-162.02156
-15.095678,-160.23131
-14.681873,-160.92073
-15.10898,-158.91585
-14.121427,-155.4057
-14.906032,-158.41624
-15.234276,-160.96846
-15.216761,-152.7995
-14.83099,-155.92749
-14.98473,-161.80458
-14.75858,-161.72356
-15.129105,-158.64169
-15.166235,-157.9798
-15.942203,-157.05104
-15.266313,-159.34204
-14.611615,-157.12424
-15.594419,-163.98584
-16.250608,-157.21771
-14.798932,-161.4727
-15.164642,-162.45244
-15.461311,-157.89319
-14.931845,-158.6373
-15.760703,-156.50888
-14.628845,-157.70177
-14.555273,-160.26762
-15.063013,-156.14598
-14.672571,-164.07796
-14.56918,-156.61221
-15.754801,-158.92537
-14.97084,-162.45415
-15.602133,-159.48282
-14.907272,-156.37132
-14.609957,-160.53194
-15.783822,-161.57416
-14.733317,-159.99561
-15.95328,-159.49083
-14.722228,-163.46281
-15.056685,-157.48456
-15.015569,-159.94505
-14.612181,-162.74309
-15.182582,-158.65112
-14.662748,-158.73015
-14.895931,-158.64081
-14.771999,-162.57448
-15.595366,-159.8918
-14.698978,-156.77957
-14.262987,-158.19951
-14.656303,-164.24709
-14.612798,-159.33536
-14.829715,-164.47194
-15.187862,-160.59184
-15.437758,-155.707
-14.90063,-157.41945
-15.057034,-160.70198
-14.371599,-160.67499
-15.00804,-163.88376
-14.632901,-156.98102
-14.642385,-165.66022
-14.376489,-160.76259
-15.572836,-159.54288
-14.985538,-162.63023
-15.311255,-159.52065
-14.966864,-160.76163
-14.586777,-157.74173
-15.461026,-156.73862
-14.500949,-159.32472
-15.448876,-162.42136
-14.303276,-162.19388
-15.047857,-158.71019
-15.282442,-161.12074
-14.877723,-158.53807
-14.877125,-160.24062
-15.348952,-157.53912
-15.92209,-159.16219
-15.474903,-157.94974
-15.147818,-158.10266
-14.76101,-161.77016
-14.687022,-155.22466
-14.66949,-154.66946
-15.408525,-155.03027
-14.353993,-160.14526
-14.990988,-159.20013
-14.489981,-162.98479
-14.826714,-158.98355
-15.477345,-161.35538
-15.042413,-156.75894
-14.851401,-159.71513
-15.180669,-160.08611
-15.10753,-155.33032
-15.882392,-155.13437
-15.315205,-158.27112
-14.889059,-161.18742
-14.874625,-158.36053
-14.710924,-154.55606
-15.438854,-160.07956
-14.555404,-158.80722
-14.371578,-156.48868
-14.884465,-158.05962
-14.955678,-157.84366
-15.277856,-160.81506
-15.205135,-163.99542
-14.91618,-163.65491
-14.925676,-157.40472
-14.824115,-160.97629
-14.88844,-161.33473
-14.594889,-159.14615
-15.057567,-161.13454
-14.928949,-160.78271
-14.874917,-158.83575
-15.538473,-157.22217
-14.428095,-164.14146
-14.786996,-157.02263
-15.352828,-159.12775
-15.214999,-154.38594
-15.270651,-159.68185
-14.430374,-158.28224
-14.695447,-158.56944
-15.246868,-157.60048
-15.106812,-160.83673
-14.610438,-158.87973
-15.032145,-159.48064
-15.503523,-153.99789
-14.727419,-162.54491
-14.473441,-158.45386
-14.444349,-160.84042
-14.892087,-163.02112
-15.008477,-160.20877
-14.973907,-157.28941
-15.492009,-159.07663
-15.345595,-157.90244
-15.193696,-161.99104
-15.013497,-154.83908
-14.969355,-161.05919
-14.877649,-159.49493
-15.251837,-159.26129
-14.848957,-158.94089
-15.00657,-163.40817
-16.042261,-160.91873
-14.660358,-156.11067
-15.132658,-158.5787
-14.888429,-159.33247
-15.542402,-160.67195
-14.983089,-162.43274
-15.123157,-163.60175
-14.656859,-156.5939
-14.068306,-160.05846
-15.542786,-161.48618
-14.599619,-160.80623
-14.983669,-158.38873
-15.219918,-158.77211
-14.728139,-157.55006
-15.732479,-152.75484
-14.941207,-158.63426
-14.895978,-158.47269
-14.860723,-159.75302
-15.122022,-157.76984
-14.685961,-162.23001
-14.750516,-161.06075
-14.963269,-160.53568
-15.157991,-157.43474
-15.533328,-160.55379
-15.229897,-157.14922
-14.809008,-160.96268
-14.93532,-158.73535
-15.155929,-160.09645
-15.046994,-161.99171
-15.257457,-157.27155
-15.950624,-158.49513
-14.544277,-158.87523
-14.940224,-161.35936
-15.481107,-160.83476
-15.221943,-161.42641
-15.149179,-155.6521
-14.779141,-161.07111
-15.029356,-158.37045
-15.282581,-157.50674
-14.530722,-162.06644
-14.879477,-161.8158
-15.549676,-156.34343
-14.976801,-160.48625
-15.274738,-161.56569
-15.707099,-163.21844
-15.311296,-158.14154
-15.040597,-155.47166
-14.852345,-159.6568
-14.908745,-159.66736
-15.516761,-157.33743
-14.68058,-155.94122
-14.633792,-159.47281
-14.792571,-158.5649
-15.139818,-159.23668
-14.470765,-158.9073
-15.159768,-160.31834
-14.716027,-160.17535
-15.094215,-157.90588
-14.659059,-161.3835
-15.135633,-159.98769
-14.918682,-157.36768
-15.157948,-162.09326
-14.923703,-155.43062
-14.694082,-158.78343
-15.29675,-159.20161
-14.546208,-156.74229
-14.884953,-161.04361
-15.018057,-157.97528
-15.051756,-158.52098
-15.265532,-157.33302
-15.521306,-158.65903
-15.212177,-163.46393
-15.059236,-159.74898
-14.937054,-161.03435
-14.813691,-157.27448
-14.975891,-159.18431
-15.128947,-155.0853
-15.35398,-157.13321
-15.208828,-158.89575
-15.272446,-162.28816
-14.957607,-159.46785
-15.284093,-159.32661
-15.030646,-160.02888
-15.004217,-162.65175
-14.808549,-159.3871
-15.154218,-154.735
-15.245902,-160.88777
-15.118589,-158.88211
-14.947321,-156.45042
-15.338999,-161.58408
-15.667269,-158.94911
-14.937579,-159.03098
-14.895814,-161.4944
-15.303657,-160.55019
-14.734594,-158.08353
-15.037931,-161.55316
-15.611133,-160.08298
-14.89536,-159.39221
-15.531918,-159.02785
-15.006882,-161.1544
-15.137268,-159.95027
-14.862127,-157.17398
-15.060988,-161.85284
-14.901899,-158.1769
-14.691183,-158.11261
-14.921909,-160.85373
-15.028263,-159.87698
-14.94422,-161.43608
-15.415691,-156.42079
-15.100696,-161.25648
-15.067796,-158.5755
-15.041102,-159.28294
-14.654612,-159.64822
-15.156638,-158.32161
-14.994642,-160.83147
-15.229976,-158.49091
-15.183075,-160.12355
-15.18284,-160.39282
-14.785044,-159.26025
-14.879821,-162.36037
-14.730104,-156.5957
-14.826761,-161.49046
-15.026748,-160.69693
-14.94364,-155.26932
-15.169985,-157.483
-15.114264,-158.00958
-14.914634,-159.57048
-15.042077,-159.3105
-14.967831,-160.13133
-14.801226,-160.59587
-14.659949,-159.94357
-14.810717,-159.72008
-14.751028,-158.15608
-14.620077,-160.26541
-14.949181,-161.54825
-15.037546,-157.49408
-15.122689,-160.45815
-14.960636,-159.01324
-15.041666,-161.38646
-15.213447,-158.3707
-14.579723,-159.70758
-14.985284,-160.88782
-14.884198,-159.17305
-15.074178,-159.69682
-15.16784,-159.99294
-14.850257,-157.14752
-14.740325,-159.99423
-15.03727,-160.11531
-14.992973,-159.96767
-14.754354,-159.68396
-14.836912,-158.45563
-15.246249,-157.7164
-15.087492,-157.68996
-14.936334,-159.14067
-15.12505,-159.33168
-14.822361,-161.30957
-14.54077,-156.80824
-14.989737,-157.77515
-14.930033,-159.27696
-15.086614,-159.15697
-14.983742,-159.51566
-14.900393,-157.84209
-15.346849,-155.88881
-14.775787,-159.52536
-14.944036,-159.83026
-14.815303,-158.20836
-15.233877,-159.76765
-14.98022,-157.32869
-15.063834,-158.76732
-15.235582,-158.75832
-15.066955,-159.71497
-15.278164,-158.55998
-14.915481,-159.40648
-15.200837,-158.99998
-15.06776,-161.59465
-15.327958,-159.60521
-14.900875,-160.64192
-14.93537,-157.34966
-15.159641,-158.15024
-15.164093,-159.42395
-14.815243,-160.35727
-15.089625,-158.94014
-15.091415,-160.10893
-15.075713,-158.09117
-15.331959,-159.06584
-14.934705,-158.77206
-15.073606,-161.19058
-14.895362,-161.86359
-15.273301,-157.86488
-15.246,-159.96759
-14.612357,-157.98094
-15.280645,-158.69368
-14.973251,-161.00096
-14.942819,-159.50757
-14.896973,-158.58099
-15.233843,-159.18275
-14.946689,-159.13356
-14.821925,-157.51912
-14.942601,-159.12889
-15.073966,-159.51501
-15.089149,-160.0762
-14.957357,-158.97284
-14.788178,-159.73615
-15.17789,-158.81186
-15.382053,-158.72108
-15.118046,-159.12997
-14.576719,-157.00906
-14.632558,-160.36974
-14.99272,-160.07294
-15.386397,-159.67206
-15.231273,-159.38832
-14.997088,-160.00587
-15.208352,-158.31688
-14.682202,-159.91762
-15.180852,-161.11456
-15.088034,-159.80173
-14.83894,-160.71127
-15.226345,-158.9169
-15.091729,-158.53709
-15.25368,-158.46945
-14.708289,-159.0246
-14.732315,-159.80566
-14.831993,-160.1133
-15.059172,-159.87711
-14.90193,-160.28065
-15.001207,-159.72954
-14.900653,-159.7155
-15.344546,-156.52713
-15.050084,-158.99159
-15.0546,-157.96989
-15.032736,-156.97926
-15.177141,-158.98486
-15.278744,-160.61714
-15.468791,-159.20866
-14.765326,-160.13913
-15.161583,-158.43297
-15.079022,-159.69933
-14.830961,-161.38797
-15.186416,-158.78065
-14.935295,-158.89285
-14.977603,-159.89386
-14.913608,-159.36064
-14.766623,-160.76877
-15.057043,-159.12619
-15.110196,-159.42297
-14.818851,-161.34889
-15.077996,-159.72406
-15.087457,-157.97751
-15.334887,-158.78195
-15.239853,-158.00523
-14.896514,-156.79175
-15.052756,-157.07797
-14.834872,-160.83112
-14.882978,-160.6358
-14.823806,-157.88312
-15.471928,-158.18526
-15.177969,-159.91565
-15.106365,-159.35811
-14.976174,-160.48967
-14.915146,-159.98491
-15.020514,-160.35497
-14.77737,-159.4191
-14.934205,-159.26691
-15.052999,-159.46185
-15.200546,-158.19276
-15.210974,-157.72366
-15.275732,-158.09662
-15.21619,-159.93193
-15.00871,-160.39291
-15.017692,-159.89845
-15.088702,-159.20627
-15.025805,-158.21492
-15.07669,-159.48523
-15.26256,-157.754
-14.870441,-158.41129
-15.389895,-158.45546
-15.262869,-160.43471
-15.080164,-158.27541
-14.893751,-158.96913
-15.315793,-158.4673
-14.961924,-157.96132
-14.935335,-160.856
-14.919395,-159.95244
-14.867498,-158.58395
-15.027231,-159.24542
-15.211019,-159.70102
-14.999441,-159.77567
-15.063612,-159.577
-14.700095,-158.83588
-15.066871,-158.0936
-15.006799,-159.77177
-15.10041,-160.34581
-14.823886,-158.60106
-15.049204,-159.86436
-15.19758,-158.85727
-15.077533,-159.61697
-15.379949,-159.78232
-14.828227,-159.0797
-14.974931,-158.91087
-14.913202,-160.9014
-15.037123,-160.16954
-15.03335,-160.71437
-15.097349,-160.35374
-15.059057,-160.75859
-14.949877,-159.04124
-14.947979,-159.52667
-14.834394,-159.41078
-15.168335,-160.36937
-15.370081,-160.56779
-15.141898,-159.02017
-15.114335,-160.46581
-14.851085,-159.42178
-14.922778,-161.04843
-14.707327,-158.9971
-14.945192,-158.96274
-15.071796,-158.60057
-14.973172,-158.63255
-15.328677,-159.6171
-14.862849,-158.80519
-14.838002,-158.54382
-15.163577,-158.34183
-14.932467,-159.29106
-15.049409,-158.99689
-14.992655,-159.8432
-14.976988,-159.64879
-14.908385,-159.46948
-15.220451,-159.3425
-14.975783,-159.84987
-14.959621,-158.8011
-14.973739,-159.07869
-15.115465,-158.38776
-14.929828,-159.58253
-15.134856,-160.86647
-15.082403,-159.72763
-14.753445,-158.03757
-15.074334,-157.86153
-14.959499,-157.55516
-15.002852,-158.68556
-14.870572,-159.8466
-14.816127,-159.58571
-14.753091,-159.10477
-15.081121,-159.07628
-15.110031,-160.37048
-15.092681,-160.12041
-14.973522,-160.19484
-14.900434,-158.9675
-15.033529,-159.45273
-14.996208,-159.69751
-15.081681,-158.4057
-15.07583,-159.4305
-15.240468,-159.89392
-15.09389,-159.97762
-15.161147,-159.75587
-15.068407,-159.8849
-14.983838,-159.72902
-15.166279,-160.26505
-15.068945,-159.40265
-14.908661,-158.66656
-15.015486,-158.19792
-15.165932,-158.69823
-15.08972,-158.26535
-14.850973,-159.64459
-15.034504,-160.40881
-15.270309,-159.86171
-14.759174,-160.59477
-15.059319,-157.56061
-15.176709,-159.2628
-15.106091,-160.57965
-15.12541,-158.49608
-14.992437,-159.95959
-14.939243,-159.37386
-15.09115,-158.95421
-15.058923,-157.43823
-14.882312,-160.10645
-14.88783,-159.81673
