CITIFILE A.01.01
!Agilent Technologies,N5230C,MY48100142,A.08.04.10
!Agilent N5230C: A.08.04.10
!Date: Monday, September 19, 2022 11:23:28
NAME CH1_DATA
VAR Power MAG 801
DATA S11 RI
DATA S21 RI
DATA S12 RI
DATA S22 RI
VAR_LIST_BEGIN
-40
-39.975
-39.95
-39.925
-39.9
-39.875
-39.85
-39.825
-39.8
-39.775
-39.75
-39.725
-39.7
-39.675
-39.65
-39.625
-39.6
-39.575
-39.55
-39.525
-39.5
-39.475
-39.45
-39.425
-39.4
-39.375
-39.35
-39.325
-39.3
-39.275
-39.25
-39.225
-39.2
-39.175
-39.15
-39.125
-39.1
-39.075
-39.05
-39.025
-39
-38.975
-38.95
-38.925
-38.9
-38.875
-38.85
-38.825
-38.8
-38.775
-38.75
-38.725
-38.7
-38.675
-38.65
-38.625
-38.6
-38.575
-38.55
-38.525
-38.5
-38.475
-38.45
-38.425
-38.4
-38.375
-38.35
-38.325
-38.3
-38.275
-38.25
-38.225
-38.2
-38.175
-38.15
-38.125
-38.1
-38.075
-38.05
-38.025
-38
-37.975
-37.95
-37.925
-37.9
-37.875
-37.85
-37.825
-37.8
-37.775
-37.75
-37.725
-37.7
-37.675
-37.65
-37.625
-37.6
-37.575
-37.55
-37.525
-37.5
-37.475
-37.45
-37.425
-37.4
-37.375
-37.35
-37.325
-37.3
-37.275
-37.25
-37.225
-37.2
-37.175
-37.15
-37.125
-37.1
-37.075
-37.05
-37.025
-37
-36.975
-36.95
-36.925
-36.9
-36.875
-36.85
-36.825
-36.8
-36.775
-36.75
-36.725
-36.7
-36.675
-36.65
-36.625
-36.6
-36.575
-36.55
-36.525
-36.5
-36.475
-36.45
-36.425
-36.4
-36.375
-36.35
-36.325
-36.3
-36.275
-36.25
-36.225
-36.2
-36.175
-36.15
-36.125
-36.1
-36.075
-36.05
-36.025
-36
-35.975
-35.95
-35.925
-35.9
-35.875
-35.85
-35.825
-35.8
-35.775
-35.75
-35.725
-35.7
-35.675
-35.65
-35.625
-35.6
-35.575
-35.55
-35.525
-35.5
-35.475
-35.45
-35.425
-35.4
-35.375
-35.35
-35.325
-35.3
-35.275
-35.25
-35.225
-35.2
-35.175
-35.15
-35.125
-35.1
-35.075
-35.05
-35.025
-35
-34.975
-34.95
-34.925
-34.9
-34.875
-34.85
-34.825
-34.8
-34.775
-34.75
-34.725
-34.7
-34.675
-34.65
-34.625
-34.6
-34.575
-34.55
-34.525
-34.5
-34.475
-34.45
-34.425
-34.4
-34.375
-34.35
-34.325
-34.3
-34.275
-34.25
-34.225
-34.2
-34.175
-34.15
-34.125
-34.1
-34.075
-34.05
-34.025
-34
-33.975
-33.95
-33.925
-33.9
-33.875
-33.85
-33.825
-33.8
-33.775
-33.75
-33.725
-33.7
-33.675
-33.65
-33.625
-33.6
-33.575
-33.55
-33.525
-33.5
-33.475
-33.45
-33.425
-33.4
-33.375
-33.35
-33.325
-33.3
-33.275
-33.25
-33.225
-33.2
-33.175
-33.15
-33.125
-33.1
-33.075
-33.05
-33.025
-33
-32.975
-32.95
-32.925
-32.9
-32.875
-32.85
-32.825
-32.8
-32.775
-32.75
-32.725
-32.7
-32.675
-32.65
-32.625
-32.6
-32.575
-32.55
-32.525
-32.5
-32.475
-32.45
-32.425
-32.4
-32.375
-32.35
-32.325
-32.3
-32.275
-32.25
-32.225
-32.2
-32.175
-32.15
-32.125
-32.1
-32.075
-32.05
-32.025
-32
-31.975
-31.95
-31.925
-31.9
-31.875
-31.85
-31.825
-31.8
-31.775
-31.75
-31.725
-31.7
-31.675
-31.65
-31.625
-31.6
-31.575
-31.55
-31.525
-31.5
-31.475
-31.45
-31.425
-31.4
-31.375
-31.35
-31.325
-31.3
-31.275
-31.25
-31.225
-31.2
-31.175
-31.15
-31.125
-31.1
-31.075
-31.05
-31.025
-31
-30.975
-30.95
-30.925
-30.9
-30.875
-30.85
-30.825
-30.8
-30.775
-30.75
-30.725
-30.7
-30.675
-30.65
-30.625
-30.6
-30.575
-30.55
-30.525
-30.5
-30.475
-30.45
-30.425
-30.4
-30.375
-30.35
-30.325
-30.3
-30.275
-30.25
-30.225
-30.2
-30.175
-30.15
-30.125
-30.1
-30.075
-30.05
-30.025
-30
-29.975
-29.95
-29.925
-29.9
-29.875
-29.85
-29.825
-29.8
-29.775
-29.75
-29.725
-29.7
-29.675
-29.65
-29.625
-29.6
-29.575
-29.55
-29.525
-29.5
-29.475
-29.45
-29.425
-29.4
-29.375
-29.35
-29.325
-29.3
-29.275
-29.25
-29.225
-29.2
-29.175
-29.15
-29.125
-29.1
-29.075
-29.05
-29.025
-29
-28.975
-28.95
-28.925
-28.9
-28.875
-28.85
-28.825
-28.8
-28.775
-28.75
-28.725
-28.7
-28.675
-28.65
-28.625
-28.6
-28.575
-28.55
-28.525
-28.5
-28.475
-28.45
-28.425
-28.4
-28.375
-28.35
-28.325
-28.3
-28.275
-28.25
-28.225
-28.2
-28.175
-28.15
-28.125
-28.1
-28.075
-28.05
-28.025
-28
-27.975
-27.95
-27.925
-27.9
-27.875
-27.85
-27.825
-27.8
-27.775
-27.75
-27.725
-27.7
-27.675
-27.65
-27.625
-27.6
-27.575
-27.55
-27.525
-27.5
-27.475
-27.45
-27.425
-27.4
-27.375
-27.35
-27.325
-27.3
-27.275
-27.25
-27.225
-27.2
-27.175
-27.15
-27.125
-27.1
-27.075
-27.05
-27.025
-27
-26.975
-26.95
-26.925
-26.9
-26.875
-26.85
-26.825
-26.8
-26.775
-26.75
-26.725
-26.7
-26.675
-26.65
-26.625
-26.6
-26.575
-26.55
-26.525
-26.5
-26.475
-26.45
-26.425
-26.4
-26.375
-26.35
-26.325
-26.3
-26.275
-26.25
-26.225
-26.2
-26.175
-26.15
-26.125
-26.1
-26.075
-26.05
-26.025
-26
-25.975
-25.95
-25.925
-25.9
-25.875
-25.85
-25.825
-25.8
-25.775
-25.75
-25.725
-25.7
-25.675
-25.65
-25.625
-25.6
-25.575
-25.55
-25.525
-25.5
-25.475
-25.45
-25.425
-25.4
-25.375
-25.35
-25.325
-25.3
-25.275
-25.25
-25.225
-25.2
-25.175
-25.15
-25.125
-25.1
-25.075
-25.05
-25.025
-25
-24.975
-24.95
-24.925
-24.9
-24.875
-24.85
-24.825
-24.8
-24.775
-24.75
-24.725
-24.7
-24.675
-24.65
-24.625
-24.6
-24.575
-24.55
-24.525
-24.5
-24.475
-24.45
-24.425
-24.4
-24.375
-24.35
-24.325
-24.3
-24.275
-24.25
-24.225
-24.2
-24.175
-24.15
-24.125
-24.1
-24.075
-24.05
-24.025
-24
-23.975
-23.95
-23.925
-23.9
-23.875
-23.85
-23.825
-23.8
-23.775
-23.75
-23.725
-23.7
-23.675
-23.65
-23.625
-23.6
-23.575
-23.55
-23.525
-23.5
-23.475
-23.45
-23.425
-23.4
-23.375
-23.35
-23.325
-23.3
-23.275
-23.25
-23.225
-23.2
-23.175
-23.15
-23.125
-23.1
-23.075
-23.05
-23.025
-23
-22.975
-22.95
-22.925
-22.9
-22.875
-22.85
-22.825
-22.8
-22.775
-22.75
-22.725
-22.7
-22.675
-22.65
-22.625
-22.6
-22.575
-22.55
-22.525
-22.5
-22.475
-22.45
-22.425
-22.4
-22.375
-22.35
-22.325
-22.3
-22.275
-22.25
-22.225
-22.2
-22.175
-22.15
-22.125
-22.1
-22.075
-22.05
-22.025
-22
-21.975
-21.95
-21.925
-21.9
-21.875
-21.85
-21.825
-21.8
-21.775
-21.75
-21.725
-21.7
-21.675
-21.65
-21.625
-21.6
-21.575
-21.55
-21.525
-21.5
-21.475
-21.45
-21.425
-21.4
-21.375
-21.35
-21.325
-21.3
-21.275
-21.25
-21.225
-21.2
-21.175
-21.15
-21.125
-21.1
-21.075
-21.05
-21.025
-21
-20.975
-20.95
-20.925
-20.9
-20.875
-20.85
-20.825
-20.8
-20.775
-20.75
-20.725
-20.7
-20.675
-20.65
-20.625
-20.6
-20.575
-20.55
-20.525
-20.5
-20.475
-20.45
-20.425
-20.4
-20.375
-20.35
-20.325
-20.3
-20.275
-20.25
-20.225
-20.2
-20.175
-20.15
-20.125
-20.1
-20.075
-20.05
-20.025
-20
VAR_LIST_END
BEGIN
0.0023179397,-0.050647318
0.0033842924,-0.030807909
-0.0033754371,-0.033339094
0.015228667,-0.055258028
-0.0083456915,-0.052197449
-0.020690033,-0.029486731
-0.0043335529,-0.043197408
-0.0082265679,-0.055454247
-0.013089187,-0.0368899
-0.0084640402,-0.031960234
0.010642366,-0.048265345
-0.0015519512,-0.04559765
-0.0067874906,-0.032099158
-0.0018458402,-0.02781095
-0.011928915,-0.045183349
-0.0042577386,-0.054726318
-0.022293676,-0.045797501
-0.0066524609,-0.045169119
-0.012432889,-0.034301389
0.0031785159,-0.043458506
-0.016868874,-0.052550558
-0.0077489149,-0.034247346
0.001889864,-0.043500636
0.010167219,-0.039284188
0.006470094,-0.063327149
-0.027643394,-0.028853245
0.0065720067,-0.041422512
0.013453985,-0.037653577
0.0060022939,-0.044605676
-0.0060529467,-0.026289579
-0.0069788531,-0.037924998
-0.010952714,-0.041014142
0.015374741,-0.03528519
-0.020825261,-0.057908796
-0.0043306807,-0.042146407
0.0054141651,-0.051775422
0.003321016,-0.040226802
0.0063567422,-0.041831106
-0.0091880336,-0.039248213
-0.0072524184,-0.048112553
-0.025032299,-0.040037576
-0.018632025,-0.044535931
0.0092127491,-0.044807848
-0.0037860379,-0.039778445
-0.0097226473,-0.051434513
-0.020601269,-0.02433842
-0.015081084,-0.04271172
-0.018727584,-0.032539662
-0.014738892,-0.051066026
0.0059184283,-0.039394073
-0.00495954,-0.050162517
-0.011029447,-0.054407489
0.0087356921,-0.037440419
-0.0051943073,-0.05394261
-0.0014775191,-0.04167752
-0.0048010494,-0.051375888
-0.012600919,-0.035085749
0.0041998713,-0.026800957
0.0049212715,-0.048617713
-0.014216728,-0.043638714
-0.014736718,-0.037881546
0.002475647,-0.043027982
0.0060268971,-0.026859632
-0.010576387,-0.04185842
0.0077588581,-0.057434395
-0.0036308763,-0.041697897
-0.0044397921,-0.029878
-0.007718971,-0.049708929
0.00027021163,-0.032099664
0.007784497,-0.031411696
0.0041959011,-0.048294865
0.0021483456,-0.055377364
0.015486241,-0.038447179
0.0013050747,-0.042871058
-0.015348512,-0.039357163
-0.0088752341,-0.064483702
-0.017324174,-0.030768428
0.0054535214,-0.042273216
-0.0040481091,-0.038383685
-0.0014274084,-0.040800806
0.0039881542,-0.047446109
0.0097539723,-0.043132965
0.013257838,-0.046514519
-0.0046755793,-0.043997139
0.0054409155,-0.050666619
-0.023290051,-0.041486088
0.0037418865,-0.045970988
-0.00090887491,-0.048116293
-0.0081022047,-0.035921033
0.0047452757,-0.058117516
-0.0046461793,-0.046692695
0.0044835974,-0.053612094
-0.013132738,-0.036499288
0.010284559,-0.038995069
-0.0042608343,-0.041036922
0.0068898238,-0.045583311
-0.012905758,-0.04306509
-0.00052229146,-0.046188608
-0.0073951636,-0.049180418
-0.0029426757,-0.052986056
-0.014677348,-0.042633414
-0.012292516,-0.037654798
-0.0099558244,-0.046804573
0.0010165427,-0.047113489
-0.0079041906,-0.043874118
0.0054031694,-0.046235897
0.0022118094,-0.035775833
0.018084738,-0.030020325
0.0013375959,-0.042116165
-0.01745126,-0.036144361
-0.014337512,-0.037849911
0.0082070278,-0.029859351
-0.012158342,-0.048993926
-0.0088207209,-0.046894923
-0.00019005286,-0.049303938
-0.0085674925,-0.04408313
0.001336072,-0.045144707
-0.008104994,-0.036630962
-0.0019796763,-0.030694956
-0.0053036697,-0.035525773
-0.0043004225,-0.028469
-0.0058345981,-0.040230241
0.00063755346,-0.056869399
-0.013827141,-0.049272288
-0.0053880927,-0.032643922
-0.013378626,-0.044247862
-0.0043371073,-0.045195233
-0.01306244,-0.049226664
-0.0041011521,-0.01348085
-0.013857462,-0.044157799
-0.0058234571,-0.044562142
-0.0076314281,-0.036039349
-0.016303675,-0.035905547
-0.0099872798,-0.037808344
0.0083561447,-0.048403364
-0.020402711,-0.049798638
-0.0071977829,-0.048219506
-0.014323913,-0.043533906
-0.0031480987,-0.056270845
-0.011974332,-0.047294792
0.0051246136,-0.039640054
0.00094435777,-0.0388331
-0.0067962762,-0.055681959
0.0015382895,-0.035735276
-0.013684566,-0.05328862
-0.00098358421,-0.057166886
-0.0074301758,-0.044407539
-0.0064902534,-0.045241728
-0.01248845,-0.042250328
-0.0079545453,-0.047209579
0.0058162035,-0.026238071
-0.0078306515,-0.050833203
-0.013631327,-0.033804115
-0.0021414431,-0.045402829
-0.0040655406,-0.050419781
-0.0031507108,-0.042610083
-0.0046629999,-0.042774223
-0.0041488805,-0.04812137
-0.0050253286,-0.045277625
0.0030174109,-0.051033527
-0.017440684,-0.047846824
0.00028311706,-0.03344427
0.0067222817,-0.04576353
0.0058080815,-0.037342258
-0.0078226952,-0.049623318
-0.0050795088,-0.057507951
-0.0023950939,-0.046401881
-0.0028203607,-0.027138682
0.001906733,-0.04219294
-0.0025746445,-0.04490146
-0.0079103243,-0.028359246
-0.0029991395,-0.032008599
-0.00018543025,-0.044915192
-0.0081237983,-0.050973989
-0.0016890579,-0.036116138
0.0014565033,-0.040540911
-0.007653309,-0.051388584
-0.0044158217,-0.046163209
-0.0033477738,-0.05495815
-0.0098774843,-0.042087466
-0.011295016,-0.034519173
-0.0059620896,-0.050560594
-0.0057595572,-0.04950868
-0.0017939478,-0.040111639
-0.0063194367,-0.034566127
-0.010602163,-0.033379298
-0.0030499958,-0.038584363
-0.0077068908,-0.049533315
-0.0045946292,-0.060910709
-0.003444175,-0.049343139
-0.0024405133,-0.04399189
0.0066800285,-0.062716484
-0.017186701,-0.0430374
0.0035430538,-0.05249542
-0.0084401052,-0.043523807
-0.0044279252,-0.041177157
5.543634e-005,-0.044905744
-0.0077495538,-0.050299034
0.0010676959,-0.042755462
-0.0010734041,-0.040226407
0.0039363797,-0.0392849
-0.003278123,-0.051800821
-0.0093983747,-0.046041448
-0.00099685625,-0.05299918
0.0080976253,-0.049188163
-0.00020057654,-0.050613452
-4.8819587e-005,-0.049378913
-6.8018373e-005,-0.042913605
-0.0025349006,-0.042150702
-0.00065713061,-0.040651366
-0.0046623489,-0.044235054
0.0016621394,-0.054924864
-0.0029686119,-0.042427819
-0.0038778936,-0.033166327
-0.004135069,-0.03828004
-0.005060235,-0.038226865
-0.0041770637,-0.041857656
-0.0046963505,-0.041265152
-0.012312519,-0.035839722
-0.0072581591,-0.046903446
0.00065908435,-0.0491147
0.0017585851,-0.041122545
-0.0052905297,-0.050991237
-0.0053120232,-0.053215183
-0.0040333648,-0.049916103
-0.0027728092,-0.047184873
0.0062376033,-0.039576069
-0.015237924,-0.040958442
-0.0052235518,-0.047871962
-0.0022661705,-0.042641509
-0.0039590378,-0.048579797
-0.0034148246,-0.050187159
0.0042731846,-0.046735507
0.0045795757,-0.035070814
-0.0032909093,-0.03920947
0.012294853,-0.031752326
0.00012961379,-0.053370405
-0.012382506,-0.04152992
-0.0098271118,-0.042899929
-0.0049760551,-0.033795927
-0.0023664234,-0.036297575
-0.00483499,-0.041614786
-0.0025548958,-0.039631557
0.011161868,-0.039193194
-0.013424694,-0.035397701
0.0031628662,-0.047239643
-0.0010929644,-0.036845379
-0.010824889,-0.048161887
-0.0022787845,-0.044780921
-0.0015066529,-0.042681362
0.0025133963,-0.032411624
-0.012433549,-0.041043155
-0.0016961755,-0.051017251
0.0032339492,-0.041896049
-0.0012052964,-0.043447852
0.0042192265,-0.043460675
-0.0039866869,-0.04551395
-0.0088507757,-0.034894627
-0.001516563,-0.040300958
0.0054228948,-0.036979798
-0.0038502763,-0.048732311
0.0038402376,-0.041510735
-0.0009186847,-0.045055561
-0.0062974421,-0.049305916
-0.0033763999,-0.043025263
-0.0099780802,-0.050699189
0.0034580161,-0.052611616
-0.0025927015,-0.044613443
-0.0042300322,-0.034067709
0.0024934632,-0.035755988
0.00068549963,-0.040911768
-0.0087391883,-0.042748049
-0.0088330973,-0.036560025
-0.0021987876,-0.048251804
-0.0027468579,-0.042326547
-0.0059532956,-0.045658313
-0.00055087899,-0.04134633
0.00047330913,-0.048152149
-0.0073334882,-0.038245924
0.0013052344,-0.040385775
-0.0033389821,-0.044454366
-0.017210938,-0.033841949
-0.004921753,-0.044464562
-0.0028953084,-0.037699878
-0.0085103353,-0.04566041
-0.0059775491,-0.054243192
-0.010292101,-0.050703116
-0.00065349584,-0.050623287
-0.00026667397,-0.055134911
-0.0067452332,-0.029741278
-0.0056206966,-0.041020583
0.0068895156,-0.042562645
0.0019579101,-0.039554186
-0.013650272,-0.041349221
-0.0023523539,-0.047453415
-0.0041585616,-0.04204626
-0.010498299,-0.042125843
-0.0067817695,-0.044471432
-0.0017306026,-0.041305583
-0.0037530074,-0.045926485
0.0064378199,-0.029122971
-0.0041658729,-0.039982792
-0.0077055292,-0.040471096
0.00076831813,-0.043646965
8.4737636e-005,-0.051775858
-0.0018196516,-0.045124225
-0.0032164445,-0.044458684
-0.0065270085,-0.033595361
-0.00060478877,-0.037739653
-0.0067183357,-0.032563541
-0.0045505967,-0.034129858
0.00034180569,-0.044900995
-0.0034722677,-0.045107178
-0.003387833,-0.042886447
0.00060637906,-0.045855902
0.00078747759,-0.044315334
-0.0086163972,-0.037921209
0.0010447885,-0.042247597
0.00058289932,-0.041305073
-0.0077247769,-0.04210414
0.00066569186,-0.047223248
-0.011759865,-0.049091242
-0.0032195731,-0.040080555
-0.007255354,-0.037122052
-0.0057344902,-0.043915749
-0.0050695715,-0.036842298
-0.0025212117,-0.043006986
0.00012899618,-0.042990588
-0.0036747358,-0.041995026
-0.0024398661,-0.040621139
0.0011539621,-0.051573113
-0.0054437043,-0.045016713
-0.0047403467,-0.043005314
-0.0014339954,-0.031394344
-0.0056640455,-0.04258424
0.00380234,-0.051539268
-0.0049037873,-0.049578138
-0.00035507669,-0.03596215
0.0011252994,-0.037168775
-0.0095625957,-0.047771007
0.0010108346,-0.035302699
-0.0057633538,-0.044578534
-0.0067057959,-0.036643662
-0.014065454,-0.054448843
-0.0029053011,-0.045438413
-0.0012166197,-0.045275662
-0.0042256541,-0.043364689
-0.005253735,-0.042984113
-0.0051073735,-0.042671811
-0.0060334723,-0.037748184
0.0053433022,-0.039209504
0.003160439,-0.038819868
0.0010135293,-0.040219437
-0.001511289,-0.043035802
-0.0081488667,-0.045226049
-0.0043017901,-0.048036966
-0.004550931,-0.044556055
-0.003987195,-0.041779779
0.004503509,-0.044183847
-5.9587412e-005,-0.047222938
-0.0018446518,-0.041588642
-0.0021155286,-0.042581238
-0.0062270905,-0.047994148
0.00051485188,-0.042955022
-0.0030916189,-0.042269804
0.003766374,-0.051694777
-0.0012711444,-0.043758363
-0.0097591914,-0.040216215
-0.0064133517,-0.04070602
0.0011076618,-0.043817755
-0.0068930015,-0.04840466
-0.003409243,-0.048858806
-0.0087987129,-0.036539406
0.0025789025,-0.04604153
-0.0024792894,-0.045647684
-0.005735144,-0.038222302
-0.0030402956,-0.039594136
-0.0020698218,-0.040569175
-0.0033201575,-0.051261943
0.00093041791,-0.042130481
-0.0038131783,-0.048097227
0.00075306365,-0.043027498
-0.002590473,-0.043405414
-0.0049336604,-0.044769868
-0.0074009122,-0.039092887
-0.0038050546,-0.042322256
0.0026065519,-0.046125073
0.0023844184,-0.04484228
-0.0054781544,-0.039586216
-0.0061342111,-0.045930091
-0.0053791734,-0.042236093
0.0011246254,-0.036533765
-0.0011450369,-0.042337861
-0.0086642662,-0.038074266
-0.0086742947,-0.039754871
-0.0037626778,-0.041646089
-0.0079983398,-0.038622241
-0.0087423455,-0.038970642
-0.0073133763,-0.039768472
-0.0084359124,-0.044351052
-0.0077359155,-0.043069702
-0.0052327965,-0.043247137
-0.011557493,-0.040664107
-0.0061509102,-0.047954664
-0.00057610736,-0.043279801
-0.0044278922,-0.043165136
-0.0077409758,-0.038189575
-0.00029708727,-0.047164153
-0.0041159475,-0.049768493
0.0010062407,-0.048404049
-0.002611004,-0.045073479
-0.0010958666,-0.042940948
-0.0041758418,-0.045084689
-0.0032350251,-0.037116006
-0.0060674162,-0.041280821
0.0030131859,-0.041494861
-0.0020165648,-0.041470215
0.00076508557,-0.039734051
0.0035846171,-0.039939053
-0.0028764906,-0.043888073
-0.0068463665,-0.047148731
-0.0070519787,-0.041910093
-0.012059586,-0.045217205
-0.0069764885,-0.041166481
-0.00059041957,-0.042501573
-0.0079882303,-0.042613082
-0.0030283469,-0.047810651
-0.0059126657,-0.04710773
-0.0076125865,-0.046397593
0.0011752397,-0.04332779
-0.0082527287,-0.037431307
-0.0035870927,-0.039179306
-0.0076955073,-0.051969383
-0.0025301382,-0.039456524
-0.0029862551,-0.039121967
0.0011400299,-0.047204353
-0.0039482345,-0.048473436
-0.00034335675,-0.041487098
-0.0047473065,-0.041695286
0.00052578136,-0.0445912
-0.00056057854,-0.040025704
-0.0025724918,-0.041111961
-0.0016117441,-0.043680098
-0.0058854232,-0.041792665
-0.0090338066,-0.04529858
-0.0012852375,-0.045502726
-0.0024273375,-0.046120301
-0.0025808539,-0.043378528
-0.0058188387,-0.04141954
-0.011656783,-0.039505549
-0.0047502229,-0.036076717
-0.0040592053,-0.039113741
-0.0064139008,-0.043000605
-0.0021767255,-0.043042071
-0.0040682242,-0.040771563
-0.0034917062,-0.046493307
-0.0051511796,-0.043842874
0.0031862196,-0.041157402
0.0019929949,-0.042524427
-0.0053403527,-0.044073839
-0.0029544027,-0.044976562
-0.0075939009,-0.046604179
-0.0048405523,-0.046174079
-0.0051582674,-0.044577282
-0.0046522263,-0.048236772
-0.0035414707,-0.046222273
-0.0067492202,-0.042730879
-0.007393904,-0.047299571
-0.0059207161,-0.041860655
-0.0021124303,-0.044136766
-0.004448683,-0.040334202
-0.0006152647,-0.043743283
-0.0082470765,-0.039674606
-0.0044005048,-0.043822002
-0.0054787877,-0.040051326
-0.0040348489,-0.040254962
0.0014864395,-0.043300629
-0.0082005234,-0.041193087
-0.00098343915,-0.04060109
