CITIFILE A.01.01
!Agilent Technologies,N5230C,MY48100142,A.08.04.10
!Agilent N5230C: A.08.04.10
!Date: Tuesday, April 01, 2025 15:13:49
NAME CH1_DATA
VAR Freq MAG 201
DATA S11 RI
DATA S21 RI
DATA S12 RI
DATA S22 RI
VAR_LIST_BEGIN
10000000
109950000
209900000
309850000
409800000
509750000
609700000
709650000
809600000
909550000
1009500000
1109450000
1209400000
1309350000
1409300000
1509250000
1609200000
1709150000
1809100000
1909050000
2009000000
2108950000
2208900000
2308850000
2408800000
2508750000
2608700000
2708650000
2808600000
2908550000
3008500000
3108450000
3208400000
3308350000
3408300000
3508250000
3608200000
3708150000
3808100000
3908050000
4008000000
4107950000
4207900000
4307850000
4407800000
4507750000
4607700000
4707650000
4807600000
4907550000
5007500000
5107450000
5207400000
5307350000
5407300000
5507250000
5607200000
5707150000
5807100000
5907050000
6007000000
6106950000
6206900000
6306850000
6406800000
6506750000
6606700000
6706650000
6806600000
6906550000
7006500000
7106450000
7206400000
7306350000
7406300000
7506250000
7606200000
7706150000
7806100000
7906050000
8006000000
8105950000
8205900000
8305850000
8405800000
8505750000
8605700000
8705650000
8805600000
8905550000
9005500000
9105450000
9205400000
9305350000
9405300000
9505250000
9605200000
9705150000
9805100000
9905050000
10005000000
10104950000
10204900000
10304850000
10404800000
10504750000
10604700000
10704650000
10804600000
10904550000
11004500000
11104450000
11204400000
11304350000
11404300000
11504250000
11604200000
11704150000
11804100000
11904050000
12004000000
12103950000
12203900000
12303850000
12403800000
12503750000
12603700000
12703650000
12803600000
12903550000
13003500000
13103450000
13203400000
13303350000
13403300000
13503250000
13603200000
13703150000
13803100000
13903050000
14003000000
14102950000
14202900000
14302850000
14402800000
14502750000
14602700000
14702650000
14802600000
14902550000
15002500000
15102450000
15202400000
15302350000
15402300000
15502250000
15602200000
15702150000
15802100000
15902050000
16002000000
16101950000
16201900000
16301850000
16401800000
16501750000
16601700000
16701650000
16801600000
16901550000
17001500000
17101450000
17201400000
17301350000
17401300000
17501250000
17601200000
17701150000
17801100000
17901050000
18001000000
18100950000
18200900000
18300850000
18400800000
18500750000
18600700000
18700650000
18800600000
18900550000
19000500000
19100450000
19200400000
19300350000
19400300000
19500250000
19600200000
19700150000
19800100000
19900050000
20000000000
VAR_LIST_END
BEGIN
-0.18334502,-0.51737773
-0.13050507,0.14825967
-0.010589835,0.20184317
0.077548012,0.19764921
0.076949365,0.16348244
0.10560057,0.17264572
0.12095936,0.16409893
0.12938781,0.147285
0.12660058,0.13161007
0.11511908,0.11782674
0.10474398,0.10353006
0.095212743,0.095455177
0.092863269,0.087754823
0.095738865,0.083809368
0.10518926,0.066613078
0.10653008,0.046333611
0.10035207,0.026310517
0.087047607,0.0075636632
0.08279518,0.0013666669
0.078682244,0.0022416408
0.079182446,0.0041067414
0.0821018,0.0018844188
0.085179195,-0.0014102695
0.088828854,-0.0026858754
0.095027506,-0.00095493521
0.10880473,0.0069083003
0.12405059,0.016871605
0.14633323,0.029054716
0.16689666,0.035561923
0.18361087,0.039528668
0.1921162,0.045076109
0.19841839,0.045187756
0.19251959,0.052600063
0.1799794,0.071988091
0.16283982,0.09325882
0.14239921,0.11891099
0.12068493,0.13811354
0.097727738,0.15165624
0.068646371,0.16527809
0.035105333,0.17431298
0.00016489453,0.18399455
-0.030663395,0.1869365
-0.060765475,0.19205929
-0.074316926,0.1901035
-0.090244755,0.18203047
-0.10125729,0.16714369
-0.11505949,0.14574142
-0.13300624,0.11487465
-0.15391861,0.093601972
-0.174667,0.078938298
-0.18353398,0.070631899
-0.18644573,0.070711203
-0.18290631,0.062443655
-0.17464177,0.0457091
-0.16611773,0.023208359
-0.16006348,-0.0047840956
-0.1611978,-0.028285377
-0.15255637,-0.040963531
-0.14428069,-0.05187374
-0.12699988,-0.062658519
-0.11079402,-0.071727395
-0.098988302,-0.088018857
-0.083171606,-0.09845946
-0.075410709,-0.092985712
-0.071391158,-0.087827399
-0.073829904,-0.073883183
-0.073688529,-0.058320742
-0.073682733,-0.033213906
-0.083300859,-0.013663093
-0.091615573,0.0081214802
-0.1080283,0.033494473
-0.13070205,0.052915562
-0.15429324,0.064880505
-0.17215806,0.081067935
-0.19172241,0.084964618
-0.21106549,0.084073447
-0.22284766,0.07322859
-0.23331584,0.060604528
-0.25328046,0.039212618
-0.26027194,0.014667206
-0.26720992,-0.010394528
-0.2581856,-0.042009067
-0.24808846,-0.071149722
-0.23916775,-0.10589485
-0.22973382,-0.1358932
-0.20943347,-0.16473778
-0.19224626,-0.1918205
-0.16776778,-0.20126297
-0.13091865,-0.22264677
-0.10101962,-0.22763373
-0.061359949,-0.21930863
-0.026573701,-0.22029951
0.013162881,-0.20806922
0.052455716,-0.20417044
0.077548712,-0.19623689
0.10562079,-0.17046452
0.13543861,-0.14401127
0.14369401,-0.11944479
0.16047089,-0.092170388
0.16489962,-0.079216167
0.15300821,-0.055614907
0.14056849,-0.03701707
0.11220926,-0.001767062
0.078967839,0.015908316
0.046901446,0.030554583
0.023786481,0.041904822
0.00023332919,0.045141738
-0.029728312,0.044539675
-0.05440468,0.034961775
-0.081501976,0.023501329
-0.10051911,0.00073984469
-0.11694536,-0.015905254
-0.12569577,-0.038063657
-0.13256355,-0.06630075
-0.12980357,-0.079191521
-0.12709014,-0.10117132
-0.12670258,-0.12262018
-0.10454664,-0.12068632
-0.077743173,-0.13560484
-0.05465892,-0.13844952
-0.01835556,-0.13811813
0.011474711,-0.12784784
0.036898658,-0.12822855
0.059184868,-0.13138863
0.077013925,-0.11808943
0.1063849,-0.10635627
0.11258102,-0.095231876
0.1233915,-0.076089717
0.12399179,-0.044697497
0.10318052,-0.011455475
0.11125318,0.069357462
0.16103669,0.10585414
0.15266594,0.12926848
0.15870203,0.18149813
0.19298531,0.20799667
0.16415569,0.22076623
0.16453007,0.25223383
0.1760087,0.2511898
0.12209391,0.22411962
0.091575526,0.24640667
0.056607407,0.23869863
0.020645211,0.2309179
-0.01476422,0.2296993
-0.032274228,0.21506952
-0.055677488,0.20159657
-0.067628764,0.16838382
-0.077082887,0.12743151
-0.10377857,0.093293108
-0.11462445,0.072886825
-0.11593665,0.027530743
-0.12930329,0.01082737
-0.118728,0.0088781631
-0.097726457,-0.019913146
-0.093144938,-0.037465125
-0.083305173,-0.026950741
-0.069631055,-0.029258845
-0.056953236,-0.023587588
-0.043451667,-0.0080584986
-0.015860626,0.0089859078
0.00382561,0.015675956
0.025975872,0.033478998
0.037188768,0.026699169
0.048448421,0.031485911
0.061142664,0.0327808
0.070892639,0.023594989
0.066210166,0.019548699
0.077351131,0.027358532
0.077623114,0.023237867
0.082644776,0.021680189
0.096718021,0.026621776
0.10196674,0.0064832461
0.10014547,0.010013079
0.11317229,0.0133513
0.10701217,0.018223744
0.093074381,0.024595669
0.086535431,0.034442727
0.080015905,0.043188673
0.061079033,0.048091888
0.032867093,0.069557227
0.0080465963,0.095043577
-0.02009037,0.11042897
-0.05068545,0.11085409
-0.07462389,0.12251795
-0.097628914,0.12512536
-0.1288089,0.1084042
-0.15414202,0.094711661
-0.18282224,0.074146688
-0.19681288,0.054233383
-0.20700334,0.03668854
-0.22016707,0.015136351
-0.20619075,-0.01946806
-0.19727914,-0.066184074
-0.20337373,-0.11365999
-0.22736302,-0.14260562
-0.21876591,-0.13318981
-0.19029336,-0.16188361
-0.18342294,-0.18333368
-0.16770494,-0.19448468
-0.13471884,-0.18786451
-0.10906859,-0.21542189
-0.10631237,-0.21228375
END
BEGIN
25.366772,-14.496049
-3.4421763,-29.855915
-28.723961,-9.4315081
-18.085947,24.734386
17.741011,24.887043
28.896372,-10.621668
-1.4876275,-31.118681
-30.556416,-7.803534
-16.003849,27.116678
21.233135,23.201778
28.071171,-14.644489
-6.3940039,-31.631502
-32.303715,-3.1246064
-12.791425,30.555153
26.193844,20.216129
25.500931,-20.223055
-13.803267,-30.601776
-33.349606,7.4741635
-0.39109635,33.433231
32.261879,9.9816952
18.492834,-29.123501
-23.454554,-25.074121
-30.142288,16.145618
7.2224631,33.518616
34.271114,1.2948022
9.66922,-33.099091
-29.778481,-18.717592
-25.396517,24.653715
16.463634,30.745001
34.01852,-6.9604101
0.87171978,-35.26012
-33.867542,-9.0170126
-16.723383,30.55822
26.254509,24.176712
28.840609,-19.952021
-10.800286,-32.908112
-35.412201,1.2923262
-7.6466079,34.647255
31.56189,15.526519
22.970715,-26.890224
-20.340576,-29.435612
-33.427155,12.001565
0.50383222,35.253983
34.169243,9.8300743
18.559692,-30.159691
-23.113558,-27.147709
-33.122608,14.80373
6.3971868,36.025677
36.54546,0.99212939
10.159729,-35.787296
-32.182686,-19.01075
-26.888247,25.500011
16.19805,33.339859
37.012661,-6.8834233
2.4778068,-37.90324
-36.776329,-10.707868
-18.419565,34.049919
28.209911,25.290079
31.671305,-19.501556
-9.2057896,-36.971401
-38.816277,0.68021202
-7.8742929,38.231731
34.891876,16.117416
23.234272,-29.792463
-22.33745,-30.786272
-35.696621,12.022122
1.3517264,37.719448
36.601032,8.8410616
17.763094,-33.265217
-27.210306,-25.372442
-30.818367,19.414133
10.812982,35.687134
37.360703,-0.086616211
9.0507021,-36.59285
-32.190441,-18.569695
-26.23876,27.055264
20.50214,31.668831
34.013126,-11.233681
-2.273206,-36.054714
-36.175171,-6.8866291
-15.225825,32.961044
26.757727,23.396372
27.931364,-21.170162
-13.203519,-30.298616
-30.533268,3.6087539
-6.3469048,28.731817
25.083679,16.052149
22.497171,-17.571039
-7.5860658,-27.096075
-29.042213,-1.2115664
-11.340609,26.990696
23.364384,20.587193
26.818998,-17.473473
-10.420298,-31.748449
-34.643402,3.2131209
-5.0486979,35.458916
32.405098,12.258224
19.966471,-28.338596
-23.104927,-28.20195
-31.648048,17.634504
10.803641,33.104977
33.873158,-0.92525303
8.655302,-33.039753
-27.507809,-16.733322
-23.789932,20.174898
13.431391,31.216413
33.017639,-4.0543127
4.7739153,-32.842705
-31.412056,-13.198116
-20.309048,26.506477
19.369221,26.306459
29.991228,-11.478104
-3.6095889,-33.606213
-33.627766,-5.693604
-13.036372,29.481728
24.576189,20.411406
26.808172,-17.782206
-8.4107809,-30.015623
-30.908453,-0.89441901
-10.00772,30.65546
27.207281,19.662159
26.758848,-20.968149
-14.122177,-31.983229
-35.242031,5.8751307
-3.4511154,35.638721
33.294765,12.87785
20.429045,-29.766716
-23.0483,-29.195961
-34.511665,12.521801
-1.0442427,40.26619
41.997742,8.5717268
14.071361,-38.580917
-35.500824,-20.866798
-25.983509,33.084824
32.607296,28.897036
33.452065,-28.612743
-20.594908,-36.562096
-40.108929,11.038646
0.46746841,40.234631
38.009766,9.388586
17.070704,-32.44276
-25.214022,-23.461321
-30.978718,17.79113
9.3801136,34.584637
35.318546,-0.046206214
7.9868083,-34.601196
-30.180393,-16.63431
-23.219444,24.02264
18.515429,27.761208
32.828697,-9.8631868
-1.372967,-34.115852
-33.481659,-6.4607778
-13.573323,33.0714
29.417965,18.968683
22.941124,-22.204279
-14.794446,-26.566654
-31.307713,7.9686856
-0.14498851,32.148518
30.729067,5.4883194
10.662214,-28.712006
-24.16041,-15.241884
-19.470255,17.442616
10.840444,21.242983
22.206905,-3.5092256
3.489356,-22.690126
-21.896812,-8.4289131
-12.327472,18.454062
14.501774,15.010108
17.555452,-9.1342583
-3.3273175,-17.879847
-17.38415,-0.55621362
-6.425179,15.410294
12.517333,11.105875
14.380471,-9.3175688
-4.5315065,-15.705733
-17.211008,-0.66931129
-5.7314072,17.431538
16.06027,10.324382
14.31859,-14.122948
-10.439328,-17.888834
-20.304218,6.0467415
1.8682809,22.468561
23.314367,1.233613
5.2402225,-21.985153
-19.6136,-9.4075966
-13.109524,16.382483
12.953445,15.90139
17.981489,-8.2909336
-3.1238952,-19.913387
-22.527206,-0.23053187
-1.4984677,21.2787
18.507582,5.7787018
8.2805567,-15.16926
-11.041589,-11.176434
-14.514986,6.5764246
2.3519435,16.6087
17.062599,1.3129289
5.1635938,-17.405998
-17.518656,-9.1281805
-12.077012,16.264126
14.278744,14.282464
END
BEGIN
0.0034464723,-0.0053717839
-0.0011782411,0.0016074581
-0.00075804658,-0.00072763144
0.00025494545,-0.00046454967
-0.00015462092,-0.0010735457
-0.00034916139,-0.00073790777
0.00027055695,0.0007723106
-0.00035346064,0.00011406108
-6.0795464e-006,-0.00050641748
0.00048021838,-0.00014942468
0.00071794156,3.2162865e-005
-0.00012734388,-0.00015872219
-3.2497701e-005,-0.00063462317
-8.7050576e-005,-0.0001398172
-0.00061041297,-7.3596166e-005
-0.00024952667,0.00068791886
0.00027459493,-0.00048102724
8.2859551e-005,-0.00071666198
6.6512555e-005,-0.0005676666
-0.00030946432,0.00044964784
0.00042569375,0.00021450763
0.0005318363,0.00010749586
-0.00035184296,0.00025208847
0.00036549856,0.00020888902
0.0010346532,-0.00012047609
0.00035586403,0.00015591738
0.00045569977,-0.00048445078
-0.0005752233,-0.00055602426
-0.00054393226,0.00019482059
-1.0393395e-005,-0.00039164489
-7.9838355e-005,-0.00019877199
0.00046353354,-4.8939187e-006
0.0002860282,-0.00019171518
-0.00026068921,-6.2153886e-005
0.00068819628,7.5283955e-005
-4.6413472e-005,-0.00090770249
0.00032840736,-0.00019349444
6.030628e-007,-0.0001969084
-0.00030955559,-7.8995196e-005
0.00025727833,-0.0003700894
0.00090686715,-4.821983e-005
-0.00035310051,-1.5150343e-005
0.00023670765,-0.00048900221
-0.00030228359,-0.00022948883
0.00035899165,-3.1894891e-005
0.00031973157,-0.00055001338
0.00096223183,-0.0003325516
-0.0008008458,0.00041369174
0.00019036751,-0.00029868021
0.00019808809,-0.00012878684
0.00038932936,-0.00065731519
-0.00022318285,0.00039354339
-3.0124533e-005,-1.4262438e-005
0.00076459598,0.00020843612
0.00041583346,0.00041755554
0.00061666832,-7.1672606e-005
-0.00069637399,-0.00044867219
-4.9068927e-005,-0.00016448901
9.1319911e-005,-6.9087131e-005
0.00025241598,5.7731515e-005
-2.157273e-006,0.00047708009
0.00039485397,0.0010504572
-6.196188e-005,-0.00039339857
-0.00028923407,-0.0003106035
-0.00047408396,0.00033414818
0.00056619092,0.00016941509
0.00042523746,0.00013655414
0.00025752257,-0.00021719762
-0.00038010374,-0.00021208501
0.00048864196,0.00059136021
-2.0462507e-005,0.00028456756
-8.5500462e-005,-8.0255071e-005
0.00039974204,4.1778341e-005
0.00026909725,-0.00024428114
-0.00097756926,-0.00042508295
0.00067749748,0.0001120303
0.000467087,-0.00014100921
0.00014388491,-0.0011744259
7.1641953e-005,-0.00049102801
-0.00020041491,-0.00058987207
0.00024977888,0.00026860015
0.00066515023,-5.5575583e-006
-0.00032845244,0.00034606078
-0.00076346559,-0.00028992121
5.8792051e-005,2.6807656e-005
0.00010694514,-0.0001733058
9.8961558e-005,7.0293914e-005
0.00020434654,-0.00020700341
0.000390887,-0.00013010483
-1.3965356e-005,-0.00019652383
0.00060436357,-0.00055398949
-0.00019673245,0.0001776655
0.00048952433,0.00026748373
-5.3724314e-005,-0.0002052481
-0.00030265533,-0.00053207483
-1.0236611e-005,-7.0584133e-006
0.00041499801,-0.00015088919
-0.00030174261,-0.00068240735
0.00014075922,-0.00045551662
-0.00043348913,0.00020332386
0.00015401532,0.00092650723
-5.1917941e-005,7.4053823e-005
-0.00075739739,0.0006084732
0.00039380125,0.00051024341
3.2338292e-005,-0.00089797954
-7.900424e-005,-0.00022472402
0.0014640642,0.00043924546
0.00030130256,0.0027912727
0.0016515446,0.0019910182
-0.001206463,0.0036596805
-0.0005892042,0.0012353244
-0.00016798869,0.0017184629
0.0027271339,-0.0010433462
0.0021610332,-0.0021114487
0.0025964919,-0.0010370652
-0.0010033136,-0.0019381664
0.0028810897,0.0035512503
0.0014994213,-0.0033008989
0.0038118628,0.0015836634
-1.0962749e-005,-0.0011858109
0.0024594818,0.0014862012
0.0017976117,-0.0016146069
0.0016650946,0.0016738209
-7.5445081e-005,0.0035205868
0.0018802867,-0.0032187286
3.5855651e-006,0.00090978417
0.00014442792,0.00062440248
-0.00062683935,-0.00071821595
-0.0023599721,0.0017405361
-0.00043116361,-0.0022999952
0.00040573167,-0.0012195929
9.7953598e-005,0.00051760604
-0.0016015577,0.0017762843
0.0017294966,0.00083350082
0.0011396013,0.0018339516
0.002774253,0.0013984638
0.00035367577,-0.0039466261
0.0040505561,0.0046413862
0.00022872185,-0.001664188
0.0016496666,0.00042499666
-0.0016542234,-0.0016646907
-0.0018453671,-5.0248203e-005
0.00039291303,-0.00033158704
0.0023914089,0.00045495297
0.0014652075,0.00038557092
-0.00079821423,-0.0002615072
0.0015037896,-0.002059133
0.0005664929,-0.00060173345
0.0011947628,-0.00094523892
0.002535119,-0.00018749409
-0.0017582418,-0.00021817171
-0.0014717025,4.4815668e-005
-2.1536167e-005,0.00485462
-0.00022569181,-0.0035926369
0.001797007,-0.0028461132
0.00030883757,-0.0015751136
0.0016680032,0.0016079234
0.00087589491,0.0024438472
-0.0015384103,-0.0010330053
-0.0038552242,0.0029689297
0.0017859914,0.0039348355
0.0034437017,0.0028896362
0.00022750247,-0.0022716636
-1.9613793e-005,-0.0021016153
-0.0017031463,-0.00097648933
0.0010774715,-0.00067876902
-0.00072414021,-0.00095338316
-0.00055050949,-0.0020037505
-0.0016077067,-0.00010541582
-0.0018532283,-0.00029712296
0.00097661198,0.0012147652
0.0010743877,0.0040472541
0.0011302414,0.0030698536
0.0034008313,0.0013807052
0.0010100541,0.00083187182
-0.001510396,0.0011435413
0.0050274748,-0.0016223624
-0.00073105725,0.00015963391
0.0022270973,-0.0012576202
-0.0030696751,0.0028697213
-0.00038313805,0.0012674656
0.00041321112,0.00025607529
-0.0043679583,-0.0012874452
0.001260482,0.0019824982
-0.0011632987,-0.0032810422
0.0035163036,0.0014321692
0.00088691822,-0.0019471488
0.0014124417,0.0025763926
-0.00054685149,0.0035766291
-0.0025116056,-0.0015159007
0.00043902479,-0.0012682736
-0.0017901243,-0.0018737218
0.0015293424,0.00011930439
-0.0018748322,-0.00024924913
-0.00014263994,0.0018777923
0.00033117368,-0.0016456662
0.0012316592,-0.00083321915
0.0019148394,-0.00085835962
0.0037247122,0.0037934957
0.00021041126,0.0018780953
0.00044713568,0.0019694644
END
BEGIN
0.10698352,-0.10517795
-0.083505742,-0.17981851
-0.21664301,0.014448676
-0.06610398,0.20540392
0.1438785,0.12779886
0.14515692,-0.099643357
-0.070673548,-0.18253563
-0.22915579,-0.019115318
-0.11327827,0.19347538
0.12806481,0.14867407
0.17705779,-0.096302889
-0.025494298,-0.22587723
-0.2096566,-0.085392743
-0.13339908,0.16243885
0.1577359,0.16226585
0.23326008,-0.11504596
-0.0030593222,-0.25713375
-0.20683149,-0.086911954
-0.12440676,0.14660282
0.093092807,0.17450812
0.21587934,-0.024476232
0.032923266,-0.22339204
-0.22473171,-0.090426043
-0.17567332,0.19640312
0.10571732,0.23931979
0.22345041,0.0097911898
0.063678533,-0.16662925
-0.15152444,-0.075244263
-0.12568006,0.1666977
0.12205497,0.22765908
0.27122968,0.011927152
0.11893279,-0.19135399
-0.10809953,-0.12878154
-0.1358791,0.10960554
0.10523767,0.21530722
0.27612588,-0.0095841344
0.095334686,-0.25329897
-0.2022433,-0.14445907
-0.17924695,0.14121665
0.054889407,0.19996199
0.1921832,0.013512732
0.0646009,-0.1889592
-0.188768,-0.14013235
-0.21003522,0.14384194
0.078928106,0.23296538
0.24532065,-0.015546483
0.078893043,-0.25306904
-0.18718606,-0.16391404
-0.16439189,0.11083093
0.11250266,0.15597557
0.22107948,-0.10901722
-0.0085349949,-0.26811495
-0.21306832,-0.097407505
-0.11732113,0.14080289
0.10074635,0.130403
0.15157126,-0.049629208
-0.015644697,-0.13815175
-0.13957059,0.013630318
-0.032495629,0.1899419
0.15753917,0.15224697
0.18539873,-0.032317687
0.016344838,-0.10086387
-0.095340632,0.049991012
0.042205669,0.19499494
0.2228146,0.075670719
0.13419275,-0.13548851
-0.087402992,-0.1204593
-0.12875929,0.062245507
0.019351307,0.13168702
0.11400236,-0.010549027
0.0044460651,-0.16733499
-0.19581819,-0.13010477
-0.22435819,0.076699562
-0.028548978,0.13920633
0.085171796,-0.031567711
-0.040910836,-0.18312997
-0.20968978,-0.10244455
-0.17639697,0.074935496
