CITIFILE A.01.01
!Agilent Technologies,N5230C,MY48100142,A.08.04.10
!Agilent N5230C: A.08.04.10
!Format: LogMag/Angle
!Date: Monday, September 14, 2020 15:24:36
NAME CH1_DATA
VAR Freq MAG 801
DATA S11 DBANGLE
DATA S21 DBANGLE
DATA S12 DBANGLE
DATA S22 DBANGLE
VAR_LIST_BEGIN
1000000000
1015000000
1030000000
1045000000
1060000000
1075000000
1090000000
1105000000
1120000000
1135000000
1150000000
1165000000
1180000000
1195000000
1210000000
1225000000
1240000000
1255000000
1270000000
1285000000
1300000000
1315000000
1330000000
1345000000
1360000000
1375000000
1390000000
1405000000
1420000000
1435000000
1450000000
1465000000
1480000000
1495000000
1510000000
1525000000
1540000000
1555000000
1570000000
1585000000
1600000000
1615000000
1630000000
1645000000
1660000000
1675000000
1690000000
1705000000
1720000000
1735000000
1750000000
1765000000
1780000000
1795000000
1810000000
1825000000
1840000000
1855000000
1870000000
1885000000
1900000000
1915000000
1930000000
1945000000
1960000000
1975000000
1990000000
2005000000
2020000000
2035000000
2050000000
2065000000
2080000000
2095000000
2110000000
2125000000
2140000000
2155000000
2170000000
2185000000
2200000000
2215000000
2230000000
2245000000
2260000000
2275000000
2290000000
2305000000
2320000000
2335000000
2350000000
2365000000
2380000000
2395000000
2410000000
2425000000
2440000000
2455000000
2470000000
2485000000
2500000000
2515000000
2530000000
2545000000
2560000000
2575000000
2590000000
2605000000
2620000000
2635000000
2650000000
2665000000
2680000000
2695000000
2710000000
2725000000
2740000000
2755000000
2770000000
2785000000
2800000000
2815000000
2830000000
2845000000
2860000000
2875000000
2890000000
2905000000
2920000000
2935000000
2950000000
2965000000
2980000000
2995000000
3010000000
3025000000
3040000000
3055000000
3070000000
3085000000
3100000000
3115000000
3130000000
3145000000
3160000000
3175000000
3190000000
3205000000
3220000000
3235000000
3250000000
3265000000
3280000000
3295000000
3310000000
3325000000
3340000000
3355000000
3370000000
3385000000
3400000000
3415000000
3430000000
3445000000
3460000000
3475000000
3490000000
3505000000
3520000000
3535000000
3550000000
3565000000
3580000000
3595000000
3610000000
3625000000
3640000000
3655000000
3670000000
3685000000
3700000000
3715000000
3730000000
3745000000
3760000000
3775000000
3790000000
3805000000
3820000000
3835000000
3850000000
3865000000
3880000000
3895000000
3910000000
3925000000
3940000000
3955000000
3970000000
3985000000
4000000000
4015000000
4030000000
4045000000
4060000000
4075000000
4090000000
4105000000
4120000000
4135000000
4150000000
4165000000
4180000000
4195000000
4210000000
4225000000
4240000000
4255000000
4270000000
4285000000
4300000000
4315000000
4330000000
4345000000
4360000000
4375000000
4390000000
4405000000
4420000000
4435000000
4450000000
4465000000
4480000000
4495000000
4510000000
4525000000
4540000000
4555000000
4570000000
4585000000
4600000000
4615000000
4630000000
4645000000
4660000000
4675000000
4690000000
4705000000
4720000000
4735000000
4750000000
4765000000
4780000000
4795000000
4810000000
4825000000
4840000000
4855000000
4870000000
4885000000
4900000000
4915000000
4930000000
4945000000
4960000000
4975000000
4990000000
5005000000
5020000000
5035000000
5050000000
5065000000
5080000000
5095000000
5110000000
5125000000
5140000000
5155000000
5170000000
5185000000
5200000000
5215000000
5230000000
5245000000
5260000000
5275000000
5290000000
5305000000
5320000000
5335000000
5350000000
5365000000
5380000000
5395000000
5410000000
5425000000
5440000000
5455000000
5470000000
5485000000
5500000000
5515000000
5530000000
5545000000
5560000000
5575000000
5590000000
5605000000
5620000000
5635000000
5650000000
5665000000
5680000000
5695000000
5710000000
5725000000
5740000000
5755000000
5770000000
5785000000
5800000000
5815000000
5830000000
5845000000
5860000000
5875000000
5890000000
5905000000
5920000000
5935000000
5950000000
5965000000
5980000000
5995000000
6010000000
6025000000
6040000000
6055000000
6070000000
6085000000
6100000000
6115000000
6130000000
6145000000
6160000000
6175000000
6190000000
6205000000
6220000000
6235000000
6250000000
6265000000
6280000000
6295000000
6310000000
6325000000
6340000000
6355000000
6370000000
6385000000
6400000000
6415000000
6430000000
6445000000
6460000000
6475000000
6490000000
6505000000
6520000000
6535000000
6550000000
6565000000
6580000000
6595000000
6610000000
6625000000
6640000000
6655000000
6670000000
6685000000
6700000000
6715000000
6730000000
6745000000
6760000000
6775000000
6790000000
6805000000
6820000000
6835000000
6850000000
6865000000
6880000000
6895000000
6910000000
6925000000
6940000000
6955000000
6970000000
6985000000
7000000000
7015000000
7030000000
7045000000
7060000000
7075000000
7090000000
7105000000
7120000000
7135000000
7150000000
7165000000
7180000000
7195000000
7210000000
7225000000
7240000000
7255000000
7270000000
7285000000
7300000000
7315000000
7330000000
7345000000
7360000000
7375000000
7390000000
7405000000
7420000000
7435000000
7450000000
7465000000
7480000000
7495000000
7510000000
7525000000
7540000000
7555000000
7570000000
7585000000
7600000000
7615000000
7630000000
7645000000
7660000000
7675000000
7690000000
7705000000
7720000000
7735000000
7750000000
7765000000
7780000000
7795000000
7810000000
7825000000
7840000000
7855000000
7870000000
7885000000
7900000000
7915000000
7930000000
7945000000
7960000000
7975000000
7990000000
8005000000
8020000000
8035000000
8050000000
8065000000
8080000000
8095000000
8110000000
8125000000
8140000000
8155000000
8170000000
8185000000
8200000000
8215000000
8230000000
8245000000
8260000000
8275000000
8290000000
8305000000
8320000000
8335000000
8350000000
8365000000
8380000000
8395000000
8410000000
8425000000
8440000000
8455000000
8470000000
8485000000
8500000000
8515000000
8530000000
8545000000
8560000000
8575000000
8590000000
8605000000
8620000000
8635000000
8650000000
8665000000
8680000000
8695000000
8710000000
8725000000
8740000000
8755000000
8770000000
8785000000
8800000000
8815000000
8830000000
8845000000
8860000000
8875000000
8890000000
8905000000
8920000000
8935000000
8950000000
8965000000
8980000000
8995000000
9010000000
9025000000
9040000000
9055000000
9070000000
9085000000
9100000000
9115000000
9130000000
9145000000
9160000000
9175000000
9190000000
9205000000
9220000000
9235000000
9250000000
9265000000
9280000000
9295000000
9310000000
9325000000
9340000000
9355000000
9370000000
9385000000
9400000000
9415000000
9430000000
9445000000
9460000000
9475000000
9490000000
9505000000
9520000000
9535000000
9550000000
9565000000
9580000000
9595000000
9610000000
9625000000
9640000000
9655000000
9670000000
9685000000
9700000000
9715000000
9730000000
9745000000
9760000000
9775000000
9790000000
9805000000
9820000000
9835000000
9850000000
9865000000
9880000000
9895000000
9910000000
9925000000
9940000000
9955000000
9970000000
9985000000
10000000000
10015000000
10030000000
10045000000
10060000000
10075000000
10090000000
10105000000
10120000000
10135000000
10150000000
10165000000
10180000000
10195000000
10210000000
10225000000
10240000000
10255000000
10270000000
10285000000
10300000000
10315000000
10330000000
10345000000
10360000000
10375000000
10390000000
10405000000
10420000000
10435000000
10450000000
10465000000
10480000000
10495000000
10510000000
10525000000
10540000000
10555000000
10570000000
10585000000
10600000000
10615000000
10630000000
10645000000
10660000000
10675000000
10690000000
10705000000
10720000000
10735000000
10750000000
10765000000
10780000000
10795000000
10810000000
10825000000
10840000000
10855000000
10870000000
10885000000
10900000000
10915000000
10930000000
10945000000
10960000000
10975000000
10990000000
11005000000
11020000000
11035000000
11050000000
11065000000
11080000000
11095000000
11110000000
11125000000
11140000000
11155000000
11170000000
11185000000
11200000000
11215000000
11230000000
11245000000
11260000000
11275000000
11290000000
11305000000
11320000000
11335000000
11350000000
11365000000
11380000000
11395000000
11410000000
11425000000
11440000000
11455000000
11470000000
11485000000
11500000000
11515000000
11530000000
11545000000
11560000000
11575000000
11590000000
11605000000
11620000000
11635000000
11650000000
11665000000
11680000000
11695000000
11710000000
11725000000
11740000000
11755000000
11770000000
11785000000
11800000000
11815000000
11830000000
11845000000
11860000000
11875000000
11890000000
11905000000
11920000000
11935000000
11950000000
11965000000
11980000000
11995000000
12010000000
12025000000
12040000000
12055000000
12070000000
12085000000
12100000000
12115000000
12130000000
12145000000
12160000000
12175000000
12190000000
12205000000
12220000000
12235000000
12250000000
12265000000
12280000000
12295000000
12310000000
12325000000
12340000000
12355000000
12370000000
12385000000
12400000000
12415000000
12430000000
12445000000
12460000000
12475000000
12490000000
12505000000
12520000000
12535000000
12550000000
12565000000
12580000000
12595000000
12610000000
12625000000
12640000000
12655000000
12670000000
12685000000
12700000000
12715000000
12730000000
12745000000
12760000000
12775000000
12790000000
12805000000
12820000000
12835000000
12850000000
12865000000
12880000000
12895000000
12910000000
12925000000
12940000000
12955000000
12970000000
12985000000
13000000000
VAR_LIST_END
BEGIN
-19.5509,112.76378
-19.491241,58.67524
-19.699074,5.8993249
-20.097494,-48.014549
-20.355042,-102.8712
-20.546261,-158.58376
-20.702551,145.57985
-20.636963,89.913322
-20.483862,36.498363
-20.279078,-16.9088
-20.427097,-68.722443
-20.651575,-121.58916
-21.096367,-176.01248
-21.353495,127.39624
-21.285402,69.565079
-20.65704,14.149374
-20.10964,-37.923634
-20.109453,-88.242889
-20.375868,-139.13307
-21.032225,167.22461
-21.369034,109.1069
-21.03248,49.421745
-20.089586,-5.3532505
-19.490778,-55.309631
-19.344635,-102.55725
-19.908045,-152.60745
-21.027992,150.81583
-21.341043,89.027672
-20.419168,29.236704
-19.034286,-24.412043
-18.34091,-72.409561
-18.359371,-119.27406
-19.177731,-169.11731
-20.364304,134.30988
-20.551218,72.031013
-19.438387,13.194127
-18.205893,-38.993263
-17.547771,-86.274879
-17.927837,-133.87164
-19.015062,175.39972
-20.046907,116.83496
-19.736063,54.435596
-18.327244,-3.1123259
-17.293131,-52.222958
-17.040243,-98.914337
-17.559484,-146.73166
-18.753153,160.05331
-19.654976,97.957314
-18.968008,36.064461
-17.577097,-17.984409
-16.518641,-66.273056
-16.530888,-113.51819
-17.448597,-161.71631
-18.631336,143.34375
-19.083202,81.366859
-18.215504,20.09063
-16.881531,-32.911339
-16.228449,-81.256882
-16.353388,-128.67766
-17.267923,-179.44058
-18.307543,123.62711
-18.220856,62.594414
-17.12632,5.200007
-16.223848,-46.466881
-16.023727,-94.94957
-16.343456,-143.38698
-17.216171,163.54495
-17.627829,105.38058
-17.194727,46.130917
-16.384449,-7.608964
-15.71034,-57.582108
-15.758258,-105.97243
-16.394892,-157.30316
-17.22049,147.53392
-17.262278,88.949455
-16.708057,32.259533
-15.931633,-20.592743
-15.762636,-70.384834
-16.041748,-119.75311
-16.612019,-173.01201
-16.904655,130.43103
-16.738461,73.179268
-16.083796,18.883739
-15.739292,-32.367104
-15.794593,-82.68013
-16.317947,-134.76828
-16.70067,169.77901
-16.56123,112.84504
-16.096622,58.224434
-15.74822,6.6665721
-15.833071,-43.646065
-16.280598,-95.897453
-16.672117,-151.71584
-16.653675,150.28819
-16.026779,95.17646
-15.450482,44.165466
-15.33193,-4.5152121
-15.851048,-55.466614
-16.686951,-110.44179
-16.99144,-169.0061
-16.314306,132.32515
-15.392477,79.201851
-15.004799,30.70952
-15.335628,-17.154839
-16.231035,-68.374992
-17.153364,-126.82261
-16.906775,170.95798
-15.823816,114.82164
-14.866701,65.302338
-14.693227,19.277441
-15.422346,-28.480095
-16.870182,-82.171066
-17.576178,-145.03941
-16.670961,151.42955
-15.166727,98.131111
-14.327189,51.41713
-14.494304,6.7076921
-15.647651,-41.026249
-17.249205,-98.136497
-17.660845,-165.34515
-16.03684,133.54114
-14.537865,83.264305
-13.920514,39.023785
-14.396662,-4.7003212
-15.979571,-53.79192
-17.642069,-115.26301
-17.303452,175.69148
-15.41866,118.04716
-14.016323,70.718445
-13.670426,27.987709
-14.561077,-16.407728
-16.422306,-68.159302
-17.954796,-134.46893
-16.872526,157.09453
-14.76967,103.07124
-13.570812,57.793953
-13.586701,15.904711
-14.769355,-28.992409
-16.900789,-83.216728
-17.930235,-152.61568
-16.259405,141.62952
-14.338731,89.778328
-13.376109,46.636456
-13.689131,3.9492235
-15.144664,-43.110416
-17.231693,-100.95019
-17.499186,-170.96046
-15.404715,126.68861
-13.783869,78.219879
-13.289824,34.83688
-13.925454,-7.9248619
-15.503331,-57.390453
-17.181263,-119.57502
-16.761953,171.06313
-14.882375,113.16494
-13.579825,66.680069
-13.316998,23.202349
-14.154788,-21.472155
-15.854001,-73.472992
-17.003065,-137.18123
-16.047565,156.34322
-14.352839,102.10798
-13.358278,55.76265
-13.372061,12.442151
-14.285125,-34.094395
-15.797505,-88.59951
-16.584665,-153.22034
-15.546551,144.99663
-14.104012,92.563858
-13.351945,45.378643
-13.690312,-0.1296124
-14.712475,-48.829777
-15.919202,-105.01853
-16.024712,-168.19099
-14.967401,132.36154
-14.027566,81.161903
-13.681696,35.060947
-13.96295,-11.556508
-14.843458,-62.728821
-15.721018,-121.18349
-15.616299,178.18669
-14.788747,121.9632
-13.966246,71.448143
-13.756844,23.74777
-14.200615,-25.201033
-14.907172,-77.685158
-15.486499,-134.84567
-15.280773,166.88908
-14.624445,112.03531
-14.118353,61.006649
-14.057904,11.344336
-14.420123,-38.749424
-14.878353,-91.27034
-15.112867,-147.12701
-14.972234,156.19774
-14.764458,102.25784
-14.542217,50.734661
-14.385148,-0.12942195
-14.51826,-52.011086
-14.801081,-105.38016
-15.061629,-159.1841
-15.129815,146.78909
-14.91236,92.438545
-14.713277,38.080013
-14.733771,-15.053346
-14.667974,-66.142975
-14.676543,-117.2606
-14.911927,-169.56909
-15.233212,136.56363
-15.585801,82.267189
-15.495127,27.400263
-15.017758,-26.782972
-14.692108,-78.418922
-14.73549,-128.52959
-15.063951,-178.40375
-15.612507,128.61809
-15.971932,71.965065
-15.746444,14.577113
-15.212999,-39.207127
-14.67885,-88.653862
-14.678557,-137.38936
-15.242469,172.72813
-16.162476,119.11286
-16.651703,60.107422
-16.136578,1.185545
-15.185367,-51.543987
-14.686,-100.04057
-14.82225,-146.91278
-15.657536,163.96025
-16.849993,108.76842
-17.222891,47.020275
-16.440384,-11.403305
-15.335059,-63.110493
-14.830348,-109.82719
-15.240381,-155.48672
-16.352232,154.77534
-17.625408,97.215492
-17.704502,33.53019
-16.496742,-23.73292
-15.377154,-72.737259
-15.051087,-118.33849
-15.715926,-165.0097
-17.256392,143.50165
-18.51977,83.579315
-17.928818,19.142967
-16.390722,-36.098103
-15.428011,-83.26445
-15.55798,-127.00938
-16.534231,-172.91635
-18.160622,133.37527
-19.076769,69.157883
-17.99251,6.4726982
-16.509758,-45.733795
-15.703266,-90.309341
-16.089649,-134.33324
-17.495701,177.86891
-19.367649,121.14243
-19.732733,54.794418
-18.029842,-5.565249
-16.660305,-54.217205
-16.35877,-97.690475
-17.129316,-141.19685
-18.982988,168.05981
-20.639114,104.92897
-19.931032,38.221039
-18.040234,-16.039557
-16.900703,-61.689095
-17.051065,-103.76714
-18.540886,-148.29366
-20.988367,157.39571
-22.083719,86.160072
-20.153738,20.329224
-18.14506,-28.433104
-17.460747,-70.937195
-18.069479,-112.33366
-20.022583,-158.93164
-22.572327,139.67357
-22.22312,66.719589
-19.803625,7.3262482
-18.288149,-37.181713
-18.149759,-77.706398
-19.392351,-119.5507
-22.085123,-171.30177
-23.934071,117.51366
-22.02104,46.762997
-19.611082,-2.4926457
-18.569674,-43.791122
-19.096766,-83.155113
-21.230341,-126.72281
-24.772501,173.53409
-24.883219,90.462044
-21.594704,30.445637
-19.477388,-12.552758
-19.22278,-50.074726
-20.445612,-88.638878
-23.564024,-135.19086
-27.261351,148.43491
-24.394018,67.507813
-20.926067,19.024029
-19.401512,-18.482555
-19.817553,-53.817085
-21.912033,-91.508965
-26.77634,-142.60091
-29.188503,116.86395
-23.775528,48.27356
-20.611984,8.2806549
-19.726778,-25.355326
-20.677036,-58.568748
-23.503597,-96.880913
-29.961855,-155.04688
-29.268433,91.715164
-23.284395,38.552429
-20.893566,2.333833
-20.612862,-28.831478
-22.246513,-61.551685
-26.56826,-100.68015
-34.626282,169.96924
-27.386835,70.628418
-23.002048,31.115831
-21.177208,-0.41488817
-21.527874,-30.890596
-24.206955,-61.801582
-30.894201,-101.18634
-36.338001,109.53253
-26.141184,53.257584
-22.641529,22.952744
-21.57091,-6.0075207
-22.438826,-34.447651
-25.817877,-62.907841
-35.0625,-104.17391
-33.504562,81.882729
-25.769016,48.258556
-23.043823,19.428911
-22.560671,-9.7039404
-24.258253,-37.057224
-28.867056,-66.00309
-45.0289,-146.41052
-30.165848,76.304031
-24.724577,45.954937
-22.837578,17.421329
-22.774969,-10.36718
-24.639658,-39.143696
-29.312687,-72.999016
-40.437477,-164.05078
-30.391277,87.434204
-25.553675,51.741539
-24.055429,21.861345
-24.43643,-6.1406293
-26.909641,-38.641918
-33.103546,-81.254875
-37.244587,151.16896
-28.816933,86.796516
-25.29147,53.7351
-24.135729,22.749834
-24.912466,-10.990042
-27.564957,-49.286278
-32.001812,-108.88598
-31.463495,161.89415
-27.054932,106.04418
-25.156439,67.05368
-24.696468,32.14455
-25.659151,-5.2112765
-28.738369,-53.248371
-30.966717,-124.48076
-28.987766,163.13866
-26.205053,114.70605
-24.963003,76.080551
-25.662199,36.689606
-27.66712,-8.3844357
-29.80755,-71.482826
-28.915455,-144.63986
-25.992998,161.73534
-24.402964,120.95939
-24.333546,82.176086
-26.114447,41.296623
-29.388306,-16.03443
-29.697674,-94.871155
-26.0471,-158.37798
-23.561317,158.6516
-22.795509,122.19414
-23.660139,85.113747
-26.471359,40.267281
-30.191578,-32.656078
-27.167273,-116.26956
-23.162792,-165.44864
-21.293673,157.88185
-21.265995,122.43961
-22.921904,86.343361
-26.928516,39.616791
-30.391785,-50.423653
-24.951998,-127.5892
-21.377422,-169.47708
-19.888851,156.59238
-20.297983,123.22247
-22.788446,86.773155
-28.271137,34.529198
-29.377588,-79.004868
-22.785526,-137.30013
-19.632858,-174.22954
-18.547337,153.17693
-19.280857,120.63116
-22.21876,85.145409
-28.955107,28.979664
-27.903816,-90.1698
-21.576447,-143.33662
-18.842443,-177.95341
-18.183723,150.22168
-19.453234,118.07561
-23.233929,80.69976
-30.909534,1.7396324
-25.001833,-105.40054
-19.794237,-149.43871
-17.677816,178.19276
-17.451418,147.3252
-19.040218,114.75195
-23.373291,74.419235
-31.069771,-19.171457
-23.527081,-113.36431
-18.952641,-152.06163
-17.224483,174.48415
-17.392742,142.64066
-19.657089,109.21282
-24.784801,65.162537
-29.651163,-45.29615
-21.784206,-118.46891
-18.178671,-155.8748
-16.976707,172.34589
-17.513702,140.9838
-20.218861,106.78873
-26.663523,56.243835
-28.177158,-68.946541
-20.809048,-125.84673
-17.795467,-160.87897
-16.878603,166.85181
-18.013481,134.10605
-21.188267,97.02314
-28.036081,32.000305
-25.081421,-81.12307
-19.762005,-129.89198
-17.229019,-164.99152
-16.845694,161.92703
-18.092075,127.34497
-21.671827,85.313522
