CITIFILE A.01.01
!Agilent Technologies,N5230C,MY48100142,A.08.04.10
!Agilent N5230C: A.08.04.10
!Format: LogMag/Angle
!Date: Friday, August 28, 2020 15:21:57
NAME CH1_DATA
VAR Power MAG 801
DATA S11 DBANGLE
DATA S21 DBANGLE
DATA S12 DBANGLE
DATA S22 DBANGLE
VAR_LIST_BEGIN
-40
-39.975
-39.95
-39.925
-39.9
-39.875
-39.85
-39.825
-39.8
-39.775
-39.75
-39.725
-39.7
-39.675
-39.65
-39.625
-39.6
-39.575
-39.55
-39.525
-39.5
-39.475
-39.45
-39.425
-39.4
-39.375
-39.35
-39.325
-39.3
-39.275
-39.25
-39.225
-39.2
-39.175
-39.15
-39.125
-39.1
-39.075
-39.05
-39.025
-39
-38.975
-38.95
-38.925
-38.9
-38.875
-38.85
-38.825
-38.8
-38.775
-38.75
-38.725
-38.7
-38.675
-38.65
-38.625
-38.6
-38.575
-38.55
-38.525
-38.5
-38.475
-38.45
-38.425
-38.4
-38.375
-38.35
-38.325
-38.3
-38.275
-38.25
-38.225
-38.2
-38.175
-38.15
-38.125
-38.1
-38.075
-38.05
-38.025
-38
-37.975
-37.95
-37.925
-37.9
-37.875
-37.85
-37.825
-37.8
-37.775
-37.75
-37.725
-37.7
-37.675
-37.65
-37.625
-37.6
-37.575
-37.55
-37.525
-37.5
-37.475
-37.45
-37.425
-37.4
-37.375
-37.35
-37.325
-37.3
-37.275
-37.25
-37.225
-37.2
-37.175
-37.15
-37.125
-37.1
-37.075
-37.05
-37.025
-37
-36.975
-36.95
-36.925
-36.9
-36.875
-36.85
-36.825
-36.8
-36.775
-36.75
-36.725
-36.7
-36.675
-36.65
-36.625
-36.6
-36.575
-36.55
-36.525
-36.5
-36.475
-36.45
-36.425
-36.4
-36.375
-36.35
-36.325
-36.3
-36.275
-36.25
-36.225
-36.2
-36.175
-36.15
-36.125
-36.1
-36.075
-36.05
-36.025
-36
-35.975
-35.95
-35.925
-35.9
-35.875
-35.85
-35.825
-35.8
-35.775
-35.75
-35.725
-35.7
-35.675
-35.65
-35.625
-35.6
-35.575
-35.55
-35.525
-35.5
-35.475
-35.45
-35.425
-35.4
-35.375
-35.35
-35.325
-35.3
-35.275
-35.25
-35.225
-35.2
-35.175
-35.15
-35.125
-35.1
-35.075
-35.05
-35.025
-35
-34.975
-34.95
-34.925
-34.9
-34.875
-34.85
-34.825
-34.8
-34.775
-34.75
-34.725
-34.7
-34.675
-34.65
-34.625
-34.6
-34.575
-34.55
-34.525
-34.5
-34.475
-34.45
-34.425
-34.4
-34.375
-34.35
-34.325
-34.3
-34.275
-34.25
-34.225
-34.2
-34.175
-34.15
-34.125
-34.1
-34.075
-34.05
-34.025
-34
-33.975
-33.95
-33.925
-33.9
-33.875
-33.85
-33.825
-33.8
-33.775
-33.75
-33.725
-33.7
-33.675
-33.65
-33.625
-33.6
-33.575
-33.55
-33.525
-33.5
-33.475
-33.45
-33.425
-33.4
-33.375
-33.35
-33.325
-33.3
-33.275
-33.25
-33.225
-33.2
-33.175
-33.15
-33.125
-33.1
-33.075
-33.05
-33.025
-33
-32.975
-32.95
-32.925
-32.9
-32.875
-32.85
-32.825
-32.8
-32.775
-32.75
-32.725
-32.7
-32.675
-32.65
-32.625
-32.6
-32.575
-32.55
-32.525
-32.5
-32.475
-32.45
-32.425
-32.4
-32.375
-32.35
-32.325
-32.3
-32.275
-32.25
-32.225
-32.2
-32.175
-32.15
-32.125
-32.1
-32.075
-32.05
-32.025
-32
-31.975
-31.95
-31.925
-31.9
-31.875
-31.85
-31.825
-31.8
-31.775
-31.75
-31.725
-31.7
-31.675
-31.65
-31.625
-31.6
-31.575
-31.55
-31.525
-31.5
-31.475
-31.45
-31.425
-31.4
-31.375
-31.35
-31.325
-31.3
-31.275
-31.25
-31.225
-31.2
-31.175
-31.15
-31.125
-31.1
-31.075
-31.05
-31.025
-31
-30.975
-30.95
-30.925
-30.9
-30.875
-30.85
-30.825
-30.8
-30.775
-30.75
-30.725
-30.7
-30.675
-30.65
-30.625
-30.6
-30.575
-30.55
-30.525
-30.5
-30.475
-30.45
-30.425
-30.4
-30.375
-30.35
-30.325
-30.3
-30.275
-30.25
-30.225
-30.2
-30.175
-30.15
-30.125
-30.1
-30.075
-30.05
-30.025
-30
-29.975
-29.95
-29.925
-29.9
-29.875
-29.85
-29.825
-29.8
-29.775
-29.75
-29.725
-29.7
-29.675
-29.65
-29.625
-29.6
-29.575
-29.55
-29.525
-29.5
-29.475
-29.45
-29.425
-29.4
-29.375
-29.35
-29.325
-29.3
-29.275
-29.25
-29.225
-29.2
-29.175
-29.15
-29.125
-29.1
-29.075
-29.05
-29.025
-29
-28.975
-28.95
-28.925
-28.9
-28.875
-28.85
-28.825
-28.8
-28.775
-28.75
-28.725
-28.7
-28.675
-28.65
-28.625
-28.6
-28.575
-28.55
-28.525
-28.5
-28.475
-28.45
-28.425
-28.4
-28.375
-28.35
-28.325
-28.3
-28.275
-28.25
-28.225
-28.2
-28.175
-28.15
-28.125
-28.1
-28.075
-28.05
-28.025
-28
-27.975
-27.95
-27.925
-27.9
-27.875
-27.85
-27.825
-27.8
-27.775
-27.75
-27.725
-27.7
-27.675
-27.65
-27.625
-27.6
-27.575
-27.55
-27.525
-27.5
-27.475
-27.45
-27.425
-27.4
-27.375
-27.35
-27.325
-27.3
-27.275
-27.25
-27.225
-27.2
-27.175
-27.15
-27.125
-27.1
-27.075
-27.05
-27.025
-27
-26.975
-26.95
-26.925
-26.9
-26.875
-26.85
-26.825
-26.8
-26.775
-26.75
-26.725
-26.7
-26.675
-26.65
-26.625
-26.6
-26.575
-26.55
-26.525
-26.5
-26.475
-26.45
-26.425
-26.4
-26.375
-26.35
-26.325
-26.3
-26.275
-26.25
-26.225
-26.2
-26.175
-26.15
-26.125
-26.1
-26.075
-26.05
-26.025
-26
-25.975
-25.95
-25.925
-25.9
-25.875
-25.85
-25.825
-25.8
-25.775
-25.75
-25.725
-25.7
-25.675
-25.65
-25.625
-25.6
-25.575
-25.55
-25.525
-25.5
-25.475
-25.45
-25.425
-25.4
-25.375
-25.35
-25.325
-25.3
-25.275
-25.25
-25.225
-25.2
-25.175
-25.15
-25.125
-25.1
-25.075
-25.05
-25.025
-25
-24.975
-24.95
-24.925
-24.9
-24.875
-24.85
-24.825
-24.8
-24.775
-24.75
-24.725
-24.7
-24.675
-24.65
-24.625
-24.6
-24.575
-24.55
-24.525
-24.5
-24.475
-24.45
-24.425
-24.4
-24.375
-24.35
-24.325
-24.3
-24.275
-24.25
-24.225
-24.2
-24.175
-24.15
-24.125
-24.1
-24.075
-24.05
-24.025
-24
-23.975
-23.95
-23.925
-23.9
-23.875
-23.85
-23.825
-23.8
-23.775
-23.75
-23.725
-23.7
-23.675
-23.65
-23.625
-23.6
-23.575
-23.55
-23.525
-23.5
-23.475
-23.45
-23.425
-23.4
-23.375
-23.35
-23.325
-23.3
-23.275
-23.25
-23.225
-23.2
-23.175
-23.15
-23.125
-23.1
-23.075
-23.05
-23.025
-23
-22.975
-22.95
-22.925
-22.9
-22.875
-22.85
-22.825
-22.8
-22.775
-22.75
-22.725
-22.7
-22.675
-22.65
-22.625
-22.6
-22.575
-22.55
-22.525
-22.5
-22.475
-22.45
-22.425
-22.4
-22.375
-22.35
-22.325
-22.3
-22.275
-22.25
-22.225
-22.2
-22.175
-22.15
-22.125
-22.1
-22.075
-22.05
-22.025
-22
-21.975
-21.95
-21.925
-21.9
-21.875
-21.85
-21.825
-21.8
-21.775
-21.75
-21.725
-21.7
-21.675
-21.65
-21.625
-21.6
-21.575
-21.55
-21.525
-21.5
-21.475
-21.45
-21.425
-21.4
-21.375
-21.35
-21.325
-21.3
-21.275
-21.25
-21.225
-21.2
-21.175
-21.15
-21.125
-21.1
-21.075
-21.05
-21.025
-21
-20.975
-20.95
-20.925
-20.9
-20.875
-20.85
-20.825
-20.8
-20.775
-20.75
-20.725
-20.7
-20.675
-20.65
-20.625
-20.6
-20.575
-20.55
-20.525
-20.5
-20.475
-20.45
-20.425
-20.4
-20.375
-20.35
-20.325
-20.3
-20.275
-20.25
-20.225
-20.2
-20.175
-20.15
-20.125
-20.1
-20.075
-20.05
-20.025
-20
VAR_LIST_END
BEGIN
-15.822277,165.44275
-14.360822,-167.60553
-14.415879,-151.95287
-18.495888,-147.41351
-12.525169,-161.76534
-16.074862,-177.69221
-16.008156,-144.92537
-14.888418,-159.55443
-16.047953,-165.39441
-13.039521,-156.24609
-13.716219,-159.9277
-14.116682,-159.0889
-13.142695,-171.88542
-13.21108,-163.9541
-16.472584,-151.48367
-15.628118,-170.02328
-17.559038,-161.27455
-13.574036,-141.41106
-16.63752,-167.00276
-14.897825,-150.90468
-17.382299,-153.29201
-15.155366,-159.1619
-12.600099,-142.49411
-13.090539,-132.37288
-13.757993,-155.33144
-14.582421,-164.45705
-15.263212,-168.55806
-16.423927,178.8791
-15.957778,-168.95377
-14.635764,-154.74628
-15.461781,-160.06572
-14.611412,-164.83783
-12.671076,-153.09386
-14.545369,-164.51077
-12.62857,-159.46722
-14.763258,-162.78786
-14.202231,-175.97301
-13.589649,-159.50102
-14.396283,-153.70093
-14.009653,-156.10538
-16.017126,-168.28279
-15.193516,-149.24478
-13.167635,-158.62222
-12.940455,-153.46353
-13.986569,-154.93642
-13.413708,-163.30099
-14.136823,-154.84341
-15.516429,-176.39627
-15.663933,-166.71977
-12.871773,176.60561
-15.624709,-152.36813
-12.79261,-157.13921
-15.528143,-165.30504
-15.008787,-154.8201
-16.906956,-149.36232
-13.396437,-166.37378
-12.69638,-145.1201
-14.874333,-149.93265
-15.164493,-162.65958
-15.033688,-156.03181
-15.554387,-167.28293
-14.067579,-150.48654
-14.69053,-156.94763
-15.346974,-161.87517
-13.059075,-146.55971
-14.982428,-172.62935
-14.743442,-140.02676
-14.747691,-163.41652
-13.218736,-166.6248
-16.040764,-171.20245
-14.297541,-156.91689
-13.489109,-164.43523
-15.956268,-152.44463
-15.009721,-153.09602
-17.143875,-176.49719
-13.655713,-151.88467
-15.030355,-165.96028
-14.993217,-162.09683
-14.343948,-150.63972
-14.472757,-169.58989
-13.731416,-165.40479
-14.746655,-168.16071
-16.439499,-162.24065
-14.702975,-152.78485
-14.611763,-161.17398
-16.536314,-168.77411
-16.193428,-155.66794
-14.177277,-150.03622
-14.707767,-160.31172
-13.228663,-155.8647
-17.960638,-146.35269
-18.215286,-169.29749
-13.491379,-152.70073
-14.964971,-144.8439
-13.825682,-164.12476
-13.709044,-164.32458
-14.746119,-179.13103
-14.101851,-159.18645
-13.245811,-143.51956
-13.892045,-144.99953
-14.631836,-169.60309
-13.977518,-165.51552
-15.182987,-166.08107
-14.566333,-169.01784
-14.514729,-156.8286
-13.554738,-162.54202
-13.85977,-168.40486
-15.831506,-156.67767
-15.770204,-153.6553
-14.341229,-161.35518
-14.374463,-166.34172
-14.845819,-159.02023
-17.455227,-159.34669
-14.021642,-157.53275
-13.619226,-142.5675
-14.817916,-155.56366
-15.24585,-153.91534
-13.574257,-168.8018
-15.733776,-157.4012
-15.053319,-141.2442
-13.1926,-161.99355
-14.221674,-152.07085
-15.715199,-162.8445
-13.483058,-147.32108
-15.879382,-172.045
-14.603677,-161.82135
-12.958778,-138.13326
-16.440878,-162.86293
-15.288699,-166.14319
-14.798967,-153.07703
-13.917449,-141.8878
-14.984063,-158.22301
-14.385277,-160.75888
-14.779465,-145.90408
-15.662145,-168.30304
-16.159298,-139.46313
-14.033178,-152.48264
-16.15143,-152.02126
-17.213205,-162.59695
-14.561784,-159.66763
-16.268456,-170.98744
-13.498363,-147.81746
-15.082874,-155.07898
-14.024178,-149.19327
-15.156212,-148.9471
-17.655674,-163.25528
-13.31089,-162.41263
-14.539726,-170.51773
-14.869674,-157.11037
-17.50075,-140.45338
-16.05629,-145.32262
-16.954226,-168.0257
-14.869012,-154.79623
-15.33308,-156.73871
-15.42879,-156.80133
-15.03207,-152.58669
-14.548641,-160.45789
-16.007782,-166.48277
-15.436587,-153.05348
-13.944436,-161.83171
-15.158675,-161.20695
-14.014649,-146.90802
-14.885256,-153.92349
-15.218004,-162.78542
-15.750211,-173.45775
-15.134694,-152.79977
-13.770444,-156.9093
-16.153046,-159.50226
-14.812288,-167.23592
-15.127636,-149.40169
-14.768896,-155.04504
-16.051128,-157.24069
-14.393331,-155.88765
-13.462481,-164.01205
-13.875405,-170.3042
-15.375682,-145.09531
-14.240294,-153.1508
-14.368853,-146.99998
-15.269636,-178.64209
-16.93144,-156.20657
-15.233845,-148.46544
-13.245709,-151.08228
-14.677526,-160.56055
-14.566676,-160.17868
-15.829595,-157.01971
-14.479823,-163.78703
-16.011486,-151.79353
-15.389858,-160.82863
-14.810919,-156.94266
-16.643995,-163.93108
-15.460552,-154.96854
-14.890611,-160.00592
-15.712727,-161.07697
-14.765869,-161.90317
-15.619185,-144.03377
-16.05846,-157.56108
-15.732074,-162.73619
-15.785954,-159.73119
-13.661383,-153.55571
-15.809146,-149.54758
-15.267603,-159.45586
-13.607817,-161.08267
-13.087207,-155.22971
-16.48358,-158.53564
-15.351793,-155.32465
-14.322793,-154.65538
-15.25986,-167.92795
-14.16107,-157.45012
-15.991688,-150.00984
-16.871767,-157.46736
-18.335215,-156.87898
-15.10324,-150.26584
-13.702708,-158.35236
-14.56166,-167.17377
-14.223988,-143.63734
-14.593129,-171.59261
-13.517108,-165.80511
-15.550257,-161.92531
-13.295979,-156.67012
-15.605206,-154.88092
-16.12413,-163.25052
-15.367449,-168.01457
-14.155649,-173.87782
-14.888931,-152.26753
-15.387589,-162.65082
-15.403253,-162.0033
-13.849263,-151.08794
-14.915832,-159.38167
-16.684402,-149.39145
-15.413238,-160.08363
-14.837182,-157.2955
-14.862937,-147.57314
-14.426672,-154.51176
-15.256892,-168.09274
-15.151311,-166.0038
-16.04068,-154.22267
-16.31768,-166.40205
-15.785873,-155.9205
-14.82932,-160.46416
-15.684748,-149.06708
-17.175968,-165.3429
-14.213911,-159.59592
-15.080847,-155.12265
-15.460883,-158.35797
-15.438287,-162.85158
-14.967239,-160.85097
-14.745948,-150.04341
-13.666782,-164.35707
-16.100256,-159.83075
-14.571947,-159.79227
-17.085775,-156.97795
-13.843928,-163.72563
-15.383697,-162.897
-15.124545,-161.33714
-14.347149,-159.1675
-15.149351,-167.71666
-15.067449,-159.36653
-15.115903,-152.31122
-13.988476,-162.15903
-15.655565,-156.5123
-14.443358,-158.06773
-14.742959,-155.92397
-14.651617,-158.44391
-14.828023,-159.38371
-14.594376,-156.15146
-15.457587,-162.30179
-14.813631,-149.1721
-15.468967,-162.42519
-15.150121,-165.64777
-15.897003,-159.54182
-14.653481,-157.65965
-15.170623,-161.77954
-14.922749,-164.55913
-14.923746,-171.51332
-14.669159,-163.16631
-14.381562,-155.71642
-14.840597,-155.78339
-14.535369,-159.75523
-14.860155,-158.87946
-14.719941,-155.86008
-14.601352,-157.76698
-14.551944,-164.53185
-14.30294,-158.85019
-17.463125,-154.40968
-13.77592,-164.60739
-15.161348,-158.06775
-14.597536,-158.40015
-15.860536,-154.51663
-14.641879,-157.16385
-14.735847,-166.45314
-14.598304,-160.00487
-16.392443,-153.29805
-14.51757,-156.56061
-14.300523,-150.02571
-15.712894,-155.4424
-15.374164,-158.04427
-15.395966,-160.33368
-15.14487,-157.01971
-14.645446,-163.5983
-15.110098,-155.3737
-15.21299,-160.05013
-15.043866,-162.42993
-15.900631,-164.73938
-15.434399,-172.7294
-14.100844,-163.6805
-13.530258,-158.52209
-15.330394,-161.2773
-15.167414,-164.73189
-13.550129,-161.07053
-14.918604,-165.47131
-14.890318,-157.27061
-14.846283,-151.21434
-14.43883,-156.3252
-14.325678,-157.31615
-15.065071,-162.21957
-15.369241,-155.59158
-14.623684,-164.70264
-14.325888,-156.54373
-15.572358,-155.41487
-15.246358,-166.78278
-16.363573,-156.26041
-14.570776,-154.84337
-15.644039,-162.35484
-14.938274,-159.92493
-16.429676,-155.80151
-14.864819,-157.64467
-16.489136,-154.68169
-16.357443,-161.17804
-15.978877,-157.52858
-15.203933,-159.37785
-15.791996,-156.94821
-15.522058,-155.85913
-14.805689,-152.81786
-15.572001,-158.1057
-14.053996,-158.58896
-14.762069,-164.18539
-15.844761,-159.94633
-15.82653,-164.79449
-14.48691,-154.85545
-15.137538,-155.6893
-15.124372,-164.48778
-15.381192,-157.1853
-14.704457,-155.26849
-14.075432,-161.50241
-15.111343,-158.59053
-14.372952,-161.00113
-14.954194,-150.81169
-15.776227,-154.99509
-14.802798,-162.03215
-13.797788,-156.59776
-14.335478,-164.44438
-14.834861,-155.24236
-15.422108,-160.15085
-14.042636,-163.53691
-15.071925,-158.97688
-15.896379,-157.73277
-15.567392,-158.35869
-14.609523,-154.97198
-13.7756,-161.01495
-15.128878,-159.36023
-15.102418,-151.93781
-14.985083,-161.47202
-15.803988,-159.47476
-15.521656,-160.51221
-14.738299,-153.14368
-14.412746,-149.85529
-15.106985,-155.09187
-14.934459,-159.84229
-15.453328,-155.76788
-15.025245,-158.25951
-14.725207,-162.22343
-15.633267,-159.15298
-14.917901,-162.8624
-14.167168,-162.59764
-14.227709,-156.83498
-14.591755,-153.82379
-14.297114,-158.95531
-13.847436,-156.1001
-15.807932,-154.03639
-15.245492,-159.88191
-15.24837,-162.47983
-14.490313,-158.19524
-15.25623,-154.1228
-14.4429,-162.76961
-14.232424,-155.05208
-15.228296,-156.44484
-15.32957,-153.06972
-15.543883,-160.7498
-13.948854,-158.78323
-15.062779,-157.61194
-15.096379,-154.92546
-15.589624,-160.43864
-14.356613,-157.44305
-14.120646,-163.01826
-15.426841,-154.08298
-14.917656,-164.94164
-15.559672,-154.00801
-14.902538,-158.77843
-14.732962,-154.0593
-14.66428,-155.28653
-14.997126,-160.99086
-15.319783,-166.19139
-14.672318,-159.51712
-14.821507,-159.49928
-14.0978,-161.16414
-14.000817,-156.83345
-14.618327,-156.90164
-14.688735,-159.11545
-14.115596,-160.60425
-15.150582,-162.74507
-15.408292,-155.64496
-16.214537,-163.62964
-14.905551,-161.43307
-14.574607,-162.16441
-15.701585,-157.88358
-15.324164,-150.02675
-15.961053,-167.31256
-14.401975,-153.75925
-15.36287,-157.36522
-14.769778,-166.21109
-15.527034,-162.89423
-15.146589,-159.31178
-14.923841,-155.36224
-15.061653,-162.60889
-15.097252,-157.02301
-14.263051,-161.2757
-14.575583,-161.00481
-15.285798,-165.0569
-15.140053,-160.94902
-15.327698,-157.90067
-14.597486,-156.24707
-14.544945,-155.49469
-14.779942,-163.9509
-15.045284,-161.21294
-14.879694,-157.27795
-14.689939,-154.59381
-14.473195,-157.9043
-14.848106,-158.58456
-14.566452,-160.23071
-15.266842,-158.76091
-14.336062,-163.55759
-14.996696,-160.14174
-14.727959,-162.16884
-14.661674,-155.06425
-15.478796,-157.29721
-14.987369,-161.5807
-14.726297,-164.77292
-14.979156,-156.99048
-14.744094,-159.53896
-14.874135,-160.03447
-14.514291,-157.16978
-15.368856,-158.99391
-15.139591,-158.50066
-14.912997,-158.55705
-15.104405,-154.66125
-14.749912,-162.29578
-15.091316,-156.43651
-16.25614,-160.22325
-14.942937,-157.21576
-15.129433,-163.6129
-14.427064,-160.4678
-14.880737,-159.79974
-15.958916,-158.79619
-15.332958,-166.61374
-14.909637,-159.86084
-14.871326,-156.71817
-15.235546,-155.04674
-15.508114,-164.32024
-15.187882,-157.76636
-14.629925,-156.30402
-15.664278,-156.51892
-15.716003,-153.41599
-14.919526,-151.99107
-15.204863,-158.77563
-15.467911,-159.55597
-14.904633,-161.02167
-15.723207,-161.03587
-14.335964,-160.2231
-16.43367,-163.86804
-15.227118,-153.84023
-15.32726,-158.36514
-14.843587,-156.65558
-15.035522,-162.75859
-15.465235,-161.51326
-14.606349,-155.62589
-14.271709,-157.54926
-14.552286,-158.07669
-15.209259,-154.26935
-14.554996,-160.69693
-15.355294,-156.18217
-14.767155,-158.46321
-14.690681,-157.63905
-15.189597,-157.91013
-14.662483,-157.14009
-14.593169,-153.8748
-14.471034,-159.39235
-15.211572,-152.15688
-14.907194,-157.79407
-14.583617,-157.45439
-15.851558,-157.7861
-15.364965,-156.12898
-15.173852,-160.02061
-15.290124,-154.77588
-15.711123,-157.05222
-14.826475,-161.1245
-14.493519,-158.53902
-15.110554,-157.64441
-14.903966,-157.97101
-14.330797,-152.34412
-14.726985,-160.02309
-15.427951,-153.66125
-15.076766,-154.88988
-16.131432,-160.73238
-15.397224,-158.49695
-14.887214,-156.88391
-14.94816,-163.09607
-14.745966,-158.12166
-15.502919,-161.46834
-14.999121,-156.46892
-14.5052,-158.88655
-15.050387,-157.4968
-14.90639,-160.38345
-14.822073,-156.93073
-15.294816,-160.79242
-14.901032,-159.92128
-15.240513,-162.55368
-15.162126,-158.87021
-15.070099,-156.27536
-15.54523,-158.49243
-15.025507,-163.07809
-14.648284,-162.43239
-14.54809,-159.56207
-14.733195,-157.45703
-14.732635,-166.21904
-15.222702,-157.44211
-14.875481,-158.97839
-15.530514,-157.99901
-15.395047,-163.15169
-15.422743,-153.73604
-15.070956,-162.36694
-14.753204,-156.36331
-14.768038,-154.29771
-15.003245,-157.64166
-15.06785,-159.57738
-15.393316,-158.6613
-14.451867,-154.85886
-15.17066,-156.01385
-15.262633,-159.60448
-15.165191,-162.30556
-15.244447,-158.90419
-15.568776,-157.6832
-15.444968,-159.45613
-15.712192,-161.50632
-14.789773,-160.57745
-15.341606,-156.62012
-15.131002,-160.14552
-15.013569,-158.23129
-14.774432,-158.075
-14.757677,-161.46442
-15.116249,-157.97595
-14.608912,-163.78818
-14.906486,-160.01634
-15.204868,-155.10643
-14.571838,-158.229
-14.698758,-161.47461
-14.966231,-155.29115
-15.079428,-158.2182
-15.017727,-162.26363
-14.774839,-160.05183
-14.852235,-159.39592
-15.40182,-158.42979
-15.172829,-155.81343
-15.557014,-158.57913
-15.362173,-158.14459
-15.423131,-160.83061
-14.862827,-160.13782
