CITIFILE A.01.01
!Agilent Technologies,N5230C,MY48100142,A.08.04.10
!Agilent N5230C: A.08.04.10
!Format: LogMag/Angle
!Date: Friday, February 14, 2020 16:59:10
NAME CH1_DATA
VAR Power MAG 801
DATA S11 DBANGLE
DATA S21 DBANGLE
DATA S12 DBANGLE
DATA S22 DBANGLE
VAR_LIST_BEGIN
-40
-39.975
-39.95
-39.925
-39.9
-39.875
-39.85
-39.825
-39.8
-39.775
-39.75
-39.725
-39.7
-39.675
-39.65
-39.625
-39.6
-39.575
-39.55
-39.525
-39.5
-39.475
-39.45
-39.425
-39.4
-39.375
-39.35
-39.325
-39.3
-39.275
-39.25
-39.225
-39.2
-39.175
-39.15
-39.125
-39.1
-39.075
-39.05
-39.025
-39
-38.975
-38.95
-38.925
-38.9
-38.875
-38.85
-38.825
-38.8
-38.775
-38.75
-38.725
-38.7
-38.675
-38.65
-38.625
-38.6
-38.575
-38.55
-38.525
-38.5
-38.475
-38.45
-38.425
-38.4
-38.375
-38.35
-38.325
-38.3
-38.275
-38.25
-38.225
-38.2
-38.175
-38.15
-38.125
-38.1
-38.075
-38.05
-38.025
-38
-37.975
-37.95
-37.925
-37.9
-37.875
-37.85
-37.825
-37.8
-37.775
-37.75
-37.725
-37.7
-37.675
-37.65
-37.625
-37.6
-37.575
-37.55
-37.525
-37.5
-37.475
-37.45
-37.425
-37.4
-37.375
-37.35
-37.325
-37.3
-37.275
-37.25
-37.225
-37.2
-37.175
-37.15
-37.125
-37.1
-37.075
-37.05
-37.025
-37
-36.975
-36.95
-36.925
-36.9
-36.875
-36.85
-36.825
-36.8
-36.775
-36.75
-36.725
-36.7
-36.675
-36.65
-36.625
-36.6
-36.575
-36.55
-36.525
-36.5
-36.475
-36.45
-36.425
-36.4
-36.375
-36.35
-36.325
-36.3
-36.275
-36.25
-36.225
-36.2
-36.175
-36.15
-36.125
-36.1
-36.075
-36.05
-36.025
-36
-35.975
-35.95
-35.925
-35.9
-35.875
-35.85
-35.825
-35.8
-35.775
-35.75
-35.725
-35.7
-35.675
-35.65
-35.625
-35.6
-35.575
-35.55
-35.525
-35.5
-35.475
-35.45
-35.425
-35.4
-35.375
-35.35
-35.325
-35.3
-35.275
-35.25
-35.225
-35.2
-35.175
-35.15
-35.125
-35.1
-35.075
-35.05
-35.025
-35
-34.975
-34.95
-34.925
-34.9
-34.875
-34.85
-34.825
-34.8
-34.775
-34.75
-34.725
-34.7
-34.675
-34.65
-34.625
-34.6
-34.575
-34.55
-34.525
-34.5
-34.475
-34.45
-34.425
-34.4
-34.375
-34.35
-34.325
-34.3
-34.275
-34.25
-34.225
-34.2
-34.175
-34.15
-34.125
-34.1
-34.075
-34.05
-34.025
-34
-33.975
-33.95
-33.925
-33.9
-33.875
-33.85
-33.825
-33.8
-33.775
-33.75
-33.725
-33.7
-33.675
-33.65
-33.625
-33.6
-33.575
-33.55
-33.525
-33.5
-33.475
-33.45
-33.425
-33.4
-33.375
-33.35
-33.325
-33.3
-33.275
-33.25
-33.225
-33.2
-33.175
-33.15
-33.125
-33.1
-33.075
-33.05
-33.025
-33
-32.975
-32.95
-32.925
-32.9
-32.875
-32.85
-32.825
-32.8
-32.775
-32.75
-32.725
-32.7
-32.675
-32.65
-32.625
-32.6
-32.575
-32.55
-32.525
-32.5
-32.475
-32.45
-32.425
-32.4
-32.375
-32.35
-32.325
-32.3
-32.275
-32.25
-32.225
-32.2
-32.175
-32.15
-32.125
-32.1
-32.075
-32.05
-32.025
-32
-31.975
-31.95
-31.925
-31.9
-31.875
-31.85
-31.825
-31.8
-31.775
-31.75
-31.725
-31.7
-31.675
-31.65
-31.625
-31.6
-31.575
-31.55
-31.525
-31.5
-31.475
-31.45
-31.425
-31.4
-31.375
-31.35
-31.325
-31.3
-31.275
-31.25
-31.225
-31.2
-31.175
-31.15
-31.125
-31.1
-31.075
-31.05
-31.025
-31
-30.975
-30.95
-30.925
-30.9
-30.875
-30.85
-30.825
-30.8
-30.775
-30.75
-30.725
-30.7
-30.675
-30.65
-30.625
-30.6
-30.575
-30.55
-30.525
-30.5
-30.475
-30.45
-30.425
-30.4
-30.375
-30.35
-30.325
-30.3
-30.275
-30.25
-30.225
-30.2
-30.175
-30.15
-30.125
-30.1
-30.075
-30.05
-30.025
-30
-29.975
-29.95
-29.925
-29.9
-29.875
-29.85
-29.825
-29.8
-29.775
-29.75
-29.725
-29.7
-29.675
-29.65
-29.625
-29.6
-29.575
-29.55
-29.525
-29.5
-29.475
-29.45
-29.425
-29.4
-29.375
-29.35
-29.325
-29.3
-29.275
-29.25
-29.225
-29.2
-29.175
-29.15
-29.125
-29.1
-29.075
-29.05
-29.025
-29
-28.975
-28.95
-28.925
-28.9
-28.875
-28.85
-28.825
-28.8
-28.775
-28.75
-28.725
-28.7
-28.675
-28.65
-28.625
-28.6
-28.575
-28.55
-28.525
-28.5
-28.475
-28.45
-28.425
-28.4
-28.375
-28.35
-28.325
-28.3
-28.275
-28.25
-28.225
-28.2
-28.175
-28.15
-28.125
-28.1
-28.075
-28.05
-28.025
-28
-27.975
-27.95
-27.925
-27.9
-27.875
-27.85
-27.825
-27.8
-27.775
-27.75
-27.725
-27.7
-27.675
-27.65
-27.625
-27.6
-27.575
-27.55
-27.525
-27.5
-27.475
-27.45
-27.425
-27.4
-27.375
-27.35
-27.325
-27.3
-27.275
-27.25
-27.225
-27.2
-27.175
-27.15
-27.125
-27.1
-27.075
-27.05
-27.025
-27
-26.975
-26.95
-26.925
-26.9
-26.875
-26.85
-26.825
-26.8
-26.775
-26.75
-26.725
-26.7
-26.675
-26.65
-26.625
-26.6
-26.575
-26.55
-26.525
-26.5
-26.475
-26.45
-26.425
-26.4
-26.375
-26.35
-26.325
-26.3
-26.275
-26.25
-26.225
-26.2
-26.175
-26.15
-26.125
-26.1
-26.075
-26.05
-26.025
-26
-25.975
-25.95
-25.925
-25.9
-25.875
-25.85
-25.825
-25.8
-25.775
-25.75
-25.725
-25.7
-25.675
-25.65
-25.625
-25.6
-25.575
-25.55
-25.525
-25.5
-25.475
-25.45
-25.425
-25.4
-25.375
-25.35
-25.325
-25.3
-25.275
-25.25
-25.225
-25.2
-25.175
-25.15
-25.125
-25.1
-25.075
-25.05
-25.025
-25
-24.975
-24.95
-24.925
-24.9
-24.875
-24.85
-24.825
-24.8
-24.775
-24.75
-24.725
-24.7
-24.675
-24.65
-24.625
-24.6
-24.575
-24.55
-24.525
-24.5
-24.475
-24.45
-24.425
-24.4
-24.375
-24.35
-24.325
-24.3
-24.275
-24.25
-24.225
-24.2
-24.175
-24.15
-24.125
-24.1
-24.075
-24.05
-24.025
-24
-23.975
-23.95
-23.925
-23.9
-23.875
-23.85
-23.825
-23.8
-23.775
-23.75
-23.725
-23.7
-23.675
-23.65
-23.625
-23.6
-23.575
-23.55
-23.525
-23.5
-23.475
-23.45
-23.425
-23.4
-23.375
-23.35
-23.325
-23.3
-23.275
-23.25
-23.225
-23.2
-23.175
-23.15
-23.125
-23.1
-23.075
-23.05
-23.025
-23
-22.975
-22.95
-22.925
-22.9
-22.875
-22.85
-22.825
-22.8
-22.775
-22.75
-22.725
-22.7
-22.675
-22.65
-22.625
-22.6
-22.575
-22.55
-22.525
-22.5
-22.475
-22.45
-22.425
-22.4
-22.375
-22.35
-22.325
-22.3
-22.275
-22.25
-22.225
-22.2
-22.175
-22.15
-22.125
-22.1
-22.075
-22.05
-22.025
-22
-21.975
-21.95
-21.925
-21.9
-21.875
-21.85
-21.825
-21.8
-21.775
-21.75
-21.725
-21.7
-21.675
-21.65
-21.625
-21.6
-21.575
-21.55
-21.525
-21.5
-21.475
-21.45
-21.425
-21.4
-21.375
-21.35
-21.325
-21.3
-21.275
-21.25
-21.225
-21.2
-21.175
-21.15
-21.125
-21.1
-21.075
-21.05
-21.025
-21
-20.975
-20.95
-20.925
-20.9
-20.875
-20.85
-20.825
-20.8
-20.775
-20.75
-20.725
-20.7
-20.675
-20.65
-20.625
-20.6
-20.575
-20.55
-20.525
-20.5
-20.475
-20.45
-20.425
-20.4
-20.375
-20.35
-20.325
-20.3
-20.275
-20.25
-20.225
-20.2
-20.175
-20.15
-20.125
-20.1
-20.075
-20.05
-20.025
-20
VAR_LIST_END
BEGIN
-16.18943,-160.62697
-14.111673,-157.76396
-14.939294,-157.59555
-14.107052,-159.48244
-14.979591,-153.12756
-15.534092,-154.17693
-17.166082,-158.39679
-14.541523,-168.19055
-14.524205,-157.05838
-15.470982,-169.1066
-14.797956,-162.69666
-14.960773,-161.23859
-14.665228,-161.17734
-14.598885,-158.25255
-14.554615,-163.33238
-15.989911,-166.97971
-14.333296,-166.57443
-15.849216,-163.02159
-14.625422,-154.70621
-14.889834,-164.95573
-15.099695,-153.87419
-14.971865,-161.64697
-14.884552,-165.33809
-16.201447,-153.03966
-15.350825,-147.48854
-14.541064,-165.17966
-15.426579,-164.12149
-13.272325,-156.00331
-14.792136,-155.69028
-14.46088,-162.8454
-13.966952,-158.94165
-16.063534,-158.92256
-15.414723,-160.58107
-15.382058,-161.91225
-15.446287,-154.57414
-15.969641,-155.07217
-14.943202,-163.75847
-15.680165,-156.22536
-15.940287,-152.63628
-15.411823,-164.8172
-15.647422,-161.44826
-14.227068,-160.74321
-15.278664,-153.73747
-15.460653,-158.24829
-14.576921,-158.39943
-14.942286,-153.84152
-14.94421,-166.43645
-14.960358,-159.62793
-15.758177,-163.81554
-16.265749,-159.82957
-14.366872,-159.10004
-14.864212,-156.56
-16.057606,-158.04752
-15.378921,-158.0361
-15.221789,-159.86905
-14.971502,-157.2737
-15.706926,-154.7999
-15.257072,-157.78232
-15.002335,-160.32135
-15.494655,-159.06491
-15.111101,-153.9511
-13.807084,-163.80499
-14.764027,-164.00641
-14.108909,-158.99562
-14.762631,-161.39833
-15.054853,-156.15868
-15.303105,-161.23819
-14.754988,-156.50964
-15.023712,-157.60674
-15.759174,-158.00345
-15.492403,-164.0822
-14.374479,-160.83734
-15.370298,-161.47998
-16.877525,-166.14328
-14.45748,-159.27527
-14.626431,-160.68996
-15.710755,-160.25006
-16.231298,-153.98497
-14.506362,-160.10463
-15.930871,-158.61525
-15.02865,-160.84061
-14.838578,-154.37988
-15.132359,-162.37045
-15.690204,-165.17627
-15.272541,-159.34578
-15.163049,-158.72809
-14.649815,-157.58067
-15.140891,-162.61238
-15.129199,-161.80406
-14.65924,-158.90944
-15.602838,-157.95915
-14.8619,-154.29108
-13.714956,-157.29837
-15.423835,-160.96451
-15.322252,-157.96883
-15.303733,-155.08054
-15.738366,-162.64487
-15.105791,-159.15332
-14.602965,-157.2948
-15.718671,-154.36652
-14.626895,-152.48877
-15.402256,-159.96214
-14.889067,-165.77794
-15.875044,-153.66174
-15.209484,-162.43396
-15.204296,-162.981
-15.578938,-166.71237
-14.9495,-156.92189
-14.56377,-163.31566
-14.740622,-160.68799
-14.871308,-159.98141
-14.330213,-160.47632
-15.185851,-160.71748
-14.705768,-155.97601
-15.680255,-160.81395
-14.75292,-161.3817
-14.338384,-165.00966
-14.956797,-154.8205
-14.256147,-159.6306
-15.219434,-159.92101
-14.667462,-159.53145
-14.447648,-158.38593
-14.726271,-161.31436
-15.828188,-157.37787
-15.306574,-157.87892
-14.751218,-163.57123
-14.641025,-161.53922
-15.810795,-157.87357
-15.931324,-163.03
-14.544755,-159.02895
-15.6657,-166.37083
-15.133487,-162.20152
-14.583169,-159.06216
-15.086249,-159.2798
-14.867996,-164.62029
-14.674059,-159.01796
-14.84773,-152.62303
-15.182391,-161.90108
-15.107537,-161.90591
-15.14555,-159.84387
-15.045877,-161.34595
-15.443587,-159.39717
-15.486624,-166.62428
-15.931537,-161.54741
-15.12532,-158.55603
-15.421497,-154.78984
-15.664686,-159.2626
-15.49675,-162.05904
-15.355155,-161.7832
-14.959513,-157.87941
-15.12509,-160.98741
-14.734025,-162.04034
-15.256577,-155.89809
-15.969467,-161.70938
-15.152639,-157.35732
-14.413928,-165.36806
-14.769232,-162.19682
-15.780311,-157.94916
-15.119276,-156.9985
-15.366985,-160.80956
-14.560986,-156.21082
-14.689224,-163.91721
-14.804794,-168.4753
-14.800189,-162.67906
-14.851552,-163.87846
-14.579905,-158.03783
-15.572187,-159.66589
-15.49301,-157.05063
-14.557177,-159.09564
-14.906273,-158.06645
-15.239697,-152.86674
-15.089761,-165.24242
-15.554461,-163.56827
-15.103572,-158.05016
-15.874782,-163.49965
-14.198186,-160.83018
-14.859385,-161.17868
-14.49118,-160.62555
-15.562986,-159.14841
-14.252723,-155.49089
-15.281902,-160.34679
-15.403764,-158.08838
-14.890404,-160.52901
-15.223163,-154.00623
-15.761343,-161.9827
-14.952531,-157.26378
-15.425823,-160.38901
-15.507179,-158.96782
-15.453774,-156.88959
-15.752484,-160.01512
-14.434344,-162.70702
-15.420638,-157.56534
-15.328473,-156.77434
-15.039962,-159.44807
-15.262003,-160.00517
-14.652427,-158.53166
-15.42667,-165.82947
-15.020761,-161.73802
-14.573161,-160.8772
-15.72491,-158.51909
-15.306054,-161.56349
-15.099417,-159.40634
-15.522038,-158.98325
-15.410674,-155.65511
-14.802865,-158.31418
-14.437703,-160.87445
-15.271317,-165.94429
-15.555228,-162.88341
-15.11872,-158.4541
-15.625861,-162.7668
-15.334378,-162.04619
-15.250275,-160.16682
-14.653296,-158.99345
-15.545418,-162.19893
-15.047585,-161.87213
-15.130464,-163.53708
-14.947155,-159.07135
-16.046537,-160.91434
-14.661407,-160.50478
-15.317579,-162.34525
-14.243179,-158.21205
-14.767795,-160.82806
-14.614489,-156.01042
-15.003474,-162.12111
-15.593204,-161.19023
-14.647051,-156.75098
-14.886113,-159.3161
-14.955608,-155.51149
-15.231207,-163.08473
-14.474674,-154.44267
-15.104364,-157.02803
-15.758721,-166.5744
-15.410171,-158.42397
-15.100805,-157.8194
-15.344506,-160.73578
-14.931859,-157.95111
-15.55318,-162.01387
-15.002371,-157.61575
-14.805078,-162.79425
-15.683848,-159.44455
-15.689604,-160.37054
-15.489955,-158.89459
-15.376637,-162.52415
-14.873396,-162.27014
-14.713389,-158.61748
-15.164873,-161.54094
-14.910951,-159.24173
-15.748892,-157.2343
-15.212601,-160.68633
-15.11648,-160.36607
-14.447771,-160.59154
-14.938686,-158.30598
-15.048882,-159.02998
-15.273247,-155.82994
-15.575113,-160.2594
-14.692678,-163.63368
-15.098858,-154.61732
-14.788624,-162.38583
-15.013057,-161.77588
-14.786005,-159.30638
-15.636844,-157.21135
-15.280328,-161.29848
-15.105182,-159.93674
-14.374148,-161.41148
-14.717793,-161.28879
-15.574967,-159.11263
-15.598273,-158.485
-14.808481,-162.13799
-14.888721,-160.7963
-14.72498,-163.08412
-15.096006,-159.37207
-14.662785,-154.75752
-15.268314,-155.40196
-14.966993,-158.25067
-15.482964,-157.39597
-15.725649,-159.16179
-14.610431,-159.54796
-15.555397,-161.54013
-14.341069,-158.895
-15.484511,-159.96532
-14.898752,-157.513
-15.015569,-159.22687
-15.396893,-164.26613
-15.419466,-161.53474
-15.497209,-159.17909
-15.092085,-160.18559
-15.010701,-162.48283
-15.332904,-156.17905
-15.086158,-163.84274
-15.391452,-161.25482
-15.209142,-161.38185
-15.333404,-160.43112
-14.940927,-159.91611
-14.436137,-160.78394
-15.641459,-157.01862
-15.784676,-154.54471
-15.31206,-158.96323
-15.694746,-156.17917
-14.648643,-163.91315
-15.06605,-157.99765
-14.956133,-160.52118
-14.878935,-159.61488
-14.728144,-164.08157
-14.991951,-160.86308
-15.011789,-159.39917
-14.995798,-159.9424
-14.818369,-160.07127
-15.006826,-159.12889
-14.942554,-161.16391
-15.036839,-156.76297
-14.885056,-159.64214
-15.699534,-161.15155
-15.121593,-160.52853
-15.337363,-158.68547
-15.577281,-157.63202
-15.600554,-159.26642
-15.361609,-160.28336
-15.247775,-158.09894
-15.624196,-161.3454
-14.818997,-163.27142
-15.21514,-156.84439
-15.650589,-159.60863
-14.825915,-157.58728
-14.868702,-161.41988
-14.572737,-161.08255
-15.127238,-160.8405
-14.895439,-160.58177
-15.419251,-154.6189
-15.125042,-158.26289
-14.924119,-159.97092
-14.63513,-161.71838
-14.936662,-155.38959
-14.912011,-159.49928
-14.799232,-162.73099
-15.181444,-161.86684
-14.906472,-154.04008
-15.802014,-159.38429
-15.36865,-159.81673
-15.286595,-160.80112
-15.595082,-159.08348
-14.269424,-158.38142
-15.066408,-160.73335
-15.054555,-159.41005
-15.283578,-157.94075
-15.888126,-157.83321
-15.173955,-158.78197
-14.937174,-163.41321
-15.095009,-155.44785
-15.127794,-160.25163
-15.033586,-159.44753
-15.626008,-161.26389
-15.112567,-160.26167
-14.620728,-161.92075
-15.039495,-162.49403
-14.773108,-159.75201
-15.042857,-159.30414
-14.966517,-160.97546
-15.219221,-158.46634
-15.529678,-159.33415
-14.788917,-161.31734
-14.936576,-160.62828
-14.852166,-156.52756
-14.664942,-159.50824
-15.177845,-158.59193
-15.140849,-158.75975
-15.272867,-158.43739
-14.925724,-157.64119
-15.072662,-159.18428
-15.169733,-162.78752
-15.010221,-160.23373
-14.982799,-159.422
-14.829557,-161.66049
-15.015659,-164.46957
-15.040851,-161.79117
-14.823225,-161.58896
-15.010273,-161.26659
-14.729889,-156.91603
-15.196282,-156.90013
-14.839119,-159.8013
-14.879606,-157.58585
-14.988725,-159.09305
-15.253971,-157.1539
-14.674857,-160.4554
-15.512265,-157.5558
-14.67868,-158.21019
-14.902319,-159.68092
-15.35824,-159.97417
-15.135509,-159.82507
-14.912391,-159.88985
-15.178406,-160.13071
-15.038506,-158.283
-14.677894,-159.99417
-15.260979,-160.07495
-15.344327,-164.6266
-15.437648,-159.95572
-15.397331,-158.15927
-15.159015,-160.96155
-15.280194,-157.43666
-14.971449,-158.00497
-14.982766,-160.68802
-15.33983,-158.27104
-14.533547,-157.70073
-15.332028,-158.53229
-14.928906,-158.26497
-15.197575,-157.42471
-14.823857,-158.87273
-14.837609,-160.05782
-15.319483,-160.42349
-15.278404,-160.78937
-15.009879,-159.2804
-14.933116,-157.67178
-15.247723,-158.74719
-15.005164,-158.24327
-15.468987,-158.44211
-15.674005,-159.08264
-15.017566,-158.07863
-15.539392,-160.73073
-14.873385,-159.67636
-15.091642,-157.96915
-15.043276,-161.73206
-14.969031,-159.39087
-14.871024,-160.38295
-15.179427,-160.94963
-15.306168,-161.69193
-15.602921,-160.11127
-14.963834,-160.02016
-14.820944,-160.08461
-14.961044,-157.8855
-15.036662,-159.10423
-14.837955,-163.52112
-15.017093,-159.39325
-15.072991,-162.30128
-15.036152,-159.01613
-15.11082,-160.99352
-15.035557,-160.7599
-15.108735,-160.67523
-15.298635,-160.43599
-14.993346,-159.98189
-15.127045,-159.09421
-14.952969,-157.92326
-15.310909,-159.91751
-15.335659,-161.41708
-15.006211,-160.38855
-15.609872,-158.64764
-15.10464,-161.69122
-15.216599,-160.7688
-15.338661,-160.81615
-14.927721,-162.9317
-14.719353,-160.61375
-15.110061,-159.46472
-14.968634,-160.20352
-15.396961,-160.51035
-15.023165,-160.97247
-14.919419,-160.23204
-14.873885,-161.60258
-15.093439,-159.05429
-15.331426,-160.66077
-15.076171,-157.12666
-15.107529,-158.80392
-15.093175,-158.9866
-15.076356,-159.2718
-14.969832,-159.30162
-14.916849,-160.03725
-15.108021,-157.92722
-14.822453,-159.59529
-15.361524,-156.57588
-15.145969,-158.73143
-15.118019,-158.32837
-14.985755,-160.08507
-15.214263,-158.75281
-15.140903,-160.8362
-14.880005,-158.08351
-15.131501,-158.76173
-15.128699,-161.60605
-14.422552,-159.92795
-15.123442,-161.14938
-15.248241,-160.05821
-14.959921,-159.6176
-15.082825,-160.15379
-14.672,-160.7657
-14.954837,-160.02518
-14.920227,-160.63228
-15.234143,-161.03067
-15.136942,-160.20712
-14.808651,-159.90215
-14.922824,-160.04288
-15.10417,-160.51657
-14.78715,-162.09676
-15.229464,-158.05353
-15.05156,-156.85585
-15.028955,-160.21582
-15.043345,-158.2993
-15.239649,-159.87872
-15.148385,-157.38803
-15.043635,-160.46471
-15.202868,-158.62039
-15.076868,-160.97763
-14.97524,-159.19644
-14.955815,-159.8676
-15.208137,-157.22708
-15.45824,-159.82246
-15.291231,-159.43384
-14.60195,-159.03282
-15.023452,-158.38896
-15.116107,-159.87238
-14.867977,-159.00322
-14.808913,-158.85269
-14.988272,-159.99614
-14.869776,-160.00768
-14.662986,-158.55173
-15.119161,-161.66046
-14.967883,-159.46037
-14.911344,-158.85222
-15.020246,-157.91557
-14.938592,-160.02281
-14.930598,-160.91068
-15.011173,-162.12769
-14.843242,-161.05319
-14.590912,-160.98065
-14.956296,-160.16635
-14.840543,-158.72862
-15.044892,-158.16525
-14.892939,-160.02534
-15.088544,-159.42178
-15.13886,-159.49704
-15.335855,-159.98694
-15.076469,-158.87952
-15.171874,-158.28615
-14.592163,-160.17528
-15.080259,-159.89073
-15.273872,-159.90823
-15.054643,-159.42863
-15.038836,-158.79404
-14.974215,-159.22083
-15.175764,-159.00119
-15.275505,-160.41966
-14.930548,-158.67831
-14.935428,-160.08682
-14.949681,-161.44518
-14.943009,-160.31538
-15.22061,-158.95889
-14.946859,-161.59776
-14.766648,-160.85748
-15.256467,-160.36377
-14.807335,-160.04771
-15.233166,-157.95081
-15.280692,-159.467
-14.938318,-159.59492
-15.387387,-160.23558
-15.165668,-159.43394
-15.32856,-159.38916
-15.133355,-161.04628
-15.068988,-158.81073
-15.023493,-160.0853
-14.884893,-160.90077
-15.016214,-159.81046
-15.131683,-159.31541
-15.182382,-159.35963
-15.204158,-159.49107
-15.012105,-161.74382
-15.043885,-158.8765
-15.026326,-161.4946
-14.861994,-160.69241
-15.183355,-159.79337
-15.028397,-159.4967
-14.969746,-160.38554
-15.275076,-159.58899
-15.150716,-161.33479
-15.278103,-160.35472
-15.111401,-161.41431
-14.692148,-159.42673
-15.282358,-159.80095
-15.035164,-160.23604
-15.14762,-158.99899
-15.067891,-162.18373
-14.87231,-159.97821
