CITIFILE A.01.01
!Agilent Technologies,N5230C,MY48100142,A.08.04.10
!Agilent N5230C: A.08.04.10
!Format: LogMag/Angle
!Date: Thursday, July 30, 2020 16:33:06
NAME CH1_DATA
VAR Power MAG 801
DATA S11 DBANGLE
DATA S21 DBANGLE
DATA S12 DBANGLE
DATA S22 DBANGLE
VAR_LIST_BEGIN
-40
-39.975
-39.95
-39.925
-39.9
-39.875
-39.85
-39.825
-39.8
-39.775
-39.75
-39.725
-39.7
-39.675
-39.65
-39.625
-39.6
-39.575
-39.55
-39.525
-39.5
-39.475
-39.45
-39.425
-39.4
-39.375
-39.35
-39.325
-39.3
-39.275
-39.25
-39.225
-39.2
-39.175
-39.15
-39.125
-39.1
-39.075
-39.05
-39.025
-39
-38.975
-38.95
-38.925
-38.9
-38.875
-38.85
-38.825
-38.8
-38.775
-38.75
-38.725
-38.7
-38.675
-38.65
-38.625
-38.6
-38.575
-38.55
-38.525
-38.5
-38.475
-38.45
-38.425
-38.4
-38.375
-38.35
-38.325
-38.3
-38.275
-38.25
-38.225
-38.2
-38.175
-38.15
-38.125
-38.1
-38.075
-38.05
-38.025
-38
-37.975
-37.95
-37.925
-37.9
-37.875
-37.85
-37.825
-37.8
-37.775
-37.75
-37.725
-37.7
-37.675
-37.65
-37.625
-37.6
-37.575
-37.55
-37.525
-37.5
-37.475
-37.45
-37.425
-37.4
-37.375
-37.35
-37.325
-37.3
-37.275
-37.25
-37.225
-37.2
-37.175
-37.15
-37.125
-37.1
-37.075
-37.05
-37.025
-37
-36.975
-36.95
-36.925
-36.9
-36.875
-36.85
-36.825
-36.8
-36.775
-36.75
-36.725
-36.7
-36.675
-36.65
-36.625
-36.6
-36.575
-36.55
-36.525
-36.5
-36.475
-36.45
-36.425
-36.4
-36.375
-36.35
-36.325
-36.3
-36.275
-36.25
-36.225
-36.2
-36.175
-36.15
-36.125
-36.1
-36.075
-36.05
-36.025
-36
-35.975
-35.95
-35.925
-35.9
-35.875
-35.85
-35.825
-35.8
-35.775
-35.75
-35.725
-35.7
-35.675
-35.65
-35.625
-35.6
-35.575
-35.55
-35.525
-35.5
-35.475
-35.45
-35.425
-35.4
-35.375
-35.35
-35.325
-35.3
-35.275
-35.25
-35.225
-35.2
-35.175
-35.15
-35.125
-35.1
-35.075
-35.05
-35.025
-35
-34.975
-34.95
-34.925
-34.9
-34.875
-34.85
-34.825
-34.8
-34.775
-34.75
-34.725
-34.7
-34.675
-34.65
-34.625
-34.6
-34.575
-34.55
-34.525
-34.5
-34.475
-34.45
-34.425
-34.4
-34.375
-34.35
-34.325
-34.3
-34.275
-34.25
-34.225
-34.2
-34.175
-34.15
-34.125
-34.1
-34.075
-34.05
-34.025
-34
-33.975
-33.95
-33.925
-33.9
-33.875
-33.85
-33.825
-33.8
-33.775
-33.75
-33.725
-33.7
-33.675
-33.65
-33.625
-33.6
-33.575
-33.55
-33.525
-33.5
-33.475
-33.45
-33.425
-33.4
-33.375
-33.35
-33.325
-33.3
-33.275
-33.25
-33.225
-33.2
-33.175
-33.15
-33.125
-33.1
-33.075
-33.05
-33.025
-33
-32.975
-32.95
-32.925
-32.9
-32.875
-32.85
-32.825
-32.8
-32.775
-32.75
-32.725
-32.7
-32.675
-32.65
-32.625
-32.6
-32.575
-32.55
-32.525
-32.5
-32.475
-32.45
-32.425
-32.4
-32.375
-32.35
-32.325
-32.3
-32.275
-32.25
-32.225
-32.2
-32.175
-32.15
-32.125
-32.1
-32.075
-32.05
-32.025
-32
-31.975
-31.95
-31.925
-31.9
-31.875
-31.85
-31.825
-31.8
-31.775
-31.75
-31.725
-31.7
-31.675
-31.65
-31.625
-31.6
-31.575
-31.55
-31.525
-31.5
-31.475
-31.45
-31.425
-31.4
-31.375
-31.35
-31.325
-31.3
-31.275
-31.25
-31.225
-31.2
-31.175
-31.15
-31.125
-31.1
-31.075
-31.05
-31.025
-31
-30.975
-30.95
-30.925
-30.9
-30.875
-30.85
-30.825
-30.8
-30.775
-30.75
-30.725
-30.7
-30.675
-30.65
-30.625
-30.6
-30.575
-30.55
-30.525
-30.5
-30.475
-30.45
-30.425
-30.4
-30.375
-30.35
-30.325
-30.3
-30.275
-30.25
-30.225
-30.2
-30.175
-30.15
-30.125
-30.1
-30.075
-30.05
-30.025
-30
-29.975
-29.95
-29.925
-29.9
-29.875
-29.85
-29.825
-29.8
-29.775
-29.75
-29.725
-29.7
-29.675
-29.65
-29.625
-29.6
-29.575
-29.55
-29.525
-29.5
-29.475
-29.45
-29.425
-29.4
-29.375
-29.35
-29.325
-29.3
-29.275
-29.25
-29.225
-29.2
-29.175
-29.15
-29.125
-29.1
-29.075
-29.05
-29.025
-29
-28.975
-28.95
-28.925
-28.9
-28.875
-28.85
-28.825
-28.8
-28.775
-28.75
-28.725
-28.7
-28.675
-28.65
-28.625
-28.6
-28.575
-28.55
-28.525
-28.5
-28.475
-28.45
-28.425
-28.4
-28.375
-28.35
-28.325
-28.3
-28.275
-28.25
-28.225
-28.2
-28.175
-28.15
-28.125
-28.1
-28.075
-28.05
-28.025
-28
-27.975
-27.95
-27.925
-27.9
-27.875
-27.85
-27.825
-27.8
-27.775
-27.75
-27.725
-27.7
-27.675
-27.65
-27.625
-27.6
-27.575
-27.55
-27.525
-27.5
-27.475
-27.45
-27.425
-27.4
-27.375
-27.35
-27.325
-27.3
-27.275
-27.25
-27.225
-27.2
-27.175
-27.15
-27.125
-27.1
-27.075
-27.05
-27.025
-27
-26.975
-26.95
-26.925
-26.9
-26.875
-26.85
-26.825
-26.8
-26.775
-26.75
-26.725
-26.7
-26.675
-26.65
-26.625
-26.6
-26.575
-26.55
-26.525
-26.5
-26.475
-26.45
-26.425
-26.4
-26.375
-26.35
-26.325
-26.3
-26.275
-26.25
-26.225
-26.2
-26.175
-26.15
-26.125
-26.1
-26.075
-26.05
-26.025
-26
-25.975
-25.95
-25.925
-25.9
-25.875
-25.85
-25.825
-25.8
-25.775
-25.75
-25.725
-25.7
-25.675
-25.65
-25.625
-25.6
-25.575
-25.55
-25.525
-25.5
-25.475
-25.45
-25.425
-25.4
-25.375
-25.35
-25.325
-25.3
-25.275
-25.25
-25.225
-25.2
-25.175
-25.15
-25.125
-25.1
-25.075
-25.05
-25.025
-25
-24.975
-24.95
-24.925
-24.9
-24.875
-24.85
-24.825
-24.8
-24.775
-24.75
-24.725
-24.7
-24.675
-24.65
-24.625
-24.6
-24.575
-24.55
-24.525
-24.5
-24.475
-24.45
-24.425
-24.4
-24.375
-24.35
-24.325
-24.3
-24.275
-24.25
-24.225
-24.2
-24.175
-24.15
-24.125
-24.1
-24.075
-24.05
-24.025
-24
-23.975
-23.95
-23.925
-23.9
-23.875
-23.85
-23.825
-23.8
-23.775
-23.75
-23.725
-23.7
-23.675
-23.65
-23.625
-23.6
-23.575
-23.55
-23.525
-23.5
-23.475
-23.45
-23.425
-23.4
-23.375
-23.35
-23.325
-23.3
-23.275
-23.25
-23.225
-23.2
-23.175
-23.15
-23.125
-23.1
-23.075
-23.05
-23.025
-23
-22.975
-22.95
-22.925
-22.9
-22.875
-22.85
-22.825
-22.8
-22.775
-22.75
-22.725
-22.7
-22.675
-22.65
-22.625
-22.6
-22.575
-22.55
-22.525
-22.5
-22.475
-22.45
-22.425
-22.4
-22.375
-22.35
-22.325
-22.3
-22.275
-22.25
-22.225
-22.2
-22.175
-22.15
-22.125
-22.1
-22.075
-22.05
-22.025
-22
-21.975
-21.95
-21.925
-21.9
-21.875
-21.85
-21.825
-21.8
-21.775
-21.75
-21.725
-21.7
-21.675
-21.65
-21.625
-21.6
-21.575
-21.55
-21.525
-21.5
-21.475
-21.45
-21.425
-21.4
-21.375
-21.35
-21.325
-21.3
-21.275
-21.25
-21.225
-21.2
-21.175
-21.15
-21.125
-21.1
-21.075
-21.05
-21.025
-21
-20.975
-20.95
-20.925
-20.9
-20.875
-20.85
-20.825
-20.8
-20.775
-20.75
-20.725
-20.7
-20.675
-20.65
-20.625
-20.6
-20.575
-20.55
-20.525
-20.5
-20.475
-20.45
-20.425
-20.4
-20.375
-20.35
-20.325
-20.3
-20.275
-20.25
-20.225
-20.2
-20.175
-20.15
-20.125
-20.1
-20.075
-20.05
-20.025
-20
VAR_LIST_END
BEGIN
-15.138235,-160.7804
-15.099026,-158.26099
-14.807372,-155.99519
-14.929754,-161.84213
-14.929886,-157.00264
-15.261245,-160.3978
-15.038972,-155.73201
-15.708467,-156.2614
-15.321734,-157.99756
-14.799999,-160.47873
-15.339153,-158.83946
-15.339149,-158.87009
-15.253,-156.93434
-15.46557,-160.66101
-15.528381,-160.89769
-15.170878,-157.62267
-14.779975,-159.83409
-15.482237,-162.10022
-15.179974,-161.03741
-15.46907,-159.92792
-15.683494,-159.93127
-15.580578,-157.09637
-14.73349,-155.26947
-15.113946,-152.48186
-14.762574,-156.27716
-14.837305,-161.01355
-15.271156,-160.27795
-15.169028,-156.75591
-15.442244,-159.47018
-14.802465,-157.23473
-15.00391,-155.82661
-15.562586,-160.37897
-14.59693,-158.41223
-14.969755,-157.87448
-15.706136,-156.6057
-14.934697,-162.4839
-14.809129,-161.5443
-15.231406,-161.56505
-15.028696,-160.94626
-14.820756,-159.94409
-14.879209,-161.20331
-15.020282,-160.66107
-15.192469,-159.73805
-14.690714,-159.01447
-15.032236,-156.36636
-15.132922,-162.03072
-15.012609,-158.42612
-15.131452,-156.28697
-14.391664,-153.72942
-15.214823,-157.72086
-14.858599,-158.2957
-15.116673,-161.44769
-15.222044,-160.66861
-15.332173,-160.79291
-15.807778,-156.5284
-14.987573,-158.76471
-14.887001,-158.88002
-14.724072,-159.69606
-15.200974,-156.81572
-14.961365,-161.57341
-15.228918,-161.79271
-15.896484,-160.54559
-14.884578,-158.06396
-14.575691,-158.33302
-15.220223,-160.48715
-14.686874,-158.49988
-15.29392,-157.84607
-14.709773,-158.58669
-15.467003,-158.9015
-14.780621,-159.17917
-15.065073,-155.57478
-14.609406,-158.86807
-14.555958,-158.78935
-14.997902,-162.27563
-15.014918,-158.24101
-15.467819,-159.92006
-14.938021,-158.5157
-15.011823,-162.99263
-14.926238,-160.17181
-15.399412,-160.05754
-15.063952,-161.13078
-14.906231,-154.17383
-15.460131,-156.77931
-15.329073,-160.82054
-15.015889,-156.80714
-15.657454,-155.52486
-14.951124,-160.47704
-14.744838,-159.82698
-15.061529,-159.80493
-15.363419,-157.96858
-15.883898,-160.17055
-14.997737,-160.06981
-15.532515,-160.03831
-15.143746,-159.55388
-15.158255,-155.01779
-15.253851,-157.87367
-15.270952,-160.25526
-14.713552,-154.75832
-14.32794,-159.0089
-15.705,-160.54387
-15.121446,-160.43585
-15.21359,-158.84169
-15.502712,-156.383
-15.626278,-157.80533
-14.623757,-158.52112
-15.675058,-161.00531
-14.998466,-156.43909
-15.523859,-155.78651
-15.417073,-160.1591
-14.587668,-154.09987
-14.36645,-156.73872
-14.928125,-161.83502
-15.142289,-156.94035
-15.214972,-157.52934
-15.585471,-158.54291
-15.170481,-158.51782
-15.455466,-160.70073
-14.661185,-156.44885
-14.820157,-158.62556
-15.786543,-158.47038
-15.041929,-157.9209
-15.013354,-163.52155
-15.665428,-158.75909
-15.446187,-157.36476
-14.913601,-161.60428
-15.162269,-157.39395
-15.366775,-159.01727
-15.270494,-160.11079
-14.954979,-154.94032
-15.471192,-158.49786
-15.518844,-156.75594
-15.790337,-158.87495
-15.225407,-155.77853
-15.152762,-157.86887
-15.195301,-157.82344
-15.149453,-157.18517
-14.582118,-155.90927
-15.33945,-160.33263
-15.440464,-160.99965
-15.606839,-161.78204
-14.78051,-160.27594
-15.406544,-156.62346
-14.90853,-159.56032
-14.832859,-161.12447
-14.785081,-161.0954
-15.341211,-158.32297
-14.99043,-157.92015
-15.269086,-158.15634
-15.408701,-159.93115
-15.316202,-158.51584
-14.923664,-155.23975
-15.460503,-159.39116
-15.039458,-155.41069
-15.002693,-157.24205
-14.958178,-160.5986
-14.559521,-158.02065
-14.9075,-157.94829
-15.029485,-160.1754
-15.633707,-157.04518
-14.743374,-159.27393
-14.719751,-157.82327
-14.812617,-161.53844
-15.31092,-160.21562
-14.851941,-158.26027
-14.937411,-162.30443
-15.139175,-158.34514
-15.06921,-158.13713
-15.028495,-159.286
-14.868167,-159.60487
-15.020971,-159.06818
-15.139476,-158.73654
-14.881864,-158.7731
-15.237892,-160.69653
-15.375767,-158.4919
-15.212119,-157.51956
-14.745337,-158.24228
-14.902322,-158.47887
-15.200829,-160.11256
-15.192936,-158.62648
-15.168405,-160.05136
-15.639681,-157.84013
-15.240695,-160.03548
-14.855133,-158.55945
-15.238078,-159.1274
-15.127295,-157.97115
-15.170885,-158.16179
-15.135557,-160.07257
-14.853012,-160.43732
-15.298766,-157.15364
-15.351024,-157.93248
-14.82285,-157.62198
-15.588815,-160.15544
-15.537564,-160.29712
-15.096922,-157.78104
-15.284444,-160.82767
-15.089219,-158.64977
-15.463927,-158.83455
-15.328661,-158.1828
-15.242211,-157.80846
-15.459613,-158.96466
-15.451624,-159.44057
-15.039454,-157.80777
-14.935719,-158.06834
-14.816157,-156.36139
-15.224364,-158.21588
-14.994522,-158.24258
-15.278847,-159.48116
-15.508112,-158.52658
-15.173781,-160.20842
-15.129207,-156.05624
-15.009721,-158.28235
-15.05644,-160.93071
-15.375306,-158.5166
-15.260598,-161.84097
-15.150951,-159.37495
-15.445882,-157.38373
-15.33297,-157.45857
-14.637341,-156.81482
-15.369123,-159.83029
-15.30162,-158.16795
-15.592566,-156.55556
-15.07962,-158.53822
-15.373541,-159.99535
-14.948836,-156.92313
-15.172552,-159.61584
-15.304095,-156.65498
-14.728201,-161.8069
-15.220099,-158.03871
-15.314783,-158.99501
-15.648836,-159.61266
-14.947074,-157.81563
-15.280451,-159.04773
-15.02934,-156.52783
-14.94259,-158.1153
-15.534901,-158.9492
-15.175915,-160.18022
-14.881503,-159.43481
-15.246584,-160.3667
-15.012912,-159.92871
-15.09946,-159.79372
-15.076125,-159.86769
-14.980926,-160.92305
-14.883136,-155.73776
-15.277417,-158.27753
-15.185867,-157.66083
-15.350437,-160.37915
-15.211996,-158.65475
-15.293264,-158.5786
-15.310789,-157.92444
-15.181354,-158.7119
-14.955506,-157.66287
-15.205125,-160.41379
-15.072308,-157.86624
-15.224477,-160.51949
-15.113573,-159.15097
-15.391641,-157.73631
-15.388986,-158.90802
-15.338279,-159.76881
-14.79848,-158.62877
-15.291108,-161.02837
-14.852948,-158.64134
-15.161529,-157.95137
-14.999363,-156.32947
-15.313799,-157.9702
-15.12921,-157.73636
-15.474257,-159.49112
-14.746258,-159.62885
-14.960127,-159.46898
-14.865754,-160.08444
-15.499237,-157.45447
-15.272158,-159.55998
-15.286193,-156.68504
-14.946151,-159.6188
-15.162786,-159.0865
-15.141189,-155.30356
-15.179359,-158.94478
-15.159709,-160.28879
-15.523991,-158.59467
-15.173182,-159.95467
-15.173112,-156.2422
-14.95982,-158.5314
-15.050169,-156.73199
-14.959423,-161.94859
-14.904385,-158.65588
-15.154162,-157.42572
-14.973104,-157.7731
-14.830941,-161.30682
-15.138659,-159.82277
-15.295362,-160.63153
-15.389668,-156.89418
-15.504907,-158.1116
-14.956321,-157.48088
-15.346064,-159.31126
-15.438334,-158.18051
-15.248451,-157.23996
-14.991572,-158.50832
-14.900963,-159.56825
-15.05513,-158.81024
-15.254992,-159.23541
-15.25776,-159.82553
-14.803673,-159.17511
-15.079763,-159.72659
-15.262027,-157.87798
-15.317924,-160.06781
-15.099286,-156.26106
-15.022471,-159.03992
-15.136319,-158.65811
-15.683837,-157.99306
-15.287583,-157.85005
-15.06297,-158.5851
-15.219105,-156.81146
-14.966065,-158.70126
-15.269392,-159.60619
-15.01179,-156.89952
-15.458268,-159.24934
-15.35127,-159.90381
-15.204329,-159.17996
-14.881412,-159.80711
-15.171255,-159.68726
-15.260203,-159.30905
-15.173536,-160.54866
-15.301817,-159.12076
-14.721292,-158.1655
-15.047746,-159.24219
-15.349008,-157.80388
-14.963615,-156.74959
-15.001261,-157.77744
-14.989903,-159.65921
-15.224186,-159.76221
-15.252726,-159.55325
-15.237809,-158.48108
-14.927425,-157.22995
-14.955148,-157.21828
-15.206854,-159.26544
-15.108982,-157.73006
-15.144241,-157.03267
-15.026209,-156.36923
-14.964095,-159.75804
-15.394791,-157.36099
-15.161599,-157.56227
-14.929612,-158.51561
-15.352707,-158.08041
-15.241646,-159.00639
-14.960218,-157.70627
-15.133189,-158.58096
-15.066941,-156.78371
-14.983874,-157.95306
-15.129025,-156.30638
-14.932144,-158.67476
-15.065436,-158.80527
-15.08766,-159.00818
-14.97666,-158.31609
-15.176268,-157.00008
-15.111174,-161.11737
-15.051565,-158.31516
-15.387135,-157.90474
-15.236663,-161.58064
-14.933619,-157.74484
-15.13175,-159.26375
-15.21489,-160.17661
-15.112478,-159.13005
-15.237555,-157.806
-15.244914,-158.51836
-15.026294,-158.60454
-15.051179,-158.87483
-14.945645,-157.08557
-14.829453,-159.90074
-15.170223,-158.82994
-15.186559,-158.86539
-15.003996,-158.56927
-15.02764,-157.89311
-15.119287,-159.68208
-15.031479,-158.67715
-15.03428,-158.80498
-15.189081,-158.67567
-15.210458,-158.51538
-15.198979,-158.23239
-15.101655,-158.72224
-15.100684,-158.48041
-15.053288,-159.26401
-15.296661,-158.32336
-15.238912,-158.8679
-15.450059,-157.98044
-15.153191,-158.10501
-15.313535,-159.57301
-15.166516,-158.37555
-15.086844,-159.33464
-15.04087,-158.79803
-15.19173,-160.29958
-15.284489,-159.79845
-15.160342,-158.27786
-15.249244,-158.22656
-15.257457,-158.11572
-15.22532,-157.6667
-15.174088,-156.86311
-15.04265,-160.97273
-15.147075,-157.955
-15.158177,-159.62898
-15.419897,-158.95667
-15.129791,-158.63258
-15.253579,-158.21419
-15.251119,-160.0921
-15.047529,-158.31924
-15.184671,-159.18188
-15.24758,-158.97757
-15.378711,-158.41495
-15.080725,-156.84517
-15.082782,-159.00517
-15.343426,-159.29747
-15.209771,-159.2769
-14.856974,-157.60776
-15.225908,-158.90633
-15.06442,-158.8213
-15.064706,-158.32939
-15.1675,-158.38927
-15.059775,-158.62376
-15.129993,-158.62178
-15.047778,-159.47688
-15.027901,-159.76378
-14.890443,-159.25572
-15.134041,-159.20665
-15.305204,-158.40063
-15.164211,-158.55508
-15.213531,-159.57816
-15.15798,-158.05159
-15.317598,-158.71887
-15.200709,-158.70096
-15.222228,-160.89096
-15.383236,-158.31303
-15.100243,-158.73921
-15.236925,-158.98416
-14.945388,-159.0556
-15.163893,-158.52849
-15.168362,-159.97031
-14.949085,-158.27534
-15.055267,-157.62338
-15.303774,-159.51263
-14.984927,-156.64673
-15.317113,-158.86763
-15.057129,-156.27478
-15.101458,-158.21539
-15.18969,-160.30428
-15.325825,-159.02193
-15.247225,-159.33803
-15.072886,-158.52138
-15.128567,-159.14272
-15.097691,-157.90678
-15.197125,-159.06345
-15.295816,-159.66277
-14.992207,-157.97345
-15.043732,-160.27603
-14.863724,-159.48697
-15.175434,-158.30885
-15.170035,-158.45605
-15.206849,-158.25079
-15.21926,-159.01744
-15.053367,-158.56154
-15.443257,-159.0881
-15.155566,-159.18266
-15.257065,-160.03873
-15.24098,-158.27104
-15.143372,-160.15726
-14.881314,-159.45123
-15.098616,-159.18703
-15.134712,-158.86472
-15.084357,-158.05402
-14.976829,-159.91469
-15.229977,-158.38057
-15.130871,-158.39087
-15.097561,-158.90506
-15.065846,-159.86285
-15.178338,-158.33017
-15.065083,-158.60181
-15.007186,-159.2242
-15.031026,-158.05573
-15.101425,-159.98605
-14.982979,-159.86885
-15.200734,-159.44299
-15.066498,-158.31479
-14.974629,-157.71364
-15.333815,-161.43495
-14.979221,-160.19542
-15.30356,-160.27415
-15.193425,-158.25031
-14.933252,-159.06352
-15.089946,-160.08684
-15.139776,-158.59431
-14.958958,-159.00348
-15.135162,-158.96425
-15.196685,-158.59229
-15.121488,-159.91318
-15.186427,-159.7205
-15.049321,-157.81589
-15.045307,-158.8327
-14.935658,-158.39523
-15.207601,-157.60114
-15.043352,-158.39748
-15.193605,-159.71149
-15.156211,-159.44621
-15.1757,-157.98608
-15.045042,-159.43483
-15.155472,-159.21523
-14.985909,-157.89481
-15.123544,-159.71309
-15.05067,-158.01942
-15.224819,-158.77898
-15.020762,-159.90732
-15.184273,-157.48859
-15.229168,-159.09673
-15.011729,-159.40692
-15.386281,-158.7739
-14.75932,-160.12549
-15.156466,-158.40961
-15.178346,-159.57582
-15.00666,-158.42235
-15.036192,-159.37527
-15.026136,-159.06554
-15.022511,-159.06599
-15.273508,-159.31221
-15.116115,-159.22041
-15.225287,-158.45343
-15.201422,-158.04266
-15.017254,-159.25403
-15.136576,-158.34193
-15.216997,-158.49658
-15.095141,-159.22577
-15.092627,-159.45035
-15.110379,-157.71626
-15.223528,-157.55351
-15.166806,-160.07521
-15.250167,-159.233
-15.334997,-159.20877
-15.134401,-158.86319
-15.119052,-158.80518
-15.118412,-158.90659
-15.215845,-158.18114
-15.181256,-159.4153
-15.045646,-158.20906
-15.151175,-159.53175
-14.980099,-158.54797
-15.123102,-158.9545
-15.194366,-158.81213
-15.156514,-159.43723
-15.147636,-159.29257
-15.13152,-159.16698
-15.085785,-159.51154
-15.207353,-157.78429
-15.201351,-159.27448
-15.133256,-159.46144
-15.134646,-159.50768
-14.998995,-158.78659
-15.115899,-159.34128
-15.049565,-158.36394
-15.085172,-159.50491
-15.203629,-158.12401
-15.14784,-158.1432
-15.233268,-158.7984
-15.035511,-159.2146
-15.214568,-159.75751
-14.926903,-158.30981
-15.095303,-158.72087
-15.251716,-158.00182
-15.04341,-159.23169
-15.195804,-158.76508
-15.163779,-157.44821
-15.121581,-158.44362
-15.161395,-159.6868
-15.066343,-158.58553
-15.154552,-158.39148
-15.135877,-158.8969
-15.114686,-158.38976
-14.995219,-159.02658
-15.026833,-159.3064
-15.221807,-158.85263
-15.126449,-158.81218
-15.073198,-159.30368
