CITIFILE A.01.01
!Agilent Technologies,N5230C,MY48100142,A.08.04.10
!Agilent N5230C: A.08.04.10
!Format: LogMag/Angle
!Date: Wednesday, September 02, 2020 12:09:43
NAME CH1_DATA
VAR Power MAG 801
DATA S11 DBANGLE
DATA S21 DBANGLE
DATA S12 DBANGLE
DATA S22 DBANGLE
VAR_LIST_BEGIN
-40
-39.975
-39.95
-39.925
-39.9
-39.875
-39.85
-39.825
-39.8
-39.775
-39.75
-39.725
-39.7
-39.675
-39.65
-39.625
-39.6
-39.575
-39.55
-39.525
-39.5
-39.475
-39.45
-39.425
-39.4
-39.375
-39.35
-39.325
-39.3
-39.275
-39.25
-39.225
-39.2
-39.175
-39.15
-39.125
-39.1
-39.075
-39.05
-39.025
-39
-38.975
-38.95
-38.925
-38.9
-38.875
-38.85
-38.825
-38.8
-38.775
-38.75
-38.725
-38.7
-38.675
-38.65
-38.625
-38.6
-38.575
-38.55
-38.525
-38.5
-38.475
-38.45
-38.425
-38.4
-38.375
-38.35
-38.325
-38.3
-38.275
-38.25
-38.225
-38.2
-38.175
-38.15
-38.125
-38.1
-38.075
-38.05
-38.025
-38
-37.975
-37.95
-37.925
-37.9
-37.875
-37.85
-37.825
-37.8
-37.775
-37.75
-37.725
-37.7
-37.675
-37.65
-37.625
-37.6
-37.575
-37.55
-37.525
-37.5
-37.475
-37.45
-37.425
-37.4
-37.375
-37.35
-37.325
-37.3
-37.275
-37.25
-37.225
-37.2
-37.175
-37.15
-37.125
-37.1
-37.075
-37.05
-37.025
-37
-36.975
-36.95
-36.925
-36.9
-36.875
-36.85
-36.825
-36.8
-36.775
-36.75
-36.725
-36.7
-36.675
-36.65
-36.625
-36.6
-36.575
-36.55
-36.525
-36.5
-36.475
-36.45
-36.425
-36.4
-36.375
-36.35
-36.325
-36.3
-36.275
-36.25
-36.225
-36.2
-36.175
-36.15
-36.125
-36.1
-36.075
-36.05
-36.025
-36
-35.975
-35.95
-35.925
-35.9
-35.875
-35.85
-35.825
-35.8
-35.775
-35.75
-35.725
-35.7
-35.675
-35.65
-35.625
-35.6
-35.575
-35.55
-35.525
-35.5
-35.475
-35.45
-35.425
-35.4
-35.375
-35.35
-35.325
-35.3
-35.275
-35.25
-35.225
-35.2
-35.175
-35.15
-35.125
-35.1
-35.075
-35.05
-35.025
-35
-34.975
-34.95
-34.925
-34.9
-34.875
-34.85
-34.825
-34.8
-34.775
-34.75
-34.725
-34.7
-34.675
-34.65
-34.625
-34.6
-34.575
-34.55
-34.525
-34.5
-34.475
-34.45
-34.425
-34.4
-34.375
-34.35
-34.325
-34.3
-34.275
-34.25
-34.225
-34.2
-34.175
-34.15
-34.125
-34.1
-34.075
-34.05
-34.025
-34
-33.975
-33.95
-33.925
-33.9
-33.875
-33.85
-33.825
-33.8
-33.775
-33.75
-33.725
-33.7
-33.675
-33.65
-33.625
-33.6
-33.575
-33.55
-33.525
-33.5
-33.475
-33.45
-33.425
-33.4
-33.375
-33.35
-33.325
-33.3
-33.275
-33.25
-33.225
-33.2
-33.175
-33.15
-33.125
-33.1
-33.075
-33.05
-33.025
-33
-32.975
-32.95
-32.925
-32.9
-32.875
-32.85
-32.825
-32.8
-32.775
-32.75
-32.725
-32.7
-32.675
-32.65
-32.625
-32.6
-32.575
-32.55
-32.525
-32.5
-32.475
-32.45
-32.425
-32.4
-32.375
-32.35
-32.325
-32.3
-32.275
-32.25
-32.225
-32.2
-32.175
-32.15
-32.125
-32.1
-32.075
-32.05
-32.025
-32
-31.975
-31.95
-31.925
-31.9
-31.875
-31.85
-31.825
-31.8
-31.775
-31.75
-31.725
-31.7
-31.675
-31.65
-31.625
-31.6
-31.575
-31.55
-31.525
-31.5
-31.475
-31.45
-31.425
-31.4
-31.375
-31.35
-31.325
-31.3
-31.275
-31.25
-31.225
-31.2
-31.175
-31.15
-31.125
-31.1
-31.075
-31.05
-31.025
-31
-30.975
-30.95
-30.925
-30.9
-30.875
-30.85
-30.825
-30.8
-30.775
-30.75
-30.725
-30.7
-30.675
-30.65
-30.625
-30.6
-30.575
-30.55
-30.525
-30.5
-30.475
-30.45
-30.425
-30.4
-30.375
-30.35
-30.325
-30.3
-30.275
-30.25
-30.225
-30.2
-30.175
-30.15
-30.125
-30.1
-30.075
-30.05
-30.025
-30
-29.975
-29.95
-29.925
-29.9
-29.875
-29.85
-29.825
-29.8
-29.775
-29.75
-29.725
-29.7
-29.675
-29.65
-29.625
-29.6
-29.575
-29.55
-29.525
-29.5
-29.475
-29.45
-29.425
-29.4
-29.375
-29.35
-29.325
-29.3
-29.275
-29.25
-29.225
-29.2
-29.175
-29.15
-29.125
-29.1
-29.075
-29.05
-29.025
-29
-28.975
-28.95
-28.925
-28.9
-28.875
-28.85
-28.825
-28.8
-28.775
-28.75
-28.725
-28.7
-28.675
-28.65
-28.625
-28.6
-28.575
-28.55
-28.525
-28.5
-28.475
-28.45
-28.425
-28.4
-28.375
-28.35
-28.325
-28.3
-28.275
-28.25
-28.225
-28.2
-28.175
-28.15
-28.125
-28.1
-28.075
-28.05
-28.025
-28
-27.975
-27.95
-27.925
-27.9
-27.875
-27.85
-27.825
-27.8
-27.775
-27.75
-27.725
-27.7
-27.675
-27.65
-27.625
-27.6
-27.575
-27.55
-27.525
-27.5
-27.475
-27.45
-27.425
-27.4
-27.375
-27.35
-27.325
-27.3
-27.275
-27.25
-27.225
-27.2
-27.175
-27.15
-27.125
-27.1
-27.075
-27.05
-27.025
-27
-26.975
-26.95
-26.925
-26.9
-26.875
-26.85
-26.825
-26.8
-26.775
-26.75
-26.725
-26.7
-26.675
-26.65
-26.625
-26.6
-26.575
-26.55
-26.525
-26.5
-26.475
-26.45
-26.425
-26.4
-26.375
-26.35
-26.325
-26.3
-26.275
-26.25
-26.225
-26.2
-26.175
-26.15
-26.125
-26.1
-26.075
-26.05
-26.025
-26
-25.975
-25.95
-25.925
-25.9
-25.875
-25.85
-25.825
-25.8
-25.775
-25.75
-25.725
-25.7
-25.675
-25.65
-25.625
-25.6
-25.575
-25.55
-25.525
-25.5
-25.475
-25.45
-25.425
-25.4
-25.375
-25.35
-25.325
-25.3
-25.275
-25.25
-25.225
-25.2
-25.175
-25.15
-25.125
-25.1
-25.075
-25.05
-25.025
-25
-24.975
-24.95
-24.925
-24.9
-24.875
-24.85
-24.825
-24.8
-24.775
-24.75
-24.725
-24.7
-24.675
-24.65
-24.625
-24.6
-24.575
-24.55
-24.525
-24.5
-24.475
-24.45
-24.425
-24.4
-24.375
-24.35
-24.325
-24.3
-24.275
-24.25
-24.225
-24.2
-24.175
-24.15
-24.125
-24.1
-24.075
-24.05
-24.025
-24
-23.975
-23.95
-23.925
-23.9
-23.875
-23.85
-23.825
-23.8
-23.775
-23.75
-23.725
-23.7
-23.675
-23.65
-23.625
-23.6
-23.575
-23.55
-23.525
-23.5
-23.475
-23.45
-23.425
-23.4
-23.375
-23.35
-23.325
-23.3
-23.275
-23.25
-23.225
-23.2
-23.175
-23.15
-23.125
-23.1
-23.075
-23.05
-23.025
-23
-22.975
-22.95
-22.925
-22.9
-22.875
-22.85
-22.825
-22.8
-22.775
-22.75
-22.725
-22.7
-22.675
-22.65
-22.625
-22.6
-22.575
-22.55
-22.525
-22.5
-22.475
-22.45
-22.425
-22.4
-22.375
-22.35
-22.325
-22.3
-22.275
-22.25
-22.225
-22.2
-22.175
-22.15
-22.125
-22.1
-22.075
-22.05
-22.025
-22
-21.975
-21.95
-21.925
-21.9
-21.875
-21.85
-21.825
-21.8
-21.775
-21.75
-21.725
-21.7
-21.675
-21.65
-21.625
-21.6
-21.575
-21.55
-21.525
-21.5
-21.475
-21.45
-21.425
-21.4
-21.375
-21.35
-21.325
-21.3
-21.275
-21.25
-21.225
-21.2
-21.175
-21.15
-21.125
-21.1
-21.075
-21.05
-21.025
-21
-20.975
-20.95
-20.925
-20.9
-20.875
-20.85
-20.825
-20.8
-20.775
-20.75
-20.725
-20.7
-20.675
-20.65
-20.625
-20.6
-20.575
-20.55
-20.525
-20.5
-20.475
-20.45
-20.425
-20.4
-20.375
-20.35
-20.325
-20.3
-20.275
-20.25
-20.225
-20.2
-20.175
-20.15
-20.125
-20.1
-20.075
-20.05
-20.025
-20
VAR_LIST_END
BEGIN
-14.786193,-162.44157
-14.727912,-159.6499
-14.343137,-151.19496
-15.132317,-156.22955
-14.848866,-160.97229
-14.874134,-152.14293
-15.220171,-157.29253
-13.820219,-158.74422
-15.096108,-154.3033
-14.618412,-161.00777
-15.078417,-159.32996
-14.666262,-160.23886
-14.701678,-163.08952
-15.570122,-157.66777
-15.317539,-158.04945
-14.841772,-159.81833
-14.824007,-159.89006
-15.010437,-161.16553
-14.708388,-161.0575
-15.38158,-161.14453
-15.558359,-158.01579
-14.695807,-157.0452
-14.944568,-158.72156
-14.638047,-156.80478
-15.039454,-162.88948
-14.77856,-160.63885
-14.547847,-158.24164
-14.595625,-160.88242
-15.116278,-163.37805
-15.396901,-160.44211
-14.481928,-159.10683
-15.217776,-159.53616
-15.125447,-162.25783
-15.319994,-158.02106
-14.158073,-157.18324
-15.533862,-159.76242
-14.882771,-158.32236
-15.720929,-153.97868
-15.251507,-156.16492
-15.17321,-161.13458
-15.88781,-157.72826
-15.417044,-158.40862
-15.139288,-160.0399
-15.613103,-158.00847
-14.893688,-164.25465
-14.586432,-158.0645
-15.874764,-155.36397
-14.82409,-159.66959
-15.302695,-158.59908
-15.095791,-155.36116
-14.655874,-162.17938
-15.446018,-159.36636
-14.696394,-158.51405
-14.87326,-165.5636
-15.167036,-160.00362
-14.767092,-159.75145
-15.258879,-159.28973
-14.587331,-160.69478
-15.055943,-160.04359
-15.32505,-159.37405
-15.026531,-160.64534
-15.727471,-156.77333
-14.954752,-155.67107
-14.462404,-159.27351
-15.020761,-158.53076
-15.175739,-158.59825
-14.848673,-156.04729
-15.121199,-160.39343
-15.159357,-159.09923
-15.480652,-157.08633
-15.619829,-155.61987
-15.651235,-159.91032
-15.124879,-161.31213
-15.034249,-159.72333
-14.807985,-155.69048
-15.205745,-158.1519
-15.499661,-158.13695
-14.965606,-160.34764
-14.919076,-158.58519
-15.332334,-158.8006
-15.304111,-161.76607
-14.552156,-158.09833
-15.405928,-159.70815
-14.897452,-159.05783
-15.020379,-157.97902
-14.63199,-159.58134
-15.23777,-159.24246
-15.672398,-160.76387
-15.212873,-157.90695
-15.527622,-159.95674
-15.128344,-159.49164
-14.548925,-160.33311
-15.299795,-156.40535
-15.156368,-158.12263
-14.683701,-158.48463
-15.294539,-156.89142
-15.243057,-156.3651
-15.178813,-160.15396
-15.710084,-162.02373
-15.274118,-160.07581
-15.053806,-161.95479
-15.096433,-157.30962
-15.472322,-161.431
-14.620303,-157.05243
-14.95443,-160.81227
-15.211279,-157.39278
-15.113339,-158.97499
-15.076492,-156.64366
-14.575026,-161.02234
-15.229032,-157.1748
-14.832209,-158.24796
-15.159322,-156.3754
-15.168493,-158.07448
-14.864603,-156.74832
-15.155842,-162.61624
-15.410686,-158.43295
-14.957299,-161.47441
-14.653577,-155.59633
-15.546805,-158.47781
-15.045719,-162.80307
-14.990792,-159.09665
-15.557382,-162.54797
-15.144618,-158.9496
-15.172421,-160.4485
-15.351337,-161.39096
-14.944552,-155.53876
-15.019754,-160.4346
-15.019147,-158.9711
-14.999588,-155.31538
-14.916283,-160.26367
-14.706418,-160.63409
-15.199188,-162.26054
-15.06985,-161.57532
-14.819868,-162.03827
-15.445659,-160.83775
-15.465577,-157.56496
-14.554181,-159.71178
-14.618793,-158.7366
-15.03064,-158.44737
-14.837238,-158.35112
-15.313744,-157.002
-14.752466,-158.88234
-15.523089,-159.37262
-15.047726,-154.74576
-15.387726,-157.25433
-15.085889,-158.24625
-15.087918,-158.49158
-15.212648,-159.43597
-15.092504,-156.14961
-14.960447,-156.67809
-15.167955,-157.39268
-14.980324,-157.06111
-14.927982,-158.96176
-15.26602,-156.90854
-15.047074,-158.95995
-14.874199,-159.72762
-15.360114,-160.37469
-14.967545,-160.94864
-15.035326,-156.23212
-14.875536,-160.91647
-15.135093,-161.52171
-14.912959,-157.40384
-15.28986,-159.92857
-14.884887,-159.3996
-15.013002,-156.42627
-14.702538,-157.40001
-15.154462,-158.40115
-15.251581,-161.3893
-15.109916,-159.76851
-15.359693,-157.79018
-15.01716,-159.82938
-14.950949,-162.01666
-14.892133,-161.39923
-14.855929,-162.93233
-15.248525,-158.72237
-15.002922,-156.31436
-14.916251,-161.86446
-15.257494,-163.01649
-14.863122,-158.21635
-15.733245,-160.0477
-15.229051,-157.21524
-15.233487,-158.78441
-15.192915,-158.51239
-15.226588,-160.90318
-15.26261,-158.69852
-15.018033,-158.89267
-15.165521,-157.98952
-15.111402,-159.15649
-14.877402,-159.36195
-15.079485,-159.89766
-15.02774,-159.7831
-15.082629,-159.24272
-14.815993,-155.90279
-14.890146,-160.25299
-15.227786,-159.87798
-15.206349,-156.85246
-15.301981,-159.95216
-14.875525,-159.18265
-14.748455,-156.0071
-14.950465,-158.73198
-15.342743,-159.68526
-14.83621,-162.48204
-15.329517,-158.14374
-14.260921,-156.95732
-15.509007,-161.99261
-14.620671,-158.45923
-15.017017,-158.60194
-15.00488,-157.20985
-14.907648,-159.19508
-14.707816,-159.1239
-14.711157,-156.96526
-15.00087,-156.15637
-14.809535,-158.78603
-15.154643,-156.79376
-14.86773,-158.86739
-15.332808,-158.55081
-14.965393,-160.43019
-14.950064,-159.7027
-15.041094,-155.58353
-15.094321,-160.40508
-15.267602,-155.65419
-15.027128,-160.53065
-14.803112,-158.14125
-15.151233,-161.1218
-15.507561,-158.91423
-14.683128,-157.97313
-15.30825,-160.89975
-15.082831,-162.19089
-15.123747,-160.16417
-15.22158,-161.57224
-14.710798,-160.24663
-15.032235,-159.95129
-15.174203,-158.2883
-15.163877,-157.58308
-15.121735,-155.66005
-15.455873,-158.61734
-14.992317,-158.9834
-15.320244,-159.94078
-14.707359,-156.32759
-15.227504,-161.69489
-14.708011,-159.23711
-15.115853,-156.13654
-15.272735,-159.50037
-15.11584,-158.36398
-15.074185,-159.62712
-14.814448,-158.28508
-15.331303,-156.96884
-15.212067,-157.90694
-15.396608,-158.88789
-14.962953,-160.43065
-14.81838,-159.71225
-15.268118,-157.61174
-15.08225,-158.30501
-15.360923,-160.41913
-15.305801,-157.69696
-15.132703,-159.46645
-15.507346,-156.34564
-14.780843,-156.19087
-15.499781,-158.40262
-14.877222,-160.88622
-14.977079,-161.53352
-14.914997,-157.28798
-15.28089,-158.58939
-14.996228,-157.9095
-14.587557,-159.69945
-15.106007,-159.06979
-15.285093,-159.71579
-14.993125,-159.29338
-14.791217,-158.74144
-14.957888,-158.91161
-15.172695,-157.78729
-15.292027,-160.66373
-14.943347,-158.57851
-14.83097,-158.17767
-15.196303,-160.00177
-14.956936,-158.381
-14.93958,-160.40868
-15.088365,-157.33075
-14.697378,-158.13284
-15.097944,-159.40536
-14.905252,-159.39386
-15.018874,-161.56647
-15.207894,-157.58408
-15.145589,-158.52599
-15.099883,-157.60231
-15.025249,-157.14613
-15.468683,-158.05136
-15.277363,-158.39706
-15.093657,-158.38078
-14.713142,-158.08653
-15.028131,-158.16707
-14.799596,-158.53102
-14.7012,-158.3576
-15.308435,-159.41449
-14.988078,-158.57721
-14.904501,-158.85895
-14.979137,-160.90253
-15.225409,-159.20927
-14.982157,-156.70607
-15.023505,-156.98682
-15.167538,-160.02618
-15.036122,-158.70512
-15.320958,-159.01163
-15.062181,-160.26802
-14.895712,-158.71881
-15.063092,-158.84691
-15.111516,-160.07393
-14.90277,-159.18036
-14.824378,-160.12509
-14.91414,-159.13922
-15.099344,-161.76546
-15.196834,-160.51959
-14.867624,-159.75545
-15.575608,-159.90935
-14.660692,-158.41034
-14.975179,-157.03424
-15.250975,-157.20963
-14.968641,-158.39618
-15.381789,-157.23007
-15.265471,-159.09155
-15.169786,-158.6868
-15.366624,-158.26714
-14.954771,-157.56734
-15.07827,-159.73022
-15.139069,-158.16541
-14.993394,-159.03398
-15.10371,-157.38353
-14.811221,-158.03667
-15.32502,-160.71309
-14.976024,-159.51532
-15.22717,-158.26515
-15.170309,-157.89647
-15.184475,-158.13121
-15.195735,-159.75397
-14.856067,-160.24773
-14.883096,-156.53137
-14.938197,-158.87802
-15.011579,-158.26834
-15.101019,-159.1777
-14.997382,-159.17697
-14.960364,-156.11357
-15.130378,-158.12726
-14.730196,-158.52747
-14.854735,-160.72066
-15.40948,-159.8087
-15.139287,-157.02115
-15.060293,-157.63957
-14.754065,-157.70903
-14.91154,-158.73911
-14.695004,-160.28552
-15.106522,-160.10106
-15.223707,-157.55899
-14.877641,-158.34236
-15.126122,-159.0576
-15.119171,-156.73557
-15.051617,-157.9581
-14.763567,-157.13843
-15.150704,-159.9724
-15.17164,-157.2662
-14.800985,-156.92238
-15.145823,-158.90775
-14.63451,-158.81767
-14.765639,-159.02449
-15.123816,-158.35425
-14.993721,-157.99232
-14.790831,-160.40735
-14.854589,-157.49251
-15.239474,-160.27599
-15.08988,-157.80685
-15.290387,-157.05215
-15.408276,-159.06343
-15.020638,-156.43544
-15.330412,-159.18826
-14.928362,-161.83124
-15.043275,-158.96518
-14.867172,-159.28455
-14.969322,-158.02545
-14.823898,-157.47598
-15.146913,-160.81325
-14.974217,-159.29929
-15.227622,-159.54857
-14.71317,-159.30708
-14.958113,-158.79959
-15.270113,-157.96187
-14.991983,-158.49347
-15.228745,-160.80692
-14.996671,-158.86171
-15.047983,-159.70464
-14.850822,-159.78983
-14.938006,-158.95506
-14.809749,-156.92574
-15.179384,-157.82329
-15.103324,-160.81044
-15.300374,-159.62332
-15.107679,-158.74483
-14.960823,-158.14561
-14.724919,-158.39644
-14.920172,-159.65678
-15.087858,-160.35208
-14.931942,-158.85913
-15.04973,-158.49657
-14.840602,-157.74756
-15.095257,-160.15742
-15.265911,-158.95158
-14.882314,-159.63506
-14.981022,-158.5699
-14.723546,-159.9897
-15.064847,-158.3707
-15.262012,-160.02669
-15.143426,-160.272
-14.986505,-159.46617
-15.051614,-159.46884
-15.10198,-159.25211
-15.076573,-158.78986
-14.867926,-159.13672
-15.025778,-159.53331
-15.065536,-159.0986
-15.26709,-157.74289
-15.059208,-159.30864
-15.068746,-158.46834
-15.234314,-159.1532
-15.094419,-158.62352
-15.078602,-158.65102
-14.779251,-158.5457
-15.202777,-157.82358
-15.180789,-158.48582
-14.987576,-159.07819
-15.09211,-157.83604
-14.851727,-157.03574
-14.99332,-159.21092
-15.075021,-159.20273
-15.125524,-159.28717
-14.980056,-156.61786
-15.007657,-158.68784
-14.863587,-158.32639
-15.157026,-159.68399
-14.917748,-159.12112
-15.124975,-159.55264
-15.273093,-159.67236
-14.892035,-160.25998
-14.969661,-159.3983
-14.983453,-158.95937
-15.168805,-158.98601
-14.982091,-157.02242
-14.985512,-160.04295
-14.941133,-157.32869
-15.034807,-158.94565
-14.709006,-158.4588
-14.929566,-158.66022
-14.883044,-159.86102
-15.070966,-157.93434
-15.147054,-158.73428
-14.799268,-159.03125
-15.180672,-159.10873
-15.041462,-159.0253
-15.141636,-157.511
-14.921858,-159.72173
-15.028382,-159.65138
-14.983464,-158.57614
-15.063368,-159.53799
-14.981553,-159.51567
-15.136031,-159.17984
-14.87305,-159.44652
-15.075889,-159.56787
-14.96845,-159.36967
-14.971618,-160.53362
-15.008184,-158.92531
-15.099339,-157.76175
-15.141196,-160.37746
-15.092157,-159.10651
-14.952637,-159.1403
-14.862197,-157.78638
-14.989913,-160.55016
-15.014314,-157.75409
-15.072042,-159.0681
-15.125329,-158.73302
-15.084066,-158.74268
-15.028508,-159.75775
-15.144977,-160.252
-15.211734,-158.6002
-15.156448,-157.55014
-15.065713,-158.77013
-14.914371,-158.50041
-14.840789,-158.19948
-14.888961,-159.19218
-14.962949,-160.27873
-15.227959,-160.19427
-14.905648,-158.15529
-14.716199,-159.65764
-15.058693,-160.94104
-14.97429,-159.06123
-15.034377,-159.50899
-14.919308,-158.00133
-15.122777,-161.31461
-14.97786,-158.73476
-15.079696,-158.57463
-15.086142,-159.68616
-15.101435,-158.95334
-15.178776,-158.70712
-15.163583,-158.11043
-14.978264,-160.17552
-15.069715,-159.50328
-14.997891,-159.6259
-15.208011,-158.27386
-15.149299,-158.81819
-15.077435,-159.48219
-15.248614,-159.48311
-15.082045,-158.21811
-14.94597,-159.71999
-14.909242,-158.13113
-15.089383,-158.59906
-15.032745,-160.28192
-15.044516,-158.28487
-15.154551,-159.01796
-15.122242,-158.44164
-15.078196,-159.75989
-14.97437,-158.8891
-15.010891,-158.94176
-15.187752,-159.3445
-15.061534,-159.0238
-15.120584,-158.39629
-15.139736,-158.37547
-15.163254,-159.48116
-14.936834,-158.03818
-15.177934,-158.8972
-14.871187,-158.05746
-15.17728,-158.6308
-15.007964,-158.2612
-15.065981,-159.44934
-15.10384,-159.10071
-15.091086,-158.98729
-14.93533,-159.98715
-15.131645,-159.01773
-14.956491,-159.40469
-14.974411,-158.26486
-14.968353,-158.03992
-15.016388,-158.48026
-15.036172,-159.23247
-14.953176,-158.54625
-14.90269,-157.08708
-14.917994,-158.46925
-14.916346,-157.37502
-15.072528,-158.86111
-14.920905,-158.56209
-15.199358,-158.27272
-15.018453,-158.13672
-14.965277,-158.76753
-15.000936,-158.36227
-15.03468,-157.71404
-15.038295,-158.66667
-15.163136,-159.64751
-14.870592,-157.90779
-14.98743,-159.10866
-15.019385,-157.98906
-15.06387,-158.83752
-15.065415,-159.16742
-15.049453,-159.74203
-15.140883,-159.41428
-15.010551,-156.92787
-15.132295,-158.88722
-15.000708,-158.70576
-15.065268,-158.72758
-15.199539,-159.27742
-15.005009,-158.67062
-14.985421,-158.41565
-15.047343,-158.25388
-15.128041,-158.52931
-14.966426,-159.61356
-15.100888,-159.04514
-14.957827,-159.15166
-14.889134,-159.9381
-15.077842,-159.13063
-14.942971,-158.23212
-15.044458,-158.82907
-15.130735,-158.30511
-15.026322,-158.62367
