CITIFILE A.01.01
!Agilent Technologies,N5230C,MY48100142,A.08.04.10
!Agilent N5230C: A.08.04.10
!Format: LogMag/Angle
!Date: Thursday, August 06, 2020 12:53:42
NAME CH1_DATA
VAR Power MAG 801
DATA S11 DBANGLE
DATA S21 DBANGLE
DATA S12 DBANGLE
DATA S22 DBANGLE
VAR_LIST_BEGIN
-40
-39.975
-39.95
-39.925
-39.9
-39.875
-39.85
-39.825
-39.8
-39.775
-39.75
-39.725
-39.7
-39.675
-39.65
-39.625
-39.6
-39.575
-39.55
-39.525
-39.5
-39.475
-39.45
-39.425
-39.4
-39.375
-39.35
-39.325
-39.3
-39.275
-39.25
-39.225
-39.2
-39.175
-39.15
-39.125
-39.1
-39.075
-39.05
-39.025
-39
-38.975
-38.95
-38.925
-38.9
-38.875
-38.85
-38.825
-38.8
-38.775
-38.75
-38.725
-38.7
-38.675
-38.65
-38.625
-38.6
-38.575
-38.55
-38.525
-38.5
-38.475
-38.45
-38.425
-38.4
-38.375
-38.35
-38.325
-38.3
-38.275
-38.25
-38.225
-38.2
-38.175
-38.15
-38.125
-38.1
-38.075
-38.05
-38.025
-38
-37.975
-37.95
-37.925
-37.9
-37.875
-37.85
-37.825
-37.8
-37.775
-37.75
-37.725
-37.7
-37.675
-37.65
-37.625
-37.6
-37.575
-37.55
-37.525
-37.5
-37.475
-37.45
-37.425
-37.4
-37.375
-37.35
-37.325
-37.3
-37.275
-37.25
-37.225
-37.2
-37.175
-37.15
-37.125
-37.1
-37.075
-37.05
-37.025
-37
-36.975
-36.95
-36.925
-36.9
-36.875
-36.85
-36.825
-36.8
-36.775
-36.75
-36.725
-36.7
-36.675
-36.65
-36.625
-36.6
-36.575
-36.55
-36.525
-36.5
-36.475
-36.45
-36.425
-36.4
-36.375
-36.35
-36.325
-36.3
-36.275
-36.25
-36.225
-36.2
-36.175
-36.15
-36.125
-36.1
-36.075
-36.05
-36.025
-36
-35.975
-35.95
-35.925
-35.9
-35.875
-35.85
-35.825
-35.8
-35.775
-35.75
-35.725
-35.7
-35.675
-35.65
-35.625
-35.6
-35.575
-35.55
-35.525
-35.5
-35.475
-35.45
-35.425
-35.4
-35.375
-35.35
-35.325
-35.3
-35.275
-35.25
-35.225
-35.2
-35.175
-35.15
-35.125
-35.1
-35.075
-35.05
-35.025
-35
-34.975
-34.95
-34.925
-34.9
-34.875
-34.85
-34.825
-34.8
-34.775
-34.75
-34.725
-34.7
-34.675
-34.65
-34.625
-34.6
-34.575
-34.55
-34.525
-34.5
-34.475
-34.45
-34.425
-34.4
-34.375
-34.35
-34.325
-34.3
-34.275
-34.25
-34.225
-34.2
-34.175
-34.15
-34.125
-34.1
-34.075
-34.05
-34.025
-34
-33.975
-33.95
-33.925
-33.9
-33.875
-33.85
-33.825
-33.8
-33.775
-33.75
-33.725
-33.7
-33.675
-33.65
-33.625
-33.6
-33.575
-33.55
-33.525
-33.5
-33.475
-33.45
-33.425
-33.4
-33.375
-33.35
-33.325
-33.3
-33.275
-33.25
-33.225
-33.2
-33.175
-33.15
-33.125
-33.1
-33.075
-33.05
-33.025
-33
-32.975
-32.95
-32.925
-32.9
-32.875
-32.85
-32.825
-32.8
-32.775
-32.75
-32.725
-32.7
-32.675
-32.65
-32.625
-32.6
-32.575
-32.55
-32.525
-32.5
-32.475
-32.45
-32.425
-32.4
-32.375
-32.35
-32.325
-32.3
-32.275
-32.25
-32.225
-32.2
-32.175
-32.15
-32.125
-32.1
-32.075
-32.05
-32.025
-32
-31.975
-31.95
-31.925
-31.9
-31.875
-31.85
-31.825
-31.8
-31.775
-31.75
-31.725
-31.7
-31.675
-31.65
-31.625
-31.6
-31.575
-31.55
-31.525
-31.5
-31.475
-31.45
-31.425
-31.4
-31.375
-31.35
-31.325
-31.3
-31.275
-31.25
-31.225
-31.2
-31.175
-31.15
-31.125
-31.1
-31.075
-31.05
-31.025
-31
-30.975
-30.95
-30.925
-30.9
-30.875
-30.85
-30.825
-30.8
-30.775
-30.75
-30.725
-30.7
-30.675
-30.65
-30.625
-30.6
-30.575
-30.55
-30.525
-30.5
-30.475
-30.45
-30.425
-30.4
-30.375
-30.35
-30.325
-30.3
-30.275
-30.25
-30.225
-30.2
-30.175
-30.15
-30.125
-30.1
-30.075
-30.05
-30.025
-30
-29.975
-29.95
-29.925
-29.9
-29.875
-29.85
-29.825
-29.8
-29.775
-29.75
-29.725
-29.7
-29.675
-29.65
-29.625
-29.6
-29.575
-29.55
-29.525
-29.5
-29.475
-29.45
-29.425
-29.4
-29.375
-29.35
-29.325
-29.3
-29.275
-29.25
-29.225
-29.2
-29.175
-29.15
-29.125
-29.1
-29.075
-29.05
-29.025
-29
-28.975
-28.95
-28.925
-28.9
-28.875
-28.85
-28.825
-28.8
-28.775
-28.75
-28.725
-28.7
-28.675
-28.65
-28.625
-28.6
-28.575
-28.55
-28.525
-28.5
-28.475
-28.45
-28.425
-28.4
-28.375
-28.35
-28.325
-28.3
-28.275
-28.25
-28.225
-28.2
-28.175
-28.15
-28.125
-28.1
-28.075
-28.05
-28.025
-28
-27.975
-27.95
-27.925
-27.9
-27.875
-27.85
-27.825
-27.8
-27.775
-27.75
-27.725
-27.7
-27.675
-27.65
-27.625
-27.6
-27.575
-27.55
-27.525
-27.5
-27.475
-27.45
-27.425
-27.4
-27.375
-27.35
-27.325
-27.3
-27.275
-27.25
-27.225
-27.2
-27.175
-27.15
-27.125
-27.1
-27.075
-27.05
-27.025
-27
-26.975
-26.95
-26.925
-26.9
-26.875
-26.85
-26.825
-26.8
-26.775
-26.75
-26.725
-26.7
-26.675
-26.65
-26.625
-26.6
-26.575
-26.55
-26.525
-26.5
-26.475
-26.45
-26.425
-26.4
-26.375
-26.35
-26.325
-26.3
-26.275
-26.25
-26.225
-26.2
-26.175
-26.15
-26.125
-26.1
-26.075
-26.05
-26.025
-26
-25.975
-25.95
-25.925
-25.9
-25.875
-25.85
-25.825
-25.8
-25.775
-25.75
-25.725
-25.7
-25.675
-25.65
-25.625
-25.6
-25.575
-25.55
-25.525
-25.5
-25.475
-25.45
-25.425
-25.4
-25.375
-25.35
-25.325
-25.3
-25.275
-25.25
-25.225
-25.2
-25.175
-25.15
-25.125
-25.1
-25.075
-25.05
-25.025
-25
-24.975
-24.95
-24.925
-24.9
-24.875
-24.85
-24.825
-24.8
-24.775
-24.75
-24.725
-24.7
-24.675
-24.65
-24.625
-24.6
-24.575
-24.55
-24.525
-24.5
-24.475
-24.45
-24.425
-24.4
-24.375
-24.35
-24.325
-24.3
-24.275
-24.25
-24.225
-24.2
-24.175
-24.15
-24.125
-24.1
-24.075
-24.05
-24.025
-24
-23.975
-23.95
-23.925
-23.9
-23.875
-23.85
-23.825
-23.8
-23.775
-23.75
-23.725
-23.7
-23.675
-23.65
-23.625
-23.6
-23.575
-23.55
-23.525
-23.5
-23.475
-23.45
-23.425
-23.4
-23.375
-23.35
-23.325
-23.3
-23.275
-23.25
-23.225
-23.2
-23.175
-23.15
-23.125
-23.1
-23.075
-23.05
-23.025
-23
-22.975
-22.95
-22.925
-22.9
-22.875
-22.85
-22.825
-22.8
-22.775
-22.75
-22.725
-22.7
-22.675
-22.65
-22.625
-22.6
-22.575
-22.55
-22.525
-22.5
-22.475
-22.45
-22.425
-22.4
-22.375
-22.35
-22.325
-22.3
-22.275
-22.25
-22.225
-22.2
-22.175
-22.15
-22.125
-22.1
-22.075
-22.05
-22.025
-22
-21.975
-21.95
-21.925
-21.9
-21.875
-21.85
-21.825
-21.8
-21.775
-21.75
-21.725
-21.7
-21.675
-21.65
-21.625
-21.6
-21.575
-21.55
-21.525
-21.5
-21.475
-21.45
-21.425
-21.4
-21.375
-21.35
-21.325
-21.3
-21.275
-21.25
-21.225
-21.2
-21.175
-21.15
-21.125
-21.1
-21.075
-21.05
-21.025
-21
-20.975
-20.95
-20.925
-20.9
-20.875
-20.85
-20.825
-20.8
-20.775
-20.75
-20.725
-20.7
-20.675
-20.65
-20.625
-20.6
-20.575
-20.55
-20.525
-20.5
-20.475
-20.45
-20.425
-20.4
-20.375
-20.35
-20.325
-20.3
-20.275
-20.25
-20.225
-20.2
-20.175
-20.15
-20.125
-20.1
-20.075
-20.05
-20.025
-20
VAR_LIST_END
BEGIN
-14.093278,-161.42377
-15.250896,-158.2415
-15.917382,-148.28218
-14.597922,-155.9146
-14.969942,-153.43704
-14.17681,-165.06598
-14.659047,-157.10815
-15.226106,-149.19539
-14.239736,-162.66853
-16.016743,-160.74646
-15.532273,-160.48001
-14.851121,-151.21494
-13.913317,-165.31209
-15.082941,-155.85095
-14.603765,-162.02983
-15.68411,-156.46318
-15.382296,-161.18988
-14.733183,-161.13728
-14.304667,-163.01073
-16.187252,-159.69647
-13.738088,-155.90475
-16.283649,-166.0312
-16.356686,-154.39508
-15.820022,-164.04564
-14.833609,-161.6687
-15.576488,-149.19553
-14.59341,-158.83826
-15.087101,-152.17668
-14.718373,-159.5522
-14.716087,-156.47014
-15.750796,-158.97726
-15.422716,-152.4128
-15.586777,-156.08403
-14.687264,-157.93651
-14.854292,-165.89215
-14.37493,-163.59943
-15.02287,-151.69894
-13.726448,-162.0498
-15.404242,-155.5856
-16.057623,-164.53404
-14.965715,-154.22742
-14.655105,-159.5247
-14.599879,-156.02274
-15.149293,-169.0332
-14.844093,-160.76208
-14.02621,-155.92253
-15.04106,-153.33374
-15.176542,-154.07213
-15.904476,-156.38316
-13.333777,-154.78857
-16.616056,-155.20007
-15.452196,-154.38908
-13.527944,-160.71082
-14.985385,-149.39095
-15.20579,-157.68736
-15.065191,-157.91826
-16.033052,-153.57724
-14.357159,-160.99524
-15.193589,-161.15746
-14.684278,-158.49702
-16.023323,-161.93556
-14.323475,-156.66872
-15.876967,-153.13132
-15.28188,-161.24956
-15.843201,-162.38918
-16.114155,-166.66522
-14.555776,-163.61581
-13.871016,-159.89572
-14.984369,-163.71626
-14.640054,-158.67082
-15.097886,-159.38696
-14.795609,-163.2162
-16.325678,-153.25212
-15.352267,-151.51546
-15.354836,-165.44301
-16.024654,-159.75076
-15.133407,-160.20615
-14.894658,-157.82893
-16.945454,-160.76656
-14.978816,-162.09187
-15.273839,-170.20477
-15.054165,-161.65384
-15.077759,-163.86145
-15.049466,-162.10774
-14.719675,-160.00827
-14.972869,-165.1555
-14.780371,-155.08772
-15.145802,-158.54691
-14.204152,-156.0089
-14.340925,-161.94089
-16.351891,-161.9278
-15.995623,-162.78627
-14.228739,-160.1254
-14.876655,-162.74469
-15.338317,-159.40437
-15.67852,-162.30206
-14.718426,-154.86511
-15.71265,-160.44176
-14.989924,-157.09967
-14.940322,-152.50879
-14.4262,-162.47896
-15.051311,-155.24278
-15.077924,-159.68959
-14.278641,-156.28256
-15.372695,-159.42903
-15.365601,-155.02344
-14.95535,-159.43285
-14.665461,-164.36043
-15.003276,-157.92717
-15.705434,-159.15495
-15.230799,-161.23979
-14.088454,-156.24492
-14.616405,-154.17839
-15.629681,-158.9967
-15.544406,-159.24356
-15.000287,-153.89532
-16.279514,-153.13387
-14.030263,-163.23352
-15.523426,-161.21257
-15.293148,-159.9498
-15.801561,-164.09546
-15.03487,-153.30109
-14.854395,-165.21042
-14.688608,-156.35472
-14.933548,-165.69516
-14.277931,-154.49495
-13.957085,-169.04538
-14.466341,-159.92274
-15.235672,-161.94843
-14.720428,-154.40736
-16.393141,-159.89481
-13.899186,-165.62952
-15.190137,-160.17856
-15.120959,-169.14978
-15.122303,-166.64992
-14.064513,-162.28917
-15.191462,-164.28354
-14.526258,-166.53574
-15.881722,-153.15327
-15.525037,-154.12959
-15.081382,-158.2507
-15.758617,-155.51059
-14.368679,-158.05919
-15.238484,-158.16347
-14.81517,-159.08353
-14.707806,-160.17563
-14.67758,-156.5972
-14.522579,-163.31558
-14.874747,-160.76044
-14.807189,-159.35001
-15.418318,-155.52176
-15.418426,-159.8801
-16.009041,-167.8586
-15.196962,-158.08589
-15.781223,-157.84619
-14.866046,-162.82057
-14.539506,-153.1384
-14.690377,-162.2957
-14.821548,-158.88666
-15.142216,-157.99744
-15.150572,-161.56438
-14.923643,-157.18753
-15.239125,-157.04805
-15.28763,-157.51506
-15.06889,-156.45908
-14.516261,-164.19429
-14.599513,-159.97032
-15.018046,-155.73608
-14.441975,-161.01407
-14.123964,-163.42404
-14.327273,-154.4337
-14.309352,-160.45859
-15.638783,-151.74774
-15.044791,-156.12347
-14.315502,-157.5878
-14.807614,-164.62146
-14.677818,-158.68408
-14.678037,-156.16966
-14.625449,-161.13104
-14.857224,-159.54555
-14.814795,-160.1055
-14.991061,-156.80165
-14.990224,-156.59621
-15.07954,-160.10455
-15.382536,-163.61232
-15.112991,-161.63252
-15.037899,-159.66414
-15.285084,-162.22711
-16.046007,-157.25124
-14.17396,-155.14932
-16.237816,-157.25545
-15.102835,-165.89226
-14.483926,-158.18933
-14.718236,-156.51692
-15.727394,-152.30251
-14.681315,-160.5139
-15.718412,-158.67856
-14.51432,-164.75809
-14.664532,-163.04881
-15.43967,-159.52094
-13.911194,-154.48967
-14.810369,-161.32883
-14.68051,-153.39493
-13.974621,-156.22209
-14.062263,-164.11092
-15.127677,-161.69273
-15.577179,-155.80933
-15.313117,-153.02071
-15.283989,-153.42017
-14.421798,-159.95343
-14.819139,-162.4334
-14.960875,-165.17523
-15.212916,-159.73401
-14.723212,-158.70247
-15.219004,-160.06972
-14.570589,-162.33095
-14.704706,-154.69876
-15.994264,-151.51962
-15.384094,-158.14212
-15.414449,-160.47333
-14.500592,-158.26323
-14.335917,-160.46432
-14.8534,-155.53654
-14.605474,-161.90346
-15.461486,-161.3239
-15.056845,-157.97847
-14.36284,-158.51358
-15.714227,-161.39223
-15.13718,-156.30629
-15.224579,-162.16931
-15.662972,-157.3562
-15.101243,-158.36394
-14.781282,-161.48769
-14.996819,-154.8644
-15.271729,-157.06834
-14.096962,-157.11154
-14.370975,-156.37973
-15.209142,-157.96725
-15.137941,-160.43042
-14.336662,-157.25365
-15.66028,-161.11134
-15.152583,-161.67957
-14.728982,-155.04253
-15.252772,-158.89589
-14.568892,-160.3181
-14.498736,-156.49931
-14.803514,-163.4688
-15.008896,-159.15724
-14.824025,-157.44489
-14.751537,-162.36014
-15.081729,-156.69086
-15.809052,-156.04727
-14.539288,-162.54068
-14.455933,-158.17181
-14.418747,-161.61523
-15.553359,-162.86975
-14.696082,-159.26472
-14.55069,-158.58591
-14.762098,-158.13091
-14.854834,-156.69087
-15.415832,-158.51277
-15.16962,-161.24413
-16.623089,-158.96638
-15.027892,-153.96352
-15.343096,-159.64456
-14.593949,-159.7827
-15.0067,-156.98781
-14.90919,-157.97234
-14.809011,-162.03471
-15.605999,-160.75215
-14.934456,-158.30557
-15.705923,-157.51369
-15.720397,-159.42068
-15.428731,-158.55318
-15.283648,-159.8163
-15.704711,-160.60791
-14.93166,-155.22717
-14.840281,-159.2558
-15.577052,-162.42892
-16.142208,-160.26588
-14.771257,-163.48967
-14.229637,-157.29997
-14.749423,-159.34212
-14.753036,-156.79211
-14.608488,-160.26001
-15.01342,-157.52222
-15.050437,-162.29298
-15.294971,-161.35704
-15.346691,-161.40358
-15.02446,-157.99866
-14.843459,-163.12036
-14.686133,-159.71486
-14.913237,-163.36264
-14.633808,-161.13014
-14.585443,-159.5542
-15.116175,-158.60667
-14.807158,-158.25099
-14.980182,-163.01945
-15.167077,-160.82928
-14.899666,-159.5255
-14.787809,-158.70837
-15.268293,-160.39122
-15.480025,-161.2308
-15.387381,-162.93788
-15.05617,-158.80505
-15.147223,-161.43233
-15.648827,-159.7972
-14.853432,-154.50281
-14.629682,-159.55786
-14.884042,-161.63611
-15.087336,-159.51222
-15.33786,-160.27872
-14.256083,-162.01088
-15.173237,-161.15593
-14.599084,-154.62218
-14.522081,-158.31276
-15.003821,-157.46994
-15.027508,-160.75822
-15.476026,-162.52332
-14.981281,-159.04353
-14.06819,-159.51154
-15.161069,-161.49466
-15.302406,-154.86906
-14.693565,-158.85376
-15.239259,-155.65266
-14.996198,-157.38828
-14.6834,-157.72667
-15.258066,-162.81599
-14.812153,-156.21181
-14.831854,-161.38737
-15.09234,-159.82396
-14.734458,-159.10959
-14.669003,-161.20741
-15.363908,-157.28632
-14.99192,-160.87767
-14.925937,-163.20007
-15.205835,-158.83403
-15.585387,-163.7455
-15.140354,-160.01558
-15.206514,-161.63065
-14.732614,-159.06798
-15.15572,-159.25897
-15.600965,-155.69492
-14.842657,-162.37975
-14.463189,-162.1339
-14.638793,-159.76958
-14.966229,-156.49081
-15.595768,-159.74699
-14.573331,-151.19809
-14.697281,-158.58894
-14.926393,-163.32304
-14.860784,-157.94821
-15.308005,-157.52554
-14.990534,-160.63078
-15.083556,-161.9091
-14.678733,-159.38968
-14.895133,-157.8824
-15.519814,-161.01782
-15.773511,-161.6407
-14.830646,-161.15778
-14.588931,-157.31731
-15.376013,-164.61703
-14.936468,-157.13638
-14.919187,-160.92369
-14.912494,-157.47603
-15.794344,-157.69209
-14.735664,-154.30081
-15.442138,-162.26457
-15.036222,-157.02237
-15.657983,-159.6918
-14.690865,-160.44905
-14.88637,-159.57962
-14.874392,-157.76967
-15.397083,-159.82692
-15.569301,-159.14149
-15.205664,-162.04045
-14.758489,-165.27599
-15.204819,-157.00572
-15.065497,-157.58069
-14.935328,-160.42197
-14.686912,-157.3716
-15.003623,-159.50281
-15.060421,-158.56186
-14.975893,-157.52626
-15.281489,-159.19563
-14.41635,-157.12486
-15.300445,-156.81296
-14.935422,-157.79607
-14.959475,-155.6019
-15.015881,-157.39938
-14.957335,-158.53076
-14.72566,-157.67381
-14.864628,-159.37245
-15.089347,-158.87311
-15.404325,-160.17604
-15.174747,-163.4975
-14.876248,-157.16731
-14.71624,-156.4198
-14.923942,-161.14307
-15.32917,-160.19139
-14.6724,-158.55858
-15.174831,-160.95631
-14.569601,-157.30666
-15.109822,-163.60973
-14.367409,-161.72601
-14.763247,-165.63379
-14.933307,-157.14027
-14.607529,-159.10956
-14.655567,-158.32785
-14.817872,-154.95737
-15.169301,-160.664
-14.728455,-158.84204
-15.313663,-160.06171
-14.648166,-158.03549
-15.270086,-159.27734
-14.77347,-161.00655
-15.135057,-158.5761
-15.208884,-160.02786
-14.406353,-155.77446
-14.875199,-161.43845
-15.482775,-160.0957
-15.084758,-157.83537
-15.129318,-158.92342
-14.861824,-155.29897
-14.940176,-157.87958
-14.927409,-158.17119
-15.190592,-160.08621
-14.849353,-157.70345
-14.976745,-161.07445
-15.061663,-161.87332
-15.015008,-162.2352
-15.152081,-159.47023
-15.011585,-160.20621
-14.67878,-162.03709
-14.668838,-157.94553
-14.632632,-158.76808
-15.048436,-157.4241
-14.861224,-160.91283
-15.035442,-159.94279
-14.989506,-159.40088
-14.978245,-160.88412
-14.839822,-159.46535
-15.127821,-159.31255
-15.345206,-160.0992
-14.727441,-161.78958
-14.666004,-155.95918
-14.714323,-160.03729
-15.404538,-158.82465
-15.054261,-159.56261
-14.814638,-158.7272
-15.103456,-158.00238
-14.8641,-158.65668
-15.041655,-159.05199
-14.817012,-158.5681
-14.768447,-162.72418
-14.650081,-158.36154
-15.307467,-156.51175
-15.176237,-162.08522
-14.793789,-159.80809
-14.99498,-157.86617
-15.09303,-160.00623
-15.152156,-159.36777
-14.903396,-160.6931
-14.648492,-157.21507
-14.972889,-161.13936
-14.878893,-157.47993
-15.072997,-158.95428
-14.521276,-161.44812
-14.718054,-159.68073
-15.131101,-157.78539
-15.20681,-158.22916
-15.365516,-156.39058
-15.489634,-159.94319
-14.893707,-158.61298
-14.893419,-157.56125
-14.802797,-157.74187
-14.810157,-156.85391
-14.839037,-157.75815
-14.791107,-159.00941
-15.082452,-157.78827
-15.194503,-158.9062
-15.434617,-159.48218
-15.107333,-160.53705
-14.979817,-159.59007
-14.941412,-160.72722
-15.080069,-158.80994
-14.751931,-160.84578
-14.814659,-160.44873
-15.237624,-161.07339
-14.78415,-156.94466
-15.330124,-160.48892
-15.06312,-161.26605
-15.269561,-159.51677
-14.770061,-156.93954
-15.041076,-160.82704
-14.648948,-159.43376
-15.242066,-157.63577
-15.11308,-157.8213
-14.922991,-159.38596
-15.203296,-158.1902
-14.822395,-160.09784
-14.99404,-160.9164
-14.944235,-158.19615
-14.947989,-159.7747
-14.466503,-161.677
-15.054976,-157.73865
-15.21819,-160.30556
-14.988638,-158.91852
-14.35789,-159.50534
-14.868901,-160.88602
-15.290546,-159.13791
-14.757819,-157.56654
-14.920677,-158.76015
-14.879062,-160.88248
-15.162472,-158.62952
-14.887245,-158.68336
-15.252355,-157.48505
-15.294606,-158.30539
-14.69377,-160.35873
-15.045621,-157.65007
-14.651963,-156.81886
-14.922631,-158.11081
-14.699932,-160.95964
-14.742805,-160.31549
-14.915601,-159.92091
-14.620083,-157.82695
-14.846539,-161.21048
-14.908662,-158.35915
-15.087354,-159.87265
-14.958808,-159.63312
-14.946177,-159.74103
-15.154785,-160.35052
-15.133642,-158.35217
-14.931512,-159.28325
-15.258355,-160.13266
-14.883291,-157.6429
-14.683662,-159.66714
-14.672012,-160.30098
-14.889938,-158.5271
-15.050922,-158.43166
-14.968594,-159.41887
-15.164594,-157.93433
-15.054236,-161.69742
-15.066296,-158.03156
-15.056883,-160.94847
-14.636063,-160.65294
-14.680867,-155.72499
-15.028771,-159.29185
-14.938115,-157.99274
-15.018494,-159.50491
-15.006886,-159.01706
-14.907743,-159.65666
-14.672786,-159.14484
-15.473912,-159.82156
-14.866934,-161.23564
-14.923103,-159.19704
-14.686451,-161.22667
-14.909059,-161.45441
-15.170998,-157.9201
-15.164397,-158.76245
-14.943521,-157.69742
-14.809939,-160.99608
-14.963922,-159.95073
-15.211768,-158.15181
-14.74361,-160.897
-15.15997,-159.66335
-15.006821,-157.36699
-15.189851,-159.16127
-15.011057,-157.53906
-14.877649,-159.93784
-15.011619,-159.8716
-14.937551,-158.87978
-15.011772,-157.42802
-14.98877,-157.48625
-14.695577,-159.41916
-14.970791,-160.03703
