CITIFILE A.01.01
!Agilent Technologies,N5230C,MY48100142,A.08.04.10
!Agilent N5230C: A.08.04.10
!Format: LogMag/Angle
!Date: Thursday, August 06, 2020 12:51:02
NAME CH1_DATA
VAR Power MAG 801
DATA S11 DBANGLE
DATA S21 DBANGLE
DATA S12 DBANGLE
DATA S22 DBANGLE
VAR_LIST_BEGIN
-40
-39.975
-39.95
-39.925
-39.9
-39.875
-39.85
-39.825
-39.8
-39.775
-39.75
-39.725
-39.7
-39.675
-39.65
-39.625
-39.6
-39.575
-39.55
-39.525
-39.5
-39.475
-39.45
-39.425
-39.4
-39.375
-39.35
-39.325
-39.3
-39.275
-39.25
-39.225
-39.2
-39.175
-39.15
-39.125
-39.1
-39.075
-39.05
-39.025
-39
-38.975
-38.95
-38.925
-38.9
-38.875
-38.85
-38.825
-38.8
-38.775
-38.75
-38.725
-38.7
-38.675
-38.65
-38.625
-38.6
-38.575
-38.55
-38.525
-38.5
-38.475
-38.45
-38.425
-38.4
-38.375
-38.35
-38.325
-38.3
-38.275
-38.25
-38.225
-38.2
-38.175
-38.15
-38.125
-38.1
-38.075
-38.05
-38.025
-38
-37.975
-37.95
-37.925
-37.9
-37.875
-37.85
-37.825
-37.8
-37.775
-37.75
-37.725
-37.7
-37.675
-37.65
-37.625
-37.6
-37.575
-37.55
-37.525
-37.5
-37.475
-37.45
-37.425
-37.4
-37.375
-37.35
-37.325
-37.3
-37.275
-37.25
-37.225
-37.2
-37.175
-37.15
-37.125
-37.1
-37.075
-37.05
-37.025
-37
-36.975
-36.95
-36.925
-36.9
-36.875
-36.85
-36.825
-36.8
-36.775
-36.75
-36.725
-36.7
-36.675
-36.65
-36.625
-36.6
-36.575
-36.55
-36.525
-36.5
-36.475
-36.45
-36.425
-36.4
-36.375
-36.35
-36.325
-36.3
-36.275
-36.25
-36.225
-36.2
-36.175
-36.15
-36.125
-36.1
-36.075
-36.05
-36.025
-36
-35.975
-35.95
-35.925
-35.9
-35.875
-35.85
-35.825
-35.8
-35.775
-35.75
-35.725
-35.7
-35.675
-35.65
-35.625
-35.6
-35.575
-35.55
-35.525
-35.5
-35.475
-35.45
-35.425
-35.4
-35.375
-35.35
-35.325
-35.3
-35.275
-35.25
-35.225
-35.2
-35.175
-35.15
-35.125
-35.1
-35.075
-35.05
-35.025
-35
-34.975
-34.95
-34.925
-34.9
-34.875
-34.85
-34.825
-34.8
-34.775
-34.75
-34.725
-34.7
-34.675
-34.65
-34.625
-34.6
-34.575
-34.55
-34.525
-34.5
-34.475
-34.45
-34.425
-34.4
-34.375
-34.35
-34.325
-34.3
-34.275
-34.25
-34.225
-34.2
-34.175
-34.15
-34.125
-34.1
-34.075
-34.05
-34.025
-34
-33.975
-33.95
-33.925
-33.9
-33.875
-33.85
-33.825
-33.8
-33.775
-33.75
-33.725
-33.7
-33.675
-33.65
-33.625
-33.6
-33.575
-33.55
-33.525
-33.5
-33.475
-33.45
-33.425
-33.4
-33.375
-33.35
-33.325
-33.3
-33.275
-33.25
-33.225
-33.2
-33.175
-33.15
-33.125
-33.1
-33.075
-33.05
-33.025
-33
-32.975
-32.95
-32.925
-32.9
-32.875
-32.85
-32.825
-32.8
-32.775
-32.75
-32.725
-32.7
-32.675
-32.65
-32.625
-32.6
-32.575
-32.55
-32.525
-32.5
-32.475
-32.45
-32.425
-32.4
-32.375
-32.35
-32.325
-32.3
-32.275
-32.25
-32.225
-32.2
-32.175
-32.15
-32.125
-32.1
-32.075
-32.05
-32.025
-32
-31.975
-31.95
-31.925
-31.9
-31.875
-31.85
-31.825
-31.8
-31.775
-31.75
-31.725
-31.7
-31.675
-31.65
-31.625
-31.6
-31.575
-31.55
-31.525
-31.5
-31.475
-31.45
-31.425
-31.4
-31.375
-31.35
-31.325
-31.3
-31.275
-31.25
-31.225
-31.2
-31.175
-31.15
-31.125
-31.1
-31.075
-31.05
-31.025
-31
-30.975
-30.95
-30.925
-30.9
-30.875
-30.85
-30.825
-30.8
-30.775
-30.75
-30.725
-30.7
-30.675
-30.65
-30.625
-30.6
-30.575
-30.55
-30.525
-30.5
-30.475
-30.45
-30.425
-30.4
-30.375
-30.35
-30.325
-30.3
-30.275
-30.25
-30.225
-30.2
-30.175
-30.15
-30.125
-30.1
-30.075
-30.05
-30.025
-30
-29.975
-29.95
-29.925
-29.9
-29.875
-29.85
-29.825
-29.8
-29.775
-29.75
-29.725
-29.7
-29.675
-29.65
-29.625
-29.6
-29.575
-29.55
-29.525
-29.5
-29.475
-29.45
-29.425
-29.4
-29.375
-29.35
-29.325
-29.3
-29.275
-29.25
-29.225
-29.2
-29.175
-29.15
-29.125
-29.1
-29.075
-29.05
-29.025
-29
-28.975
-28.95
-28.925
-28.9
-28.875
-28.85
-28.825
-28.8
-28.775
-28.75
-28.725
-28.7
-28.675
-28.65
-28.625
-28.6
-28.575
-28.55
-28.525
-28.5
-28.475
-28.45
-28.425
-28.4
-28.375
-28.35
-28.325
-28.3
-28.275
-28.25
-28.225
-28.2
-28.175
-28.15
-28.125
-28.1
-28.075
-28.05
-28.025
-28
-27.975
-27.95
-27.925
-27.9
-27.875
-27.85
-27.825
-27.8
-27.775
-27.75
-27.725
-27.7
-27.675
-27.65
-27.625
-27.6
-27.575
-27.55
-27.525
-27.5
-27.475
-27.45
-27.425
-27.4
-27.375
-27.35
-27.325
-27.3
-27.275
-27.25
-27.225
-27.2
-27.175
-27.15
-27.125
-27.1
-27.075
-27.05
-27.025
-27
-26.975
-26.95
-26.925
-26.9
-26.875
-26.85
-26.825
-26.8
-26.775
-26.75
-26.725
-26.7
-26.675
-26.65
-26.625
-26.6
-26.575
-26.55
-26.525
-26.5
-26.475
-26.45
-26.425
-26.4
-26.375
-26.35
-26.325
-26.3
-26.275
-26.25
-26.225
-26.2
-26.175
-26.15
-26.125
-26.1
-26.075
-26.05
-26.025
-26
-25.975
-25.95
-25.925
-25.9
-25.875
-25.85
-25.825
-25.8
-25.775
-25.75
-25.725
-25.7
-25.675
-25.65
-25.625
-25.6
-25.575
-25.55
-25.525
-25.5
-25.475
-25.45
-25.425
-25.4
-25.375
-25.35
-25.325
-25.3
-25.275
-25.25
-25.225
-25.2
-25.175
-25.15
-25.125
-25.1
-25.075
-25.05
-25.025
-25
-24.975
-24.95
-24.925
-24.9
-24.875
-24.85
-24.825
-24.8
-24.775
-24.75
-24.725
-24.7
-24.675
-24.65
-24.625
-24.6
-24.575
-24.55
-24.525
-24.5
-24.475
-24.45
-24.425
-24.4
-24.375
-24.35
-24.325
-24.3
-24.275
-24.25
-24.225
-24.2
-24.175
-24.15
-24.125
-24.1
-24.075
-24.05
-24.025
-24
-23.975
-23.95
-23.925
-23.9
-23.875
-23.85
-23.825
-23.8
-23.775
-23.75
-23.725
-23.7
-23.675
-23.65
-23.625
-23.6
-23.575
-23.55
-23.525
-23.5
-23.475
-23.45
-23.425
-23.4
-23.375
-23.35
-23.325
-23.3
-23.275
-23.25
-23.225
-23.2
-23.175
-23.15
-23.125
-23.1
-23.075
-23.05
-23.025
-23
-22.975
-22.95
-22.925
-22.9
-22.875
-22.85
-22.825
-22.8
-22.775
-22.75
-22.725
-22.7
-22.675
-22.65
-22.625
-22.6
-22.575
-22.55
-22.525
-22.5
-22.475
-22.45
-22.425
-22.4
-22.375
-22.35
-22.325
-22.3
-22.275
-22.25
-22.225
-22.2
-22.175
-22.15
-22.125
-22.1
-22.075
-22.05
-22.025
-22
-21.975
-21.95
-21.925
-21.9
-21.875
-21.85
-21.825
-21.8
-21.775
-21.75
-21.725
-21.7
-21.675
-21.65
-21.625
-21.6
-21.575
-21.55
-21.525
-21.5
-21.475
-21.45
-21.425
-21.4
-21.375
-21.35
-21.325
-21.3
-21.275
-21.25
-21.225
-21.2
-21.175
-21.15
-21.125
-21.1
-21.075
-21.05
-21.025
-21
-20.975
-20.95
-20.925
-20.9
-20.875
-20.85
-20.825
-20.8
-20.775
-20.75
-20.725
-20.7
-20.675
-20.65
-20.625
-20.6
-20.575
-20.55
-20.525
-20.5
-20.475
-20.45
-20.425
-20.4
-20.375
-20.35
-20.325
-20.3
-20.275
-20.25
-20.225
-20.2
-20.175
-20.15
-20.125
-20.1
-20.075
-20.05
-20.025
-20
VAR_LIST_END
BEGIN
-15.529209,-147.95073
-15.704321,-140.40872
-13.570471,-141.48975
-13.737139,-163.54144
-13.670954,-163.6377
-15.37112,-160.01987
-15.66311,-154.23894
-13.906502,-150.81641
-13.64745,-152.73265
-13.209727,-176.87941
-14.695091,-173.26096
-15.77937,-174.24977
-16.256088,-153.80695
-14.785007,-156.77185
-14.549019,-157.65685
-16.679789,-162.67647
-15.1182,-144.38356
-16.461031,-151.36562
-14.686424,-156.65504
-16.066309,-149.65984
-15.735422,-154.71539
-13.176733,-152.65984
-18.616394,-167.30383
-14.780717,-159.1933
-13.860112,-160.18097
-17.066408,-152.58557
-15.158137,-178.22835
-15.760685,-149.46181
-15.076936,-161.37805
-13.485276,-158.06013
-14.867205,-159.43942
-15.984524,-160.55743
-13.861846,-164.29338
-13.51835,-153.69579
-13.822907,-153.74333
-15.28311,-157.98112
-17.824284,-153.65689
-16.203413,-158.69873
-18.350395,-154.22794
-17.555332,-151.11008
-14.234675,-161.73323
-16.176483,-160.54564
-13.93511,-156.22873
-14.961001,-154.43716
-14.561951,-158.5184
-16.284378,-153.41823
-13.788972,-172.92488
-14.679788,-152.81149
-15.55349,-165.72842
-14.28793,-162.8588
-16.315689,-155.69116
-17.042324,-165.4492
-14.538568,-174.36433
-17.929401,-164.46162
-16.395601,-173.22491
-16.157734,-157.75058
-13.992785,-165.87387
-13.842748,-155.45848
-14.560573,-169.07436
-14.753107,-164.93599
-12.695669,-145.12938
-14.942055,-173.0435
-14.323335,-170.16397
-16.112701,-165.09912
-13.311117,-165.31285
-14.069266,-146.12442
-14.566817,-155.16017
-14.265496,-153.18852
-15.90002,-157.66623
-14.505003,-151.80827
-14.83595,-158.7655
-14.658514,-153.42509
-15.706406,-156.87666
-16.363173,-157.72472
-17.864908,-174.16176
-14.453593,-155.57855
-18.512907,-158.20604
-14.755342,-152.84711
-16.363411,-166.90446
-14.86675,-176.45656
-14.910723,-155.90627
-16.675938,-162.89496
-15.850188,-162.32634
-16.288612,-166.88599
-14.457304,-166.22569
-14.787811,-159.73518
-14.50278,-153.69377
-14.408323,-147.15332
-14.813289,-161.91522
-14.354979,-171.32903
-16.134071,-161.90939
-15.160291,-168.54628
-17.104523,-179.79488
-14.426597,-166.40817
-14.91136,-154.40083
-13.266423,-155.26802
-12.970467,-163.11664
-14.220639,-164.33559
-15.830304,-149.75475
-13.667318,-150.67975
-14.682085,-150.88571
-15.957192,-159.31546
-16.838089,-157.64307
-14.094552,-153.59753
-15.319149,-173.35703
-14.670123,-149.38216
-13.233627,-166.7426
-14.619531,-149.9503
-13.991846,-159.99617
-15.362143,-168.62473
-16.699377,-151.88187
-14.530123,-158.14856
-16.596329,-162.92299
-14.348596,-157.23109
-14.857365,-168.85164
-14.628794,-157.65561
-15.514991,-166.13339
-14.405325,-170.05568
-14.920041,-146.05107
-16.259035,-171.765
-13.487412,-163.76602
-16.078121,-153.86162
-13.129325,-150.07008
-13.448071,-152.73767
-13.990595,-155.98431
-15.272764,-151.98845
-14.301877,-160.60274
-14.451631,-163.15198
-15.102897,-152.24352
-15.512587,-168.44359
-15.94584,-162.10507
-15.765821,177.86996
-14.660679,-153.50688
-16.227112,-153.56989
-15.3488,-157.94124
-14.655939,-157.96254
-14.038053,-159.67216
-15.742093,-170.45152
-15.794344,-150.0766
-15.941121,-173.59204
-14.392559,178.15044
-15.124874,-161.87073
-16.884823,-157.6487
-15.481022,-160.28979
-14.495777,-159.12541
-13.380507,-164.44945
-13.282238,-165.55492
-15.604932,-156.74261
-13.728856,-168.67502
-16.200464,-154.03392
-14.106706,-155.3988
-13.453945,-154.01488
-14.538318,-163.63475
-14.830329,-158.54874
-14.712615,-163.40471
-15.08144,-165.97507
-15.102378,-167.96346
-16.241726,-169.00989
-15.172475,-160.75504
-16.877672,-138.49377
-14.752913,-160.59618
-14.896699,-171.8813
-15.521255,-158.32411
-14.881778,-160.2905
-15.092225,-153.26434
-16.546572,-162.45374
-14.023367,-157.93094
-14.496255,-156.08421
-14.263413,-152.07608
-15.359524,-152.67857
-14.785889,-169.27
-15.134338,-162.65802
-14.825511,-156.76089
-16.200415,-161.03958
-14.469413,-160.41356
-17.056786,-162.94211
-13.668993,-160.12265
-13.442969,-164.98648
-15.647601,-159.99921
-14.98307,-160.96426
-14.014655,-167.32513
-14.124541,-164.06013
-14.621676,-161.8847
-14.541077,-153.70255
-15.944901,-155.28773
-15.243024,-153.582
-16.606232,-162.43533
-15.110464,-159.77104
-15.599205,-162.48044
-15.570354,-164.61653
-17.552906,-158.22128
-14.289983,-153.49117
-14.626444,-162.38425
-15.861848,-158.20125
-14.090557,-150.08104
-15.970751,-165.25667
-15.138227,-158.75963
-14.781559,-168.53955
-14.544775,-155.83047
-14.716702,-156.24252
-14.431298,-158.51088
-14.356624,-160.44426
-15.837952,-147.21762
-15.517467,-148.89954
-15.618023,-157.27797
-14.690624,-161.21902
-15.607164,-154.81288
-14.270906,-159.38347
-15.51205,-150.48097
-14.87488,-149.6286
-13.652512,-165.16438
-13.71371,-156.53583
-15.684422,-157.97166
-18.665565,-151.21066
-13.976096,-162.06044
-14.647694,-164.90062
-13.571697,-153.40526
-14.397133,-161.81784
-16.526878,-156.08902
-14.882787,-162.71883
-14.713143,-158.03833
-15.625018,-158.69009
-15.563061,-157.32021
-15.200831,-152.1973
-15.451427,-166.14192
-14.364731,-155.50456
-14.707508,-147.87054
-14.235985,-156.26443
-14.548018,-152.89029
-15.87294,-148.20552
-14.73042,-154.02866
-15.674313,-151.64381
-16.056717,-160.67969
-14.468592,-157.61674
-14.373339,-163.07933
-14.99115,-167.87253
-14.58462,-166.98509
-15.355712,-155.10161
-15.299153,-153.23674
-13.74101,-159.41634
-15.168687,-167.85159
-14.406314,-156.24629
-15.059022,-159.63266
-15.496654,-162.76817
-14.175266,-158.32581
-15.490017,-152.6154
-14.768341,-150.59222
-14.893422,-150.53976
-15.467849,-156.14716
-14.624624,-164.18903
-14.833051,-160.6367
-14.344729,-155.80057
-14.805302,-164.9895
-15.362341,-157.11847
-14.895874,-160.77512
-14.335413,-162.29471
-14.631439,-156.47858
-14.036933,-158.86539
-14.247595,-163.50615
-14.566493,-160.70108
-15.995668,-159.36697
-15.900727,-156.8983
-15.017735,-164.76193
-15.190603,-162.9455
-14.473534,-148.87206
-16.627459,-169.08136
-15.96262,-154.89586
-15.332273,-162.42923
-15.173656,-154.57559
-14.333175,-162.19647
-14.517603,-160.13748
-14.745713,-165.01506
-14.941941,-155.73853
-14.622779,-151.50191
-14.603554,-158.23761
-16.131969,-160.65024
-17.225792,-159.62447
-15.615812,-146.61473
-15.098746,-159.80273
-15.416992,-154.65788
-14.917424,-158.27542
-14.685877,-162.05118
-14.933125,-158.80176
-14.461863,-156.1646
-14.998492,-162.36359
-14.43576,-158.7099
-15.1023,-169.03828
-14.853512,-162.38916
-13.000027,-163.90536
-14.654471,-160.00929
-15.357096,-159.26016
-14.810431,-149.15561
-15.898332,-159.10811
-14.960423,-157.3405
-15.418962,-160.11682
-15.015277,-157.25697
-14.375376,-160.62372
-14.47552,-159.23976
-13.946893,-166.21025
-14.819423,-161.33385
-13.907311,-164.40077
-15.531843,-161.67039
-15.999124,-153.42581
-14.778079,-163.90179
-15.548761,-166.28081
-14.940802,-164.78188
-15.058597,-164.77985
-14.313965,-159.92006
-15.01786,-169.96774
-16.57984,-163.15254
-14.178245,-161.82057
-15.625898,-154.44183
-14.951218,-154.94275
-15.549373,-154.20107
-15.228095,-150.59247
-15.84253,-157.81711
-15.82416,-157.37073
-14.49644,-159.06784
-14.96207,-157.7588
-15.674993,-160.50182
-14.644341,-163.3311
-15.383305,-160.68689
-15.23942,-159.20448
-14.833366,-154.25702
-15.000922,-158.34485
-17.25584,-162.62679
-14.619529,-156.01622
-15.035873,-160.76831
-15.381353,-161.96593
-14.563447,-157.76913
-15.215471,-156.62567
-14.575751,-158.95209
-15.406373,-154.15071
-15.477452,-152.76208
-15.378066,-156.38994
-14.685809,-155.45058
-14.687799,-156.04988
-15.606159,-152.20592
-15.249636,-150.18822
-15.574455,-158.58557
-15.521937,-158.64552
-15.202391,-155.54364
-15.210169,-160.98398
-14.424363,-158.73416
-14.674992,-159.29454
-14.300708,-159.10136
-14.183448,-163.95596
-14.843554,-159.56854
-15.578104,-159.84602
-15.323238,-152.40642
-14.393638,-160.99959
-15.143586,-166.34546
-14.767559,-157.11691
-14.485566,-154.69135
-14.980856,-156.5132
-14.604688,-157.41838
-14.476089,-156.68181
-14.302483,-157.58842
-15.35269,-161.13055
-13.907203,-154.50131
-15.438367,-158.97588
-15.276729,-156.04593
-14.613751,-160.29553
-15.588914,-163.72321
-15.924547,-163.07933
-14.515018,-157.33363
-15.75416,-154.46054
-14.698068,-157.75473
-15.202307,-158.37758
-14.50524,-157.6064
-14.539237,-164.01476
-14.388594,-154.89125
-14.370301,-153.43852
-14.881054,-162.13896
-15.491474,-162.79222
-14.878318,-161.06084
-14.831927,-159.18092
-16.169331,-159.45218
-15.130546,-157.19887
-15.886627,-159.93863
-15.911763,-156.51482
-15.418324,-157.66805
-15.268849,-161.54272
-14.946877,-160.85033
-14.919726,-157.702
-15.050402,-163.14943
-14.787543,-162.35178
-14.238676,-162.54163
-14.78108,-154.54826
-14.587948,-157.94583
-15.059766,-160.99788
-15.739864,-153.92386
-14.573714,-157.17073
-14.576152,-163.52606
-15.883948,-157.83878
-14.065203,-164.31375
-13.94219,-163.44112
-15.733184,-161.63463
-14.691132,-166.43565
-14.839398,-159.24126
-15.092015,-162.99864
-14.8311,-157.45369
-15.448078,-158.88245
-14.701437,-165.09531
-14.274497,-158.37383
-15.817522,-156.62849
-15.49665,-158.35762
-15.024585,-157.94528
-14.900861,-158.18336
-15.172839,-158.61392
-15.279005,-157.90256
-14.359677,-157.42751
-15.185982,-160.07932
-15.059224,-158.83931
-15.62468,-160.12617
-14.92387,-159.97543
-15.383587,-158.27266
-15.152401,-160.13115
-13.80278,-162.47002
-14.831931,-160.77304
-15.29677,-159.95023
-14.930079,-158.48326
-15.470539,-155.05211
-14.80952,-160.32118
-14.384248,-158.87953
-15.237188,-154.3717
-14.446001,-156.68176
-15.964622,-157.97906
-14.976717,-157.72795
-14.670994,-163.07971
-14.880526,-154.83014
-14.727561,-161.9749
-15.195508,-159.28021
-14.860579,-160.35118
-15.005464,-163.06064
-15.66572,-154.74883
-15.308982,-161.2146
-14.562373,-159.01447
-15.303307,-159.30354
-14.100238,-156.21082
-15.481312,-163.03658
-14.396224,-159.01695
-14.231122,-154.42429
-15.09453,-157.8302
-15.03773,-154.83879
-15.242117,-163.25038
-15.560276,-159.46892
-14.550241,-162.99104
-16.023176,-156.48798
-15.365161,-155.52379
-14.432075,-159.37796
-15.181239,-159.35135
-15.444839,-161.40054
-15.04621,-161.57581
-15.361405,-157.34637
-15.406915,-161.83995
-14.486894,-158.92744
-14.987254,-162.12849
-15.325842,-165.86385
-14.990294,-161.65623
-14.450011,-159.69772
-14.527648,-161.34398
-15.371004,-160.85939
-14.353266,-158.46185
-15.254473,-158.3847
-15.259981,-160.84528
-15.344478,-159.58965
-14.842881,-157.41373
-14.747746,-160.86737
-14.864936,-157.69188
-15.16814,-155.16757
-14.779639,-158.76552
-14.045928,-157.88724
-15.108027,-159.85188
-15.021295,-157.39052
-14.969039,-154.01915
-14.827365,-160.87804
-14.672782,-154.26379
-14.570443,-159.60619
-14.981168,-157.81665
-14.695602,-162.86948
-14.368314,-162.37968
-14.522789,-160.58617
-14.692299,-157.32051
-14.828856,-162.49893
-14.639224,-156.8429
-15.386268,-155.73135
-15.012846,-156.8821
-15.44347,-155.59868
-14.64751,-160.95502
-15.993587,-160.14726
-14.929183,-156.91035
-15.438918,-157.42775
-15.038504,-158.53377
-15.136943,-161.89267
-14.465225,-162.26143
-14.51088,-155.33559
-14.55616,-161.23016
-15.160443,-161.67874
-14.557721,-158.94806
-14.787898,-162.29352
-14.570504,-159.61229
-15.853316,-159.86823
-14.969777,-161.88791
-15.415032,-158.44308
-14.594424,-160.19151
-15.123798,-152.5979
-15.125304,-161.30945
-15.217648,-159.40813
-15.068577,-154.30348
-15.313254,-160.64177
-14.835835,-159.65013
-15.072093,-157.3922
-14.909263,-160.91475
-15.17194,-158.87061
-14.44086,-155.43562
-15.39043,-158.38332
-15.515615,-157.16447
-15.28578,-156.77702
-14.195844,-159.87878
-14.798923,-158.12743
-15.006563,-160.22798
-14.654025,-161.67639
-15.262714,-157.69469
-14.462182,-159.22012
-14.632915,-162.94981
-15.684727,-159.96927
-15.078219,-158.63919
-14.859622,-158.47202
-14.811802,-154.78656
-15.251369,-159.64377
-14.719192,-158.00745
-14.621515,-162.60692
-14.848889,-156.50545
-14.749883,-159.84882
-15.149483,-159.63007
-14.986941,-160.61989
-15.037248,-157.80118
-14.868092,-163.07411
-15.367843,-155.49124
-14.696757,-158.82732
-15.011533,-157.02638
-14.828879,-157.04927
-15.300557,-156.26373
-15.241808,-156.89117
-14.825773,-158.47133
-14.89674,-158.61043
-14.994985,-158.26161
-15.041088,-161.03845
-14.526822,-157.09608
-15.085372,-159.08049
-14.812998,-160.67319
-15.109443,-157.53807
-15.14064,-157.84708
-14.841805,-158.18352
-14.903542,-155.2104
-15.490971,-157.45824
-14.858122,-157.90546
-14.497638,-157.32709
-14.636763,-159.46783
-14.917073,-158.33385
-15.561657,-159.81699
-14.941989,-160.6331
-15.263671,-161.28113
-14.896357,-160.12022
-15.120059,-156.08842
-14.7927,-159.27615
-14.615298,-157.61963
-14.695524,-158.89072
-14.885859,-157.60666
-14.978498,-158.0638
-15.232948,-157.66539
-15.244824,-161.71075
-14.590364,-158.62488
-15.270647,-157.12807
-15.27617,-159.28854
