CITIFILE A.01.01
!Agilent Technologies,N5230C,MY48100142,A.08.04.10
!Agilent N5230C: A.08.04.10
!Format: LogMag/Angle
!Date: Friday, August 28, 2020 15:23:38
NAME CH1_DATA
VAR Power MAG 801
DATA S11 DBANGLE
DATA S21 DBANGLE
DATA S12 DBANGLE
DATA S22 DBANGLE
VAR_LIST_BEGIN
-40
-39.975
-39.95
-39.925
-39.9
-39.875
-39.85
-39.825
-39.8
-39.775
-39.75
-39.725
-39.7
-39.675
-39.65
-39.625
-39.6
-39.575
-39.55
-39.525
-39.5
-39.475
-39.45
-39.425
-39.4
-39.375
-39.35
-39.325
-39.3
-39.275
-39.25
-39.225
-39.2
-39.175
-39.15
-39.125
-39.1
-39.075
-39.05
-39.025
-39
-38.975
-38.95
-38.925
-38.9
-38.875
-38.85
-38.825
-38.8
-38.775
-38.75
-38.725
-38.7
-38.675
-38.65
-38.625
-38.6
-38.575
-38.55
-38.525
-38.5
-38.475
-38.45
-38.425
-38.4
-38.375
-38.35
-38.325
-38.3
-38.275
-38.25
-38.225
-38.2
-38.175
-38.15
-38.125
-38.1
-38.075
-38.05
-38.025
-38
-37.975
-37.95
-37.925
-37.9
-37.875
-37.85
-37.825
-37.8
-37.775
-37.75
-37.725
-37.7
-37.675
-37.65
-37.625
-37.6
-37.575
-37.55
-37.525
-37.5
-37.475
-37.45
-37.425
-37.4
-37.375
-37.35
-37.325
-37.3
-37.275
-37.25
-37.225
-37.2
-37.175
-37.15
-37.125
-37.1
-37.075
-37.05
-37.025
-37
-36.975
-36.95
-36.925
-36.9
-36.875
-36.85
-36.825
-36.8
-36.775
-36.75
-36.725
-36.7
-36.675
-36.65
-36.625
-36.6
-36.575
-36.55
-36.525
-36.5
-36.475
-36.45
-36.425
-36.4
-36.375
-36.35
-36.325
-36.3
-36.275
-36.25
-36.225
-36.2
-36.175
-36.15
-36.125
-36.1
-36.075
-36.05
-36.025
-36
-35.975
-35.95
-35.925
-35.9
-35.875
-35.85
-35.825
-35.8
-35.775
-35.75
-35.725
-35.7
-35.675
-35.65
-35.625
-35.6
-35.575
-35.55
-35.525
-35.5
-35.475
-35.45
-35.425
-35.4
-35.375
-35.35
-35.325
-35.3
-35.275
-35.25
-35.225
-35.2
-35.175
-35.15
-35.125
-35.1
-35.075
-35.05
-35.025
-35
-34.975
-34.95
-34.925
-34.9
-34.875
-34.85
-34.825
-34.8
-34.775
-34.75
-34.725
-34.7
-34.675
-34.65
-34.625
-34.6
-34.575
-34.55
-34.525
-34.5
-34.475
-34.45
-34.425
-34.4
-34.375
-34.35
-34.325
-34.3
-34.275
-34.25
-34.225
-34.2
-34.175
-34.15
-34.125
-34.1
-34.075
-34.05
-34.025
-34
-33.975
-33.95
-33.925
-33.9
-33.875
-33.85
-33.825
-33.8
-33.775
-33.75
-33.725
-33.7
-33.675
-33.65
-33.625
-33.6
-33.575
-33.55
-33.525
-33.5
-33.475
-33.45
-33.425
-33.4
-33.375
-33.35
-33.325
-33.3
-33.275
-33.25
-33.225
-33.2
-33.175
-33.15
-33.125
-33.1
-33.075
-33.05
-33.025
-33
-32.975
-32.95
-32.925
-32.9
-32.875
-32.85
-32.825
-32.8
-32.775
-32.75
-32.725
-32.7
-32.675
-32.65
-32.625
-32.6
-32.575
-32.55
-32.525
-32.5
-32.475
-32.45
-32.425
-32.4
-32.375
-32.35
-32.325
-32.3
-32.275
-32.25
-32.225
-32.2
-32.175
-32.15
-32.125
-32.1
-32.075
-32.05
-32.025
-32
-31.975
-31.95
-31.925
-31.9
-31.875
-31.85
-31.825
-31.8
-31.775
-31.75
-31.725
-31.7
-31.675
-31.65
-31.625
-31.6
-31.575
-31.55
-31.525
-31.5
-31.475
-31.45
-31.425
-31.4
-31.375
-31.35
-31.325
-31.3
-31.275
-31.25
-31.225
-31.2
-31.175
-31.15
-31.125
-31.1
-31.075
-31.05
-31.025
-31
-30.975
-30.95
-30.925
-30.9
-30.875
-30.85
-30.825
-30.8
-30.775
-30.75
-30.725
-30.7
-30.675
-30.65
-30.625
-30.6
-30.575
-30.55
-30.525
-30.5
-30.475
-30.45
-30.425
-30.4
-30.375
-30.35
-30.325
-30.3
-30.275
-30.25
-30.225
-30.2
-30.175
-30.15
-30.125
-30.1
-30.075
-30.05
-30.025
-30
-29.975
-29.95
-29.925
-29.9
-29.875
-29.85
-29.825
-29.8
-29.775
-29.75
-29.725
-29.7
-29.675
-29.65
-29.625
-29.6
-29.575
-29.55
-29.525
-29.5
-29.475
-29.45
-29.425
-29.4
-29.375
-29.35
-29.325
-29.3
-29.275
-29.25
-29.225
-29.2
-29.175
-29.15
-29.125
-29.1
-29.075
-29.05
-29.025
-29
-28.975
-28.95
-28.925
-28.9
-28.875
-28.85
-28.825
-28.8
-28.775
-28.75
-28.725
-28.7
-28.675
-28.65
-28.625
-28.6
-28.575
-28.55
-28.525
-28.5
-28.475
-28.45
-28.425
-28.4
-28.375
-28.35
-28.325
-28.3
-28.275
-28.25
-28.225
-28.2
-28.175
-28.15
-28.125
-28.1
-28.075
-28.05
-28.025
-28
-27.975
-27.95
-27.925
-27.9
-27.875
-27.85
-27.825
-27.8
-27.775
-27.75
-27.725
-27.7
-27.675
-27.65
-27.625
-27.6
-27.575
-27.55
-27.525
-27.5
-27.475
-27.45
-27.425
-27.4
-27.375
-27.35
-27.325
-27.3
-27.275
-27.25
-27.225
-27.2
-27.175
-27.15
-27.125
-27.1
-27.075
-27.05
-27.025
-27
-26.975
-26.95
-26.925
-26.9
-26.875
-26.85
-26.825
-26.8
-26.775
-26.75
-26.725
-26.7
-26.675
-26.65
-26.625
-26.6
-26.575
-26.55
-26.525
-26.5
-26.475
-26.45
-26.425
-26.4
-26.375
-26.35
-26.325
-26.3
-26.275
-26.25
-26.225
-26.2
-26.175
-26.15
-26.125
-26.1
-26.075
-26.05
-26.025
-26
-25.975
-25.95
-25.925
-25.9
-25.875
-25.85
-25.825
-25.8
-25.775
-25.75
-25.725
-25.7
-25.675
-25.65
-25.625
-25.6
-25.575
-25.55
-25.525
-25.5
-25.475
-25.45
-25.425
-25.4
-25.375
-25.35
-25.325
-25.3
-25.275
-25.25
-25.225
-25.2
-25.175
-25.15
-25.125
-25.1
-25.075
-25.05
-25.025
-25
-24.975
-24.95
-24.925
-24.9
-24.875
-24.85
-24.825
-24.8
-24.775
-24.75
-24.725
-24.7
-24.675
-24.65
-24.625
-24.6
-24.575
-24.55
-24.525
-24.5
-24.475
-24.45
-24.425
-24.4
-24.375
-24.35
-24.325
-24.3
-24.275
-24.25
-24.225
-24.2
-24.175
-24.15
-24.125
-24.1
-24.075
-24.05
-24.025
-24
-23.975
-23.95
-23.925
-23.9
-23.875
-23.85
-23.825
-23.8
-23.775
-23.75
-23.725
-23.7
-23.675
-23.65
-23.625
-23.6
-23.575
-23.55
-23.525
-23.5
-23.475
-23.45
-23.425
-23.4
-23.375
-23.35
-23.325
-23.3
-23.275
-23.25
-23.225
-23.2
-23.175
-23.15
-23.125
-23.1
-23.075
-23.05
-23.025
-23
-22.975
-22.95
-22.925
-22.9
-22.875
-22.85
-22.825
-22.8
-22.775
-22.75
-22.725
-22.7
-22.675
-22.65
-22.625
-22.6
-22.575
-22.55
-22.525
-22.5
-22.475
-22.45
-22.425
-22.4
-22.375
-22.35
-22.325
-22.3
-22.275
-22.25
-22.225
-22.2
-22.175
-22.15
-22.125
-22.1
-22.075
-22.05
-22.025
-22
-21.975
-21.95
-21.925
-21.9
-21.875
-21.85
-21.825
-21.8
-21.775
-21.75
-21.725
-21.7
-21.675
-21.65
-21.625
-21.6
-21.575
-21.55
-21.525
-21.5
-21.475
-21.45
-21.425
-21.4
-21.375
-21.35
-21.325
-21.3
-21.275
-21.25
-21.225
-21.2
-21.175
-21.15
-21.125
-21.1
-21.075
-21.05
-21.025
-21
-20.975
-20.95
-20.925
-20.9
-20.875
-20.85
-20.825
-20.8
-20.775
-20.75
-20.725
-20.7
-20.675
-20.65
-20.625
-20.6
-20.575
-20.55
-20.525
-20.5
-20.475
-20.45
-20.425
-20.4
-20.375
-20.35
-20.325
-20.3
-20.275
-20.25
-20.225
-20.2
-20.175
-20.15
-20.125
-20.1
-20.075
-20.05
-20.025
-20
VAR_LIST_END
BEGIN
-16.695835,-161.89595
-14.581806,-161.41022
-15.216083,-166.63138
-16.476494,-155.79617
-13.424051,-160.93962
-14.336053,-161.54698
-15.472502,-158.75699
-15.921194,-161.34717
-14.846945,-158.38446
-15.815047,-159.96268
-14.444468,-152.39105
-16.458855,-155.24554
-15.999395,-169.01508
-15.245006,-153.71991
-15.958785,-151.09192
-14.415003,-162.19603
-14.045689,-160.86038
-15.20803,-158.49042
-14.935941,-152.51479
-14.818951,-153.73315
-15.130857,-159.83955
-14.492785,-145.06583
-15.358918,-155.7159
-14.039667,-161.16048
-13.669446,-155.87572
-16.182528,-148.88992
-14.89011,-155.80072
-14.618939,-152.99062
-14.719927,-167.02878
-14.948297,-154.21167
-16.101145,-150.89307
-14.600158,-161.8622
-15.365664,-156.01122
-14.174076,-152.09663
-14.051627,-160.72281
-14.744713,-159.63705
-15.016594,-155.45462
-15.287472,-154.51212
-14.486382,-154.74876
-15.218933,-168.32782
-14.22647,-163.70978
-14.357288,-154.81178
-14.398519,-151.76895
-15.236324,-162.94745
-15.357076,-158.27467
-15.436517,-162.91051
-15.126635,-157.80548
-15.23618,-158.07808
-15.542812,-148.64917
-15.416338,-151.97908
-14.351841,-160.94844
-14.660964,-165.15796
-14.47993,-159.34642
-15.214894,-162.84612
-15.146791,-162.44994
-15.010942,-158.0524
-14.024092,-159.0258
-14.367758,-161.88322
-16.858345,-167.59633
-14.194089,-160.80901
-14.195807,-162.29051
-15.287865,-165.11203
-15.539398,-149.5354
-15.79261,-163.38673
-15.636523,-156.543
-15.463921,-171.2637
-14.949414,-155.80122
-15.010304,-157.56058
-16.795107,-158.71219
-14.730416,-160.39986
-14.875475,-162.76909
-14.871521,-166.02748
-15.261271,-159.09305
-15.391105,-157.22289
-15.666331,-158.22018
-14.213171,-159.78412
-15.002799,-160.05629
-15.30078,-159.21147
-15.760149,-157.67017
-14.736477,-158.57004
-13.814992,-157.10857
-14.559002,-158.40646
-15.068455,-160.5386
-14.755481,-155.85651
-15.503853,-160.47171
-15.041423,-156.08818
-14.773148,-149.03082
-15.243594,-154.67279
-15.017469,-150.68523
-14.983442,-161.60277
-14.595025,-167.55759
-15.335777,-164.23927
-14.347952,-157.98511
-15.768982,-159.57353
-14.864631,-153.61977
-14.476332,-161.70392
-14.84254,-156.95093
-15.351336,-159.4245
-14.346723,-159.86823
-15.42256,-156.34018
-15.578996,-155.05708
-16.037079,-164.32579
-15.099193,-162.89536
-14.286888,-164.56021
-13.914696,-155.89671
-15.627653,-149.35625
-14.47127,-158.5545
-15.06248,-160.88428
-14.140642,-161.19246
-14.748017,-158.47061
-14.589011,-156.88954
-14.914397,-151.43765
-15.226471,-159.51677
-15.385723,-159.20023
-15.060332,-152.21703
-15.290817,-161.44829
-15.520534,-155.69662
-14.491678,-162.83308
-15.973591,-152.77194
-14.524307,-158.92551
-14.471916,-159.38075
-15.42168,-153.84921
-14.095773,-163.00972
-15.314072,-153.14386
-15.180437,-154.05009
-15.936459,-161.9743
-15.643391,-157.82677
-14.695148,-156.8212
-14.330092,-157.49319
-14.817408,-155.45749
-14.191204,-160.67204
-15.526012,-161.15089
-14.766327,-163.36365
-15.377449,-157.83098
-15.275949,-158.53233
-15.42659,-164.51772
-15.76746,-155.35107
-14.818231,-160.28549
-16.054163,-159.87198
-15.137944,-156.14175
-14.859909,-163.79591
-16.059298,-154.20251
-16.095228,-160.44185
-15.426255,-153.22659
-16.090048,-163.03592
-14.459249,-155.05286
-15.317006,-150.85461
-14.747625,-161.4549
-13.890155,-160.83267
-14.016143,-154.12842
-14.96675,-160.86977
-14.355447,-155.96017
-15.121913,-154.42398
-14.454377,-164.69785
-16.07395,-163.01797
-14.754172,-159.85582
-14.664769,-156.97708
-14.789042,-155.5562
-13.889307,-159.15874
-15.351308,-151.82268
-16.316477,-152.02667
-14.686346,-159.51781
-14.833997,-159.63902
-15.343391,-157.66133
-14.569063,-152.91364
-14.663969,-155.74542
-14.938345,-156.02341
-14.974512,-161.40181
-14.385841,-159.62817
-15.947854,-160.08586
-14.884641,-162.96098
-14.381579,-155.42232
-14.738174,-158.8976
-15.03757,-157.98633
-14.904741,-157.07411
-14.531995,-158.57368
-15.801044,-158.77202
-15.681696,-161.37454
-13.906568,-153.28043
-15.219558,-157.14139
-14.959779,-163.19063
-14.077665,-159.59253
-14.92036,-157.13895
-14.497482,-159.37683
-14.139972,-157.09515
-15.598308,-158.78421
-14.814716,-159.5856
-14.653952,-158.4183
-15.424086,-158.55937
-15.123938,-157.78603
-15.142208,-154.16258
-15.700522,-161.86957
-14.761834,-162.07947
-14.815861,-159.31467
-15.164245,-165.50783
-14.872245,-155.65274
-15.083383,-159.77534
-14.892715,-156.99876
-15.44721,-155.3326
-15.695409,-158.74219
-14.065898,-160.48082
-14.64964,-154.11113
-15.362679,-155.60356
-14.4173,-164.08951
-14.798172,-160.40506
-14.966931,-154.92557
-14.922338,-155.978
-14.367876,-155.42317
-14.297203,-162.31398
-14.733279,-159.86917
-15.859914,-156.54492
-15.192563,-158.84526
-15.55907,-161.10057
-15.739151,-155.34131
-15.105874,-159.86639
-14.130376,-156.02258
-15.486169,-159.81128
-14.559654,-160.03685
-14.623114,-158.41252
-14.816956,-161.59386
-15.904825,-154.72748
-15.17085,-154.52841
-14.790206,-154.71843
-14.858452,-158.33762
-15.777816,-159.29968
-13.986418,-159.81065
-15.426948,-156.46182
-14.860214,-158.44408
-15.111385,-157.85887
-14.558513,-161.41116
-14.51397,-155.16698
-15.532612,-158.95155
-15.079845,-160.79236
-14.828155,-151.81963
-14.290896,-162.4921
-15.418656,-159.90262
-14.911945,-155.4129
-15.625237,-154.11987
-14.073802,-150.90724
-14.489407,-156.16408
-14.823348,-157.89648
-14.841102,-161.90631
-14.76871,-161.93253
-15.350805,-160.65883
-14.534565,-162.64441
-15.457563,-161.3125
-14.906453,-155.33501
-15.320882,-165.66048
-15.161985,-158.86989
-15.161589,-161.84229
-15.056427,-158.60555
-15.644115,-161.03893
-15.283994,-158.78555
-15.157647,-160.19571
-14.629521,-156.52115
-14.175991,-154.35571
-15.33073,-161.02754
-14.828884,-159.3494
-14.880106,-156.15714
-15.529287,-159.86406
-14.606987,-159.32939
-14.624254,-161.92468
-14.906973,-158.3869
-15.108678,-159.83261
-14.849715,-159.40036
-14.916378,-157.92395
-15.853969,-158.99417
-15.800078,-160.60965
-14.571641,-157.89384
-14.70752,-161.18253
-14.436158,-162.41075
-14.799268,-158.80394
-14.773121,-155.48727
-14.709773,-161.30386
-14.061045,-155.46748
-15.289088,-160.96101
-14.725883,-157.40248
-15.273973,-157.28317
-14.942773,-156.02893
-15.110874,-157.45381
-15.293277,-159.16183
-15.285262,-157.35454
-15.230207,-158.86449
-14.659847,-155.41504
-14.890335,-161.69925
-14.806503,-160.23801
-15.777163,-156.76401
-15.17011,-158.29889
-15.325812,-155.12141
-14.688369,-155.50908
-14.861943,-160.89275
-14.987712,-161.63728
-15.442379,-157.04958
-14.91426,-158.17889
-14.72993,-158.73056
-15.288391,-154.75076
-15.053317,-155.94376
-15.374256,-157.41475
-14.529946,-157.737
-15.362514,-157.2401
-15.112608,-161.71967
-14.848719,-159.29333
-14.628467,-158.12383
-14.764947,-157.71538
-15.41611,-162.81729
-14.586174,-160.58878
-15.495888,-162.19551
-14.82818,-157.99884
-15.410587,-157.51698
-15.243666,-157.17023
-14.868521,-160.31808
-15.488275,-157.46388
-14.924691,-158.62062
-15.095823,-158.56761
-14.911467,-160.13658
-15.352609,-157.5545
-14.661902,-159.65901
-15.182329,-158.81192
-14.853204,-158.2827
-15.716625,-157.32899
-15.649588,-159.55386
-14.125596,-156.48796
-14.936302,-160.0217
-15.404376,-156.54968
-14.842294,-161.772
-15.069264,-156.32176
-15.42326,-156.79036
-14.527207,-161.43372
-15.375264,-157.49069
-14.955964,-157.2016
-15.590393,-163.91068
-15.028416,-158.95816
-14.918542,-157.01466
-15.416653,-160.57281
-14.780637,-166.92659
-15.019396,-158.74008
-15.203876,-162.02054
-14.82375,-157.37108
-14.887469,-156.27432
-15.096164,-156.65254
-15.477421,-159.28418
-14.766526,-158.90997
-15.463532,-160.03824
-14.892567,-162.04514
-15.299523,-161.00851
-15.103126,-159.85083
-14.636124,-157.82921
-15.329217,-156.27037
-15.137528,-158.08369
-15.264851,-157.02017
-15.166937,-156.9944
-14.706978,-159.85777
-15.151052,-159.43719
-14.541494,-155.34978
-15.018259,-161.79364
-15.511348,-155.65038
-15.428351,-161.50334
-15.483082,-160.99557
-15.07657,-157.48659
-14.996922,-160.3755
-15.490205,-161.13435
-14.663164,-156.30171
-15.14878,-161.25148
-15.505742,-159.10417
-15.050333,-156.76215
-15.353204,-159.46109
-15.177594,-162.41779
-15.492829,-157.37447
-15.161761,-158.99323
-14.696997,-164.52901
-15.387486,-158.40543
-14.933812,-154.92256
-15.269308,-160.20444
-15.299737,-157.06297
-15.3908,-156.66316
-14.819959,-156.35207
-14.489568,-159.65709
-14.431595,-159.0177
-15.324119,-158.79256
-15.028504,-158.07579
-14.790184,-161.35013
-15.083967,-158.38171
-14.901252,-157.85596
-14.803719,-156.7587
-15.256687,-157.2952
-15.117537,-156.60362
-14.712782,-156.88968
-14.780453,-154.98816
-14.842809,-160.58681
-15.161767,-158.09914
-14.804678,-159.25949
-15.146284,-159.7216
-15.114098,-157.57597
-14.692369,-157.60747
-14.850553,-158.33244
-14.862262,-155.59099
-15.146828,-155.40501
-15.111032,-158.44005
-15.263743,-161.28879
-15.104857,-158.39864
-15.327291,-157.08742
-14.821846,-156.70876
-14.857001,-157.19292
-15.062943,-161.23657
-15.48376,-153.07422
-14.867786,-155.35672
-14.548816,-157.72891
-14.895559,-157.19092
-14.771395,-159.45012
-15.225085,-159.81233
-14.762499,-157.73534
-14.853627,-159.43332
-15.017845,-157.85648
-15.199506,-161.68832
-15.288712,-159.28784
-14.916718,-156.39299
-14.943445,-156.13345
-14.897986,-159.57436
-14.818316,-158.15858
-14.952021,-156.11407
-14.780966,-156.68272
-14.797132,-159.6012
-14.845142,-158.83659
-14.843103,-157.77768
-15.742761,-156.92883
-15.190617,-159.19221
-14.741164,-161.04915
-15.159384,-158.19174
-14.678461,-156.3867
-14.866192,-157.95398
-15.055384,-157.10909
-15.308826,-157.97794
-15.241922,-158.50922
-15.052636,-158.65356
-15.019944,-154.95894
-15.077164,-160.85985
-15.253753,-160.90811
-15.078913,-159.0643
-15.104936,-159.11481
-15.164681,-157.93327
-14.897736,-156.55583
-14.915882,-158.25703
-14.678571,-160.19844
-15.003702,-159.11725
-15.097604,-158.63365
-15.086697,-159.39455
-14.970401,-159.67073
-14.659781,-156.90723
-15.135204,-158.91695
-15.302941,-162.02733
-15.078443,-158.87062
-15.244245,-157.13019
-15.065778,-157.79056
-14.743455,-156.69427
-15.536885,-159.03001
-14.716744,-156.27061
-15.076955,-158.30997
-15.100183,-156.93233
-15.182081,-159.99887
-14.931243,-157.59123
-15.031531,-158.64128
-14.922238,-158.76631
-15.332126,-159.44141
-14.612471,-160.17296
-14.741609,-158.40022
-14.642902,-158.08911
-15.231327,-157.23027
-15.235044,-160.66417
-14.914915,-157.66061
-15.055952,-158.74059
-15.101294,-155.08571
-14.642582,-161.80225
-15.048693,-161.22598
-15.558604,-159.07961
-15.239119,-156.12527
-15.273412,-158.07072
-15.108472,-159.19461
-15.240559,-158.79887
-15.047172,-155.81104
-15.313436,-161.53386
-15.205716,-158.86035
-14.895875,-156.04588
-14.98106,-155.2368
-15.117202,-155.53406
-15.573903,-159.50374
-14.831201,-157.70155
-15.085382,-159.83658
-15.394168,-160.35518
-14.950317,-156.24911
-14.884195,-157.55907
-15.069328,-158.73228
-15.303285,-156.65712
-15.28401,-160.79723
-15.48606,-159.10727
-15.201686,-161.80492
-14.855541,-160.57066
-14.867105,-158.00388
-14.828841,-156.80376
-15.049346,-159.08426
-14.763789,-157.41029
-15.072016,-157.40608
-15.129811,-159.50952
-15.176405,-159.1754
-15.061254,-158.47729
-14.968788,-159.55836
-15.242683,-158.09587
-15.118061,-159.10989
-14.995736,-156.77194
-14.860964,-158.01935
-14.962949,-158.61137
-14.97505,-157.56633
-14.639804,-158.45332
-15.016007,-156.9012
-15.11017,-157.09834
-14.68761,-157.88263
-15.186231,-157.07861
-15.451385,-158.98409
-15.488873,-158.95924
-15.110524,-159.23051
-15.171163,-157.70459
-14.939778,-156.31253
-14.745298,-158.95093
-15.524815,-156.95238
-15.285639,-159.18614
-15.142219,-155.94153
-15.048504,-159.20631
-14.85475,-159.36246
-14.948298,-158.24312
-15.07179,-157.50597
-15.411953,-160.17731
-15.230555,-159.15221
-14.983281,-159.62668
-15.230525,-160.27948
-14.905729,-159.22443
-15.030766,-159.0399
-15.300648,-156.84988
-14.907197,-159.85045
-14.716731,-158.11647
-15.088024,-158.68474
-15.042711,-159.62587
-14.882111,-159.36331
-14.873698,-158.58733
-14.987705,-159.76202
-15.090087,-158.02187
-14.843479,-157.35986
-15.175839,-158.61292
-14.667728,-156.02979
-15.028965,-159.08508
-14.686426,-160.94339
-15.21081,-158.29298
-14.899276,-157.99574
-15.231798,-160.08049
-15.031117,-160.48943
-15.380761,-158.57967
-15.091525,-160.66446
-15.164419,-158.92915
-15.156889,-159.09132
-14.996278,-158.33208
-14.902485,-157.03755
-15.249393,-159.65141
-15.025685,-158.10921
-14.615607,-158.4021
-15.177255,-159.69646
-15.071293,-158.71678
-15.18891,-159.14772
-14.875519,-156.44191
-15.110167,-158.24506
-15.117375,-159.44403
-15.371508,-158.79855
-15.127132,-157.71954
-14.969848,-160.088
-15.056522,-158.13208
-15.050264,-156.80833
-15.018133,-157.89088
-15.301765,-157.39664
