CITIFILE A.01.01
!Agilent Technologies,N5230C,MY48100142,A.08.04.10
!Agilent N5230C: A.08.04.10
!Format: LogMag/Angle
!Date: Friday, July 31, 2020 10:52:41
NAME CH1_DATA
VAR Power MAG 801
DATA S11 DBANGLE
DATA S21 DBANGLE
DATA S12 DBANGLE
DATA S22 DBANGLE
VAR_LIST_BEGIN
-40
-39.975
-39.95
-39.925
-39.9
-39.875
-39.85
-39.825
-39.8
-39.775
-39.75
-39.725
-39.7
-39.675
-39.65
-39.625
-39.6
-39.575
-39.55
-39.525
-39.5
-39.475
-39.45
-39.425
-39.4
-39.375
-39.35
-39.325
-39.3
-39.275
-39.25
-39.225
-39.2
-39.175
-39.15
-39.125
-39.1
-39.075
-39.05
-39.025
-39
-38.975
-38.95
-38.925
-38.9
-38.875
-38.85
-38.825
-38.8
-38.775
-38.75
-38.725
-38.7
-38.675
-38.65
-38.625
-38.6
-38.575
-38.55
-38.525
-38.5
-38.475
-38.45
-38.425
-38.4
-38.375
-38.35
-38.325
-38.3
-38.275
-38.25
-38.225
-38.2
-38.175
-38.15
-38.125
-38.1
-38.075
-38.05
-38.025
-38
-37.975
-37.95
-37.925
-37.9
-37.875
-37.85
-37.825
-37.8
-37.775
-37.75
-37.725
-37.7
-37.675
-37.65
-37.625
-37.6
-37.575
-37.55
-37.525
-37.5
-37.475
-37.45
-37.425
-37.4
-37.375
-37.35
-37.325
-37.3
-37.275
-37.25
-37.225
-37.2
-37.175
-37.15
-37.125
-37.1
-37.075
-37.05
-37.025
-37
-36.975
-36.95
-36.925
-36.9
-36.875
-36.85
-36.825
-36.8
-36.775
-36.75
-36.725
-36.7
-36.675
-36.65
-36.625
-36.6
-36.575
-36.55
-36.525
-36.5
-36.475
-36.45
-36.425
-36.4
-36.375
-36.35
-36.325
-36.3
-36.275
-36.25
-36.225
-36.2
-36.175
-36.15
-36.125
-36.1
-36.075
-36.05
-36.025
-36
-35.975
-35.95
-35.925
-35.9
-35.875
-35.85
-35.825
-35.8
-35.775
-35.75
-35.725
-35.7
-35.675
-35.65
-35.625
-35.6
-35.575
-35.55
-35.525
-35.5
-35.475
-35.45
-35.425
-35.4
-35.375
-35.35
-35.325
-35.3
-35.275
-35.25
-35.225
-35.2
-35.175
-35.15
-35.125
-35.1
-35.075
-35.05
-35.025
-35
-34.975
-34.95
-34.925
-34.9
-34.875
-34.85
-34.825
-34.8
-34.775
-34.75
-34.725
-34.7
-34.675
-34.65
-34.625
-34.6
-34.575
-34.55
-34.525
-34.5
-34.475
-34.45
-34.425
-34.4
-34.375
-34.35
-34.325
-34.3
-34.275
-34.25
-34.225
-34.2
-34.175
-34.15
-34.125
-34.1
-34.075
-34.05
-34.025
-34
-33.975
-33.95
-33.925
-33.9
-33.875
-33.85
-33.825
-33.8
-33.775
-33.75
-33.725
-33.7
-33.675
-33.65
-33.625
-33.6
-33.575
-33.55
-33.525
-33.5
-33.475
-33.45
-33.425
-33.4
-33.375
-33.35
-33.325
-33.3
-33.275
-33.25
-33.225
-33.2
-33.175
-33.15
-33.125
-33.1
-33.075
-33.05
-33.025
-33
-32.975
-32.95
-32.925
-32.9
-32.875
-32.85
-32.825
-32.8
-32.775
-32.75
-32.725
-32.7
-32.675
-32.65
-32.625
-32.6
-32.575
-32.55
-32.525
-32.5
-32.475
-32.45
-32.425
-32.4
-32.375
-32.35
-32.325
-32.3
-32.275
-32.25
-32.225
-32.2
-32.175
-32.15
-32.125
-32.1
-32.075
-32.05
-32.025
-32
-31.975
-31.95
-31.925
-31.9
-31.875
-31.85
-31.825
-31.8
-31.775
-31.75
-31.725
-31.7
-31.675
-31.65
-31.625
-31.6
-31.575
-31.55
-31.525
-31.5
-31.475
-31.45
-31.425
-31.4
-31.375
-31.35
-31.325
-31.3
-31.275
-31.25
-31.225
-31.2
-31.175
-31.15
-31.125
-31.1
-31.075
-31.05
-31.025
-31
-30.975
-30.95
-30.925
-30.9
-30.875
-30.85
-30.825
-30.8
-30.775
-30.75
-30.725
-30.7
-30.675
-30.65
-30.625
-30.6
-30.575
-30.55
-30.525
-30.5
-30.475
-30.45
-30.425
-30.4
-30.375
-30.35
-30.325
-30.3
-30.275
-30.25
-30.225
-30.2
-30.175
-30.15
-30.125
-30.1
-30.075
-30.05
-30.025
-30
-29.975
-29.95
-29.925
-29.9
-29.875
-29.85
-29.825
-29.8
-29.775
-29.75
-29.725
-29.7
-29.675
-29.65
-29.625
-29.6
-29.575
-29.55
-29.525
-29.5
-29.475
-29.45
-29.425
-29.4
-29.375
-29.35
-29.325
-29.3
-29.275
-29.25
-29.225
-29.2
-29.175
-29.15
-29.125
-29.1
-29.075
-29.05
-29.025
-29
-28.975
-28.95
-28.925
-28.9
-28.875
-28.85
-28.825
-28.8
-28.775
-28.75
-28.725
-28.7
-28.675
-28.65
-28.625
-28.6
-28.575
-28.55
-28.525
-28.5
-28.475
-28.45
-28.425
-28.4
-28.375
-28.35
-28.325
-28.3
-28.275
-28.25
-28.225
-28.2
-28.175
-28.15
-28.125
-28.1
-28.075
-28.05
-28.025
-28
-27.975
-27.95
-27.925
-27.9
-27.875
-27.85
-27.825
-27.8
-27.775
-27.75
-27.725
-27.7
-27.675
-27.65
-27.625
-27.6
-27.575
-27.55
-27.525
-27.5
-27.475
-27.45
-27.425
-27.4
-27.375
-27.35
-27.325
-27.3
-27.275
-27.25
-27.225
-27.2
-27.175
-27.15
-27.125
-27.1
-27.075
-27.05
-27.025
-27
-26.975
-26.95
-26.925
-26.9
-26.875
-26.85
-26.825
-26.8
-26.775
-26.75
-26.725
-26.7
-26.675
-26.65
-26.625
-26.6
-26.575
-26.55
-26.525
-26.5
-26.475
-26.45
-26.425
-26.4
-26.375
-26.35
-26.325
-26.3
-26.275
-26.25
-26.225
-26.2
-26.175
-26.15
-26.125
-26.1
-26.075
-26.05
-26.025
-26
-25.975
-25.95
-25.925
-25.9
-25.875
-25.85
-25.825
-25.8
-25.775
-25.75
-25.725
-25.7
-25.675
-25.65
-25.625
-25.6
-25.575
-25.55
-25.525
-25.5
-25.475
-25.45
-25.425
-25.4
-25.375
-25.35
-25.325
-25.3
-25.275
-25.25
-25.225
-25.2
-25.175
-25.15
-25.125
-25.1
-25.075
-25.05
-25.025
-25
-24.975
-24.95
-24.925
-24.9
-24.875
-24.85
-24.825
-24.8
-24.775
-24.75
-24.725
-24.7
-24.675
-24.65
-24.625
-24.6
-24.575
-24.55
-24.525
-24.5
-24.475
-24.45
-24.425
-24.4
-24.375
-24.35
-24.325
-24.3
-24.275
-24.25
-24.225
-24.2
-24.175
-24.15
-24.125
-24.1
-24.075
-24.05
-24.025
-24
-23.975
-23.95
-23.925
-23.9
-23.875
-23.85
-23.825
-23.8
-23.775
-23.75
-23.725
-23.7
-23.675
-23.65
-23.625
-23.6
-23.575
-23.55
-23.525
-23.5
-23.475
-23.45
-23.425
-23.4
-23.375
-23.35
-23.325
-23.3
-23.275
-23.25
-23.225
-23.2
-23.175
-23.15
-23.125
-23.1
-23.075
-23.05
-23.025
-23
-22.975
-22.95
-22.925
-22.9
-22.875
-22.85
-22.825
-22.8
-22.775
-22.75
-22.725
-22.7
-22.675
-22.65
-22.625
-22.6
-22.575
-22.55
-22.525
-22.5
-22.475
-22.45
-22.425
-22.4
-22.375
-22.35
-22.325
-22.3
-22.275
-22.25
-22.225
-22.2
-22.175
-22.15
-22.125
-22.1
-22.075
-22.05
-22.025
-22
-21.975
-21.95
-21.925
-21.9
-21.875
-21.85
-21.825
-21.8
-21.775
-21.75
-21.725
-21.7
-21.675
-21.65
-21.625
-21.6
-21.575
-21.55
-21.525
-21.5
-21.475
-21.45
-21.425
-21.4
-21.375
-21.35
-21.325
-21.3
-21.275
-21.25
-21.225
-21.2
-21.175
-21.15
-21.125
-21.1
-21.075
-21.05
-21.025
-21
-20.975
-20.95
-20.925
-20.9
-20.875
-20.85
-20.825
-20.8
-20.775
-20.75
-20.725
-20.7
-20.675
-20.65
-20.625
-20.6
-20.575
-20.55
-20.525
-20.5
-20.475
-20.45
-20.425
-20.4
-20.375
-20.35
-20.325
-20.3
-20.275
-20.25
-20.225
-20.2
-20.175
-20.15
-20.125
-20.1
-20.075
-20.05
-20.025
-20
VAR_LIST_END
BEGIN
-13.336629,-158.52072
-16.166742,-162.20293
-14.630832,-160.2014
-14.559117,-165.21031
-15.355147,-161.39285
-15.785976,-154.20871
-15.595806,-169.67822
-14.245086,-157.86658
-14.920948,-165.35617
-14.620757,-164.02419
-16.181185,-158.44229
-16.377249,-158.3461
-14.417619,-161.93935
-16.725368,-159.98181
-15.165751,-159.22537
-14.039902,-158.45032
-15.557229,-161.60001
-14.660732,-161.75052
-14.809938,-155.93515
-14.460406,-158.00047
-14.906745,-162.24696
-15.605387,-157.92604
-16.613911,-164.11507
-15.42784,-170.33835
-14.233202,-155.85751
-15.826212,-153.74768
-15.058044,-163.00142
-15.364644,-155.56148
-14.216022,-163.14957
-15.672883,-165.0132
-14.196798,-150.42432
-14.227348,-155.98325
-14.259937,-159.26958
-15.277174,-163.82637
-15.666881,-160.10509
-15.653812,-160.80452
-14.524762,-165.63162
-15.238759,-152.42978
-15.268007,-164.46913
-14.948702,-166.08487
-14.429229,-160.58015
-15.665189,-161.20029
-15.683523,-158.1976
-17.140875,-157.88687
-14.682731,-167.03094
-14.815773,-154.2085
-14.702255,-159.97099
-14.818339,-156.93211
-14.525157,-157.03984
-14.392777,-160.358
-14.407941,-163.45313
-14.604802,-163.81659
-14.7133,-161.2343
-14.883152,-160.69685
-14.742311,-158.59914
-15.565094,-161.92905
-15.394731,-159.37228
-15.416763,-155.95911
-15.356133,-156.08549
-15.309163,-157.93431
-15.75851,-162.12086
-14.755312,-158.56026
-14.392427,-161.87302
-14.377656,-156.56831
-14.23107,-162.93997
-14.451089,-160.2776
-14.453284,-153.51309
-15.622802,-160.1293
-15.349825,-163.53247
-14.231432,-157.56238
-16.541216,-173.22079
-14.88223,-159.30798
-15.138495,-159.47734
-15.574769,-158.09273
-14.563704,-161.15236
-15.258,-162.83122
-15.722713,-160.19804
-14.328944,-160.03326
-15.885475,-161.15901
-15.471341,-160.0269
-15.754796,-162.65407
-13.706137,-158.06689
-15.183475,-164.19284
-15.127806,-164.96237
-15.634067,-162.81068
-14.4119,-167.27145
-14.613604,-160.064
-15.368544,-157.26921
-15.557081,-163.76439
-14.296692,-169.44431
-14.959598,-160.52135
-14.436083,-159.61806
-14.710134,-168.63522
-15.085504,-166.7549
-14.867375,-160.69911
-15.336035,-155.19147
-14.911294,-160.62141
-14.896763,-159.74152
-15.020253,-158.45891
-15.21923,-157.71448
-15.386986,-157.44736
-14.195178,-165.5083
-14.898797,-159.36554
-15.001708,-166.92007
-15.405749,-155.58087
-15.061934,-159.14447
-15.527717,-161.66435
-15.055565,-162.54935
-14.192904,-161.16742
-15.092993,-162.69112
-15.077424,-155.74593
-14.592134,-159.7471
-14.975552,-161.0593
-15.310166,-163.22144
-15.08276,-154.56412
-15.145047,-160.64127
-15.612018,-159.71725
-14.832361,-160.08936
-15.237411,-158.45226
-15.383344,-158.80821
-15.198998,-164.93764
-14.664028,-160.55626
-15.386058,-159.57336
-15.239112,-156.46721
-15.184999,-157.4702
-15.379356,-156.16693
-15.572951,-165.44847
-14.751705,-159.83022
-14.70665,-155.08299
-14.227201,-156.53378
-15.069923,-157.97549
-15.544541,-163.62149
-15.28776,-159.7717
-14.912431,-158.52708
-15.142341,-164.36192
-14.505001,-161.10373
-14.997026,-157.2038
-14.47406,-160.03532
-14.903832,-159.26442
-15.441738,-160.3624
-15.069589,-160.37939
-14.498406,-157.97569
-15.011249,-155.22919
-15.234127,-169.07013
-14.634441,-162.15831
-14.162049,-168.97015
-14.733034,-164.58977
-16.217484,-159.86507
-14.824224,-163.2979
-15.199163,-165.02879
-14.712861,-161.5312
-15.499829,-163.1122
-14.782998,-155.11961
-14.538881,-158.76646
-14.627839,-153.34793
-14.937403,-164.24513
-15.491612,-160.2896
-14.984523,-155.17255
-14.881354,-164.51253
-14.727798,-162.71028
-15.359522,-160.74437
-15.009694,-162.33818
-15.924713,-163.79959
-15.703848,-159.34494
-15.145457,-163.86194
-15.523925,-159.47385
-15.156551,-160.59096
-15.583261,-160.41927
-15.313363,-170.09012
-14.97659,-164.63509
-15.506569,-161.62062
-14.562012,-161.60629
-14.401508,-162.41631
-15.110823,-162.45992
-14.945571,-155.60805
-14.885115,-161.1747
-15.345717,-161.09158
-15.32837,-162.27278
-13.954573,-160.41481
-15.080497,-162.36873
-14.461582,-161.08409
-16.17708,-159.5688
-15.570086,-161.76984
-14.513948,-164.15245
-14.732487,-154.64018
-16.171223,-161.79546
-15.001643,-165.60315
-14.777569,-157.42636
-14.708821,-158.50049
-14.778249,-163.03384
-15.302912,-155.34875
-14.582914,-159.85178
-14.561242,-160.20187
-14.629043,-162.59537
-15.773869,-163.76874
-15.844406,-162.67017
-15.227472,-160.35135
-14.931172,-162.53198
-14.736209,-160.71779
-15.551443,-155.28033
-14.272777,-164.01633
-14.549684,-160.71339
-16.064619,-157.27852
-15.198046,-166.72557
-14.714097,-161.68912
-15.55138,-162.70581
-15.654591,-159.1474
-15.023324,-157.51195
-15.419476,-159.93755
-15.48892,-158.70271
-14.454501,-166.78671
-15.557067,-162.27205
-14.709985,-164.02411
-15.61086,-153.84128
-15.446277,-161.12636
-15.334889,-157.8927
-14.145845,-160.9314
-15.234992,-161.68877
-14.872952,-161.48299
-15.1571,-155.47273
-14.525203,-161.09067
-15.322238,-153.6273
-15.201979,-154.96706
-15.0217,-156.55917
-14.815452,-164.47697
-15.616766,-157.84135
-14.816339,-159.41335
-15.056463,-158.61678
-15.442052,-159.66565
-14.664749,-160.17213
-14.506807,-162.88916
-15.514054,-163.26808
-15.065761,-158.66353
-14.703402,-155.69968
-14.858977,-159.18996
-15.532848,-162.45035
-15.135024,-160.23346
-14.406156,-159.56033
-15.053811,-168.11833
-15.576227,-164.37691
-14.700978,-165.28699
-14.950471,-158.15924
-14.698747,-157.93674
-14.295295,-158.42291
-15.576362,-160.66248
-15.347683,-160.14929
-15.005196,-162.12506
-15.603127,-164.71561
-14.779255,-160.93611
-15.033783,-158.77592
-15.939154,-160.56697
-14.881829,-162.33487
-15.157958,-158.29514
-15.184224,-160.19008
-14.92595,-161.83954
-15.127232,-155.35901
-14.860068,-159.76991
-15.962796,-162.01941
-15.443516,-164.12326
-15.193339,-159.09901
-14.971088,-160.12839
-14.8242,-159.84576
-15.568695,-159.87466
-14.748942,-162.36104
-15.271898,-159.86737
-14.475003,-159.45331
-14.632775,-157.70955
-15.216923,-163.03596
-14.98992,-157.87646
-14.548536,-165.06284
-15.419353,-162.92961
-14.71856,-163.11659
-15.155545,-162.73448
-14.592441,-160.5287
-15.696644,-160.76653
-14.803492,-160.96449
-14.650322,-164.07561
-15.467082,-167.99957
-15.147964,-159.85155
-15.022942,-164.03636
-15.040928,-166.73453
-15.314559,-161.13908
-14.745091,-154.80275
-14.79029,-163.19713
-15.239678,-156.42406
-15.007137,-167.07399
-15.760958,-160.95538
-15.238851,-159.04887
-15.393149,-163.2491
-15.202442,-159.8047
-15.28026,-158.50775
-15.952848,-163.19328
-14.587055,-161.83473
-14.965269,-158.91042
-14.513971,-161.59892
-14.686553,-161.55391
-14.976643,-157.29079
-14.865901,-164.84584
-15.29705,-161.74316
-15.348253,-160.67789
-15.664351,-157.11458
-15.332931,-162.79506
-14.745222,-160.91911
-15.402584,-159.489
-15.221068,-157.36276
-14.514574,-160.03418
-14.625855,-157.80627
-14.6448,-159.69531
-14.343734,-159.89195
-14.845171,-163.81654
-15.09239,-162.91476
-15.268075,-158.06473
-15.144892,-164.17766
-15.087533,-161.29642
-15.684364,-161.53157
-15.121291,-161.09711
-15.313725,-161.79285
-15.331573,-163.40031
-15.101662,-160.80373
-15.192334,-158.34708
-15.326942,-159.32329
-14.754609,-160.24654
-15.211119,-161.47701
-14.795566,-160.74588
-14.882416,-160.85818
-14.644532,-161.06877
-15.653346,-160.07582
-14.701748,-161.97917
-15.286084,-162.26747
-15.439511,-161.5063
-15.131726,-160.28067
-15.543938,-160.52547
-14.861892,-159.03889
-15.235225,-162.55571
-15.400526,-159.18127
-15.595756,-159.8349
-15.692455,-163.66159
-14.82128,-158.57661
-14.925815,-157.39723
-14.949221,-164.12544
-14.569554,-161.96733
-14.924609,-161.51105
-14.675813,-157.10976
-14.799029,-159.51648
-15.3627,-163.67517
-14.589317,-162.23923
-14.763947,-159.53867
-14.717526,-159.36977
-15.284353,-160.42366
-15.083342,-159.0502
-15.407215,-161.44919
-15.173724,-160.29398
-15.355285,-164.26585
-14.845531,-157.49382
-15.281525,-159.53575
-15.244941,-160.702
-15.427701,-158.77788
-15.236836,-161.13065
-14.5797,-162.08714
-14.89633,-162.51997
-14.975199,-161.26875
-14.841938,-159.66341
-15.154271,-159.61729
-15.433019,-161.45328
-14.935106,-160.82837
-15.090083,-159.02783
-14.892186,-159.5849
-14.917785,-161.14194
-15.229017,-159.88136
-15.196521,-162.32187
-15.371423,-157.99835
-14.915927,-162.47572
-15.163197,-160.80269
-15.56461,-159.18823
-15.09528,-161.26892
-14.938751,-159.45273
-15.048032,-158.74748
-15.412795,-159.16672
-15.075107,-159.9809
-15.355839,-158.84186
-15.375997,-163.1955
-15.482227,-163.00128
-15.690937,-164.19276
-15.006918,-159.42018
-15.007751,-161.01767
-15.043925,-160.86417
-15.745072,-162.35199
-15.039051,-163.85995
-14.945786,-156.6593
-15.230169,-157.78404
-15.025683,-159.62746
-15.481756,-161.16269
-15.155061,-160.39122
-14.635008,-163.48514
-14.767953,-161.04341
-15.28764,-162.03598
-15.299888,-159.48508
-15.276977,-160.23985
-15.076159,-155.63942
-15.045785,-163.84378
-15.092437,-160.74696
-15.133916,-160.19821
-15.514318,-160.45935
-14.940091,-162.85843
-15.276887,-158.55959
-15.010189,-160.04726
-14.642153,-156.16573
-14.84103,-159.73178
-15.109513,-159.44218
-14.789956,-160.28523
-15.068867,-160.56444
-15.149697,-162.97176
-15.174335,-160.18068
-15.302795,-161.28029
-15.41539,-158.25809
-15.117764,-161.60521
-15.397321,-160.38104
-15.701948,-160.27692
-15.204404,-160.61261
-15.33731,-164.50661
-15.162894,-159.99406
-14.662222,-159.79329
-15.02922,-161.19383
-14.94957,-159.52084
-14.939738,-161.65503
-15.375972,-161.09012
-15.178937,-159.82416
-15.208903,-160.43716
-15.131294,-157.70116
-15.090612,-160.6539
-14.907871,-159.77274
-15.3708,-161.90755
-15.030794,-158.9648
-15.195182,-163.48366
-14.995141,-160.23978
-15.091019,-158.52368
-14.958394,-164.08527
-15.238519,-160.63232
-15.663542,-159.59697
-15.333555,-160.02847
-15.007638,-161.08127
-15.299531,-160.65683
-15.384792,-160.89346
-15.137676,-159.06909
-15.286186,-163.05843
-15.353037,-160.52882
-15.069173,-159.28607
-15.101946,-160.85977
-14.946432,-160.16328
-14.941222,-160.0107
-15.109788,-162.21112
-15.179137,-161.12462
-15.084997,-163.46184
-14.669785,-162.90524
-15.14358,-158.45901
-15.652639,-162.68282
-14.811371,-157.94852
-15.06409,-161.41954
-15.219945,-159.20612
-14.793216,-161.72884
-15.121075,-161.25766
-15.203226,-162.21214
-15.2432,-159.43646
-15.357913,-159.52524
-14.980514,-161.8784
-15.318972,-160.86562
-14.987532,-161.257
-15.30708,-160.96574
-15.118959,-160.47635
-15.087656,-161.19061
-14.907617,-159.35255
-15.151538,-161.03609
-15.475256,-159.7088
-15.276738,-160.03165
-15.301807,-158.46698
-15.21005,-159.70299
-14.811998,-159.49248
-14.995681,-162.2473
-15.094499,-161.26016
-15.501946,-159.87193
-15.071359,-161.66856
-15.10669,-160.4377
-15.201463,-161.16711
-14.658701,-159.27733
-15.378363,-160.21425
-15.052729,-161.63809
-15.075618,-163.75041
-15.375675,-162.72966
-14.766408,-159.33211
-15.616264,-162.15648
-14.928306,-158.38289
-14.710551,-160.02097
-15.382526,-160.89658
-15.027702,-159.7504
-15.112893,-159.11984
-15.033525,-163.10352
-14.726731,-161.31221
-15.388324,-163.25932
-15.126698,-159.83064
-15.450048,-162.02084
-14.844253,-160.60684
-15.114362,-162.13882
-15.150415,-160.4633
-15.036252,-161.11797
-14.936704,-159.6759
-15.145949,-158.54729
-15.121938,-162.93689
-14.733208,-160.00597
-15.10047,-161.20598
-15.018879,-158.77882
-14.924391,-158.97404
-15.046835,-157.73399
-15.227233,-162.76117
-14.981984,-160.68709
-14.659724,-158.85695
-14.695879,-164.22192
-15.28801,-161.74248
-15.108729,-159.60988
-15.139899,-159.51636
-15.129086,-161.16692
-14.868567,-161.13536
-15.131374,-159.98268
-15.081436,-161.98842
-15.064372,-162.3709
-15.045732,-159.88458
-14.967391,-160.36453
-15.034665,-162.0507
-15.347849,-159.69023
-15.035832,-160.00591
-14.971145,-161.0473
-15.022786,-160.01324
-15.419365,-161.12172
-14.819476,-160.99992
-14.740603,-158.86081
-15.070842,-160.12337
-15.059505,-161.89725
-15.228381,-160.25311
-15.622862,-157.23901
-14.956085,-161.532
-15.083966,-160.38208
-15.175696,-159.23647
-14.914118,-159.41426
-15.062235,-161.43436
-15.400774,-161.07547
-15.032818,-161.6143
-15.026873,-163.41187
-15.200787,-159.36151
-15.293685,-160.87355
-15.138336,-160.41629
-14.962165,-160.49318
-15.09789,-160.87415
-14.63621,-160.13058
-14.88492,-159.07478
-15.00956,-159.28125
-15.074097,-160.01703
-15.264745,-162.97758
-15.231074,-160.24753
-15.157803,-162.49571
-15.172008,-162.45847
-15.23831,-161.30722
-15.289354,-161.94342
-14.949462,-160.59627
-15.328597,-161.87315
-14.871474,-159.65202
-15.335636,-158.51671
-14.837443,-159.04013
-14.95488,-160.60301
-15.079835,-160.97845
-14.769598,-160.42314
-15.167478,-160.30972
-15.023204,-160.89172
-15.168729,-159.26907
-15.030123,-160.48267
-15.096582,-159.19466
-15.011076,-160.40375
-15.169673,-160.97742
