CITIFILE A.01.01
!Agilent Technologies,N5230C,MY48100142,A.08.04.10
!Agilent N5230C: A.08.04.10
!Format: LogMag/Angle
!Date: Friday, July 31, 2020 10:55:51
NAME CH1_DATA
VAR Power MAG 801
DATA S11 DBANGLE
DATA S21 DBANGLE
DATA S12 DBANGLE
DATA S22 DBANGLE
VAR_LIST_BEGIN
-40
-39.975
-39.95
-39.925
-39.9
-39.875
-39.85
-39.825
-39.8
-39.775
-39.75
-39.725
-39.7
-39.675
-39.65
-39.625
-39.6
-39.575
-39.55
-39.525
-39.5
-39.475
-39.45
-39.425
-39.4
-39.375
-39.35
-39.325
-39.3
-39.275
-39.25
-39.225
-39.2
-39.175
-39.15
-39.125
-39.1
-39.075
-39.05
-39.025
-39
-38.975
-38.95
-38.925
-38.9
-38.875
-38.85
-38.825
-38.8
-38.775
-38.75
-38.725
-38.7
-38.675
-38.65
-38.625
-38.6
-38.575
-38.55
-38.525
-38.5
-38.475
-38.45
-38.425
-38.4
-38.375
-38.35
-38.325
-38.3
-38.275
-38.25
-38.225
-38.2
-38.175
-38.15
-38.125
-38.1
-38.075
-38.05
-38.025
-38
-37.975
-37.95
-37.925
-37.9
-37.875
-37.85
-37.825
-37.8
-37.775
-37.75
-37.725
-37.7
-37.675
-37.65
-37.625
-37.6
-37.575
-37.55
-37.525
-37.5
-37.475
-37.45
-37.425
-37.4
-37.375
-37.35
-37.325
-37.3
-37.275
-37.25
-37.225
-37.2
-37.175
-37.15
-37.125
-37.1
-37.075
-37.05
-37.025
-37
-36.975
-36.95
-36.925
-36.9
-36.875
-36.85
-36.825
-36.8
-36.775
-36.75
-36.725
-36.7
-36.675
-36.65
-36.625
-36.6
-36.575
-36.55
-36.525
-36.5
-36.475
-36.45
-36.425
-36.4
-36.375
-36.35
-36.325
-36.3
-36.275
-36.25
-36.225
-36.2
-36.175
-36.15
-36.125
-36.1
-36.075
-36.05
-36.025
-36
-35.975
-35.95
-35.925
-35.9
-35.875
-35.85
-35.825
-35.8
-35.775
-35.75
-35.725
-35.7
-35.675
-35.65
-35.625
-35.6
-35.575
-35.55
-35.525
-35.5
-35.475
-35.45
-35.425
-35.4
-35.375
-35.35
-35.325
-35.3
-35.275
-35.25
-35.225
-35.2
-35.175
-35.15
-35.125
-35.1
-35.075
-35.05
-35.025
-35
-34.975
-34.95
-34.925
-34.9
-34.875
-34.85
-34.825
-34.8
-34.775
-34.75
-34.725
-34.7
-34.675
-34.65
-34.625
-34.6
-34.575
-34.55
-34.525
-34.5
-34.475
-34.45
-34.425
-34.4
-34.375
-34.35
-34.325
-34.3
-34.275
-34.25
-34.225
-34.2
-34.175
-34.15
-34.125
-34.1
-34.075
-34.05
-34.025
-34
-33.975
-33.95
-33.925
-33.9
-33.875
-33.85
-33.825
-33.8
-33.775
-33.75
-33.725
-33.7
-33.675
-33.65
-33.625
-33.6
-33.575
-33.55
-33.525
-33.5
-33.475
-33.45
-33.425
-33.4
-33.375
-33.35
-33.325
-33.3
-33.275
-33.25
-33.225
-33.2
-33.175
-33.15
-33.125
-33.1
-33.075
-33.05
-33.025
-33
-32.975
-32.95
-32.925
-32.9
-32.875
-32.85
-32.825
-32.8
-32.775
-32.75
-32.725
-32.7
-32.675
-32.65
-32.625
-32.6
-32.575
-32.55
-32.525
-32.5
-32.475
-32.45
-32.425
-32.4
-32.375
-32.35
-32.325
-32.3
-32.275
-32.25
-32.225
-32.2
-32.175
-32.15
-32.125
-32.1
-32.075
-32.05
-32.025
-32
-31.975
-31.95
-31.925
-31.9
-31.875
-31.85
-31.825
-31.8
-31.775
-31.75
-31.725
-31.7
-31.675
-31.65
-31.625
-31.6
-31.575
-31.55
-31.525
-31.5
-31.475
-31.45
-31.425
-31.4
-31.375
-31.35
-31.325
-31.3
-31.275
-31.25
-31.225
-31.2
-31.175
-31.15
-31.125
-31.1
-31.075
-31.05
-31.025
-31
-30.975
-30.95
-30.925
-30.9
-30.875
-30.85
-30.825
-30.8
-30.775
-30.75
-30.725
-30.7
-30.675
-30.65
-30.625
-30.6
-30.575
-30.55
-30.525
-30.5
-30.475
-30.45
-30.425
-30.4
-30.375
-30.35
-30.325
-30.3
-30.275
-30.25
-30.225
-30.2
-30.175
-30.15
-30.125
-30.1
-30.075
-30.05
-30.025
-30
-29.975
-29.95
-29.925
-29.9
-29.875
-29.85
-29.825
-29.8
-29.775
-29.75
-29.725
-29.7
-29.675
-29.65
-29.625
-29.6
-29.575
-29.55
-29.525
-29.5
-29.475
-29.45
-29.425
-29.4
-29.375
-29.35
-29.325
-29.3
-29.275
-29.25
-29.225
-29.2
-29.175
-29.15
-29.125
-29.1
-29.075
-29.05
-29.025
-29
-28.975
-28.95
-28.925
-28.9
-28.875
-28.85
-28.825
-28.8
-28.775
-28.75
-28.725
-28.7
-28.675
-28.65
-28.625
-28.6
-28.575
-28.55
-28.525
-28.5
-28.475
-28.45
-28.425
-28.4
-28.375
-28.35
-28.325
-28.3
-28.275
-28.25
-28.225
-28.2
-28.175
-28.15
-28.125
-28.1
-28.075
-28.05
-28.025
-28
-27.975
-27.95
-27.925
-27.9
-27.875
-27.85
-27.825
-27.8
-27.775
-27.75
-27.725
-27.7
-27.675
-27.65
-27.625
-27.6
-27.575
-27.55
-27.525
-27.5
-27.475
-27.45
-27.425
-27.4
-27.375
-27.35
-27.325
-27.3
-27.275
-27.25
-27.225
-27.2
-27.175
-27.15
-27.125
-27.1
-27.075
-27.05
-27.025
-27
-26.975
-26.95
-26.925
-26.9
-26.875
-26.85
-26.825
-26.8
-26.775
-26.75
-26.725
-26.7
-26.675
-26.65
-26.625
-26.6
-26.575
-26.55
-26.525
-26.5
-26.475
-26.45
-26.425
-26.4
-26.375
-26.35
-26.325
-26.3
-26.275
-26.25
-26.225
-26.2
-26.175
-26.15
-26.125
-26.1
-26.075
-26.05
-26.025
-26
-25.975
-25.95
-25.925
-25.9
-25.875
-25.85
-25.825
-25.8
-25.775
-25.75
-25.725
-25.7
-25.675
-25.65
-25.625
-25.6
-25.575
-25.55
-25.525
-25.5
-25.475
-25.45
-25.425
-25.4
-25.375
-25.35
-25.325
-25.3
-25.275
-25.25
-25.225
-25.2
-25.175
-25.15
-25.125
-25.1
-25.075
-25.05
-25.025
-25
-24.975
-24.95
-24.925
-24.9
-24.875
-24.85
-24.825
-24.8
-24.775
-24.75
-24.725
-24.7
-24.675
-24.65
-24.625
-24.6
-24.575
-24.55
-24.525
-24.5
-24.475
-24.45
-24.425
-24.4
-24.375
-24.35
-24.325
-24.3
-24.275
-24.25
-24.225
-24.2
-24.175
-24.15
-24.125
-24.1
-24.075
-24.05
-24.025
-24
-23.975
-23.95
-23.925
-23.9
-23.875
-23.85
-23.825
-23.8
-23.775
-23.75
-23.725
-23.7
-23.675
-23.65
-23.625
-23.6
-23.575
-23.55
-23.525
-23.5
-23.475
-23.45
-23.425
-23.4
-23.375
-23.35
-23.325
-23.3
-23.275
-23.25
-23.225
-23.2
-23.175
-23.15
-23.125
-23.1
-23.075
-23.05
-23.025
-23
-22.975
-22.95
-22.925
-22.9
-22.875
-22.85
-22.825
-22.8
-22.775
-22.75
-22.725
-22.7
-22.675
-22.65
-22.625
-22.6
-22.575
-22.55
-22.525
-22.5
-22.475
-22.45
-22.425
-22.4
-22.375
-22.35
-22.325
-22.3
-22.275
-22.25
-22.225
-22.2
-22.175
-22.15
-22.125
-22.1
-22.075
-22.05
-22.025
-22
-21.975
-21.95
-21.925
-21.9
-21.875
-21.85
-21.825
-21.8
-21.775
-21.75
-21.725
-21.7
-21.675
-21.65
-21.625
-21.6
-21.575
-21.55
-21.525
-21.5
-21.475
-21.45
-21.425
-21.4
-21.375
-21.35
-21.325
-21.3
-21.275
-21.25
-21.225
-21.2
-21.175
-21.15
-21.125
-21.1
-21.075
-21.05
-21.025
-21
-20.975
-20.95
-20.925
-20.9
-20.875
-20.85
-20.825
-20.8
-20.775
-20.75
-20.725
-20.7
-20.675
-20.65
-20.625
-20.6
-20.575
-20.55
-20.525
-20.5
-20.475
-20.45
-20.425
-20.4
-20.375
-20.35
-20.325
-20.3
-20.275
-20.25
-20.225
-20.2
-20.175
-20.15
-20.125
-20.1
-20.075
-20.05
-20.025
-20
VAR_LIST_END
BEGIN
-15.862803,-159.87886
-14.263334,-162.31897
-15.188884,-159.06517
-15.773377,-156.68195
-15.058192,-165.25279
-15.147034,-161.57956
-16.735199,-162.45064
-14.913879,-155.92879
-14.856231,-162.25137
-15.211513,-164.14218
-14.675343,-162.34587
-14.003218,-162.63606
-14.770214,-158.35361
-15.774282,-160.80009
-15.020503,-160.79668
-14.990614,-158.48268
-15.91237,-163.70938
-14.414564,-165.89848
-15.0587,-163.09425
-14.661844,-157.9772
-14.96904,-162.41776
-14.731756,-162.83427
-14.207852,-164.75172
-14.949534,-157.66432
-14.576005,-165.03166
-14.289037,-155.9948
-14.851618,-163.76248
-15.182796,-162.34531
-16.09857,-154.63412
-14.71272,-164.41014
-15.840437,-161.78036
-15.869491,-157.84094
-15.766926,-161.67265
-15.268613,-165.04721
-15.843298,-161.95598
-15.061527,-165.29408
-15.1965,-159.27675
-15.283722,-159.61215
-15.627177,-158.25919
-14.929181,-165.10527
-15.395409,-160.78661
-14.816472,-157.13139
-14.391491,-161.38954
-14.803509,-159.33485
-14.462727,-154.54167
-14.824146,-167.27408
-14.894704,-158.96318
-14.720072,-160.12057
-15.20722,-159.88573
-15.121008,-159.57599
-14.467818,-159.92612
-14.801829,-160.30896
-15.577181,-160.19981
-15.739841,-156.69208
-15.005218,-167.2231
-15.652227,-163.88597
-14.225946,-161.282
-15.068752,-160.2793
-15.582897,-159.45898
-15.605448,-164.42368
-14.58317,-167.58401
-14.567414,-160.04282
-15.693468,-160.5766
-14.617208,-165.65106
-15.292393,-158.4792
-14.920898,-159.85071
-15.85809,-158.2614
-14.604588,-155.10709
-15.594147,-162.22971
-14.995466,-164.52553
-14.872331,-155.73656
-15.120272,-165.62173
-15.218247,-168.85628
-15.722519,-157.0795
-14.862962,-164.65031
-15.477626,-163.84877
-15.294169,-162.28169
-14.817112,-159.06393
-14.410204,-153.7641
-15.475082,-161.72739
-15.274223,-156.51489
-15.012778,-161.40085
-14.813992,-161.94885
-15.183754,-163.91399
-15.351796,-161.01218
-15.24101,-160.58998
-15.146333,-157.12732
-14.510778,-160.50497
-15.168098,-160.97798
-14.707306,-160.73296
-15.347554,-165.95251
-14.832417,-158.91718
-15.098466,-165.01129
-14.960584,-159.17738
-14.828206,-162.83763
-14.866061,-162.28465
-15.434274,-161.55484
-15.443256,-160.29735
-14.334949,-159.96101
-14.534096,-160.50136
-15.044578,-156.95378
-16.025215,-165.2829
-15.771129,-160.47308
-15.175378,-159.90491
-14.768474,-155.95102
-14.717735,-158.61496
-14.518599,-164.72136
-16.277836,-156.3427
-14.88267,-162.3595
-14.976786,-159.37271
-15.377509,-156.92616
-15.147478,-164.6973
-14.841428,-151.65784
-14.700556,-157.94586
-15.299355,-157.83992
-14.758466,-162.10007
-15.377094,-162.20328
-15.144202,-156.77859
-15.002951,-159.68121
-14.303027,-162.36951
-15.411034,-162.88609
-15.518122,-157.10492
-15.478574,-161.35411
-14.84226,-156.40707
-14.862422,-158.65825
-15.606274,-161.28143
-15.356032,-163.79666
-14.955616,-158.72723
-15.678186,-162.88591
-14.98275,-158.80602
-15.309546,-164.24434
-14.894669,-155.44031
-15.121936,-159.17543
-15.75846,-160.9411
-14.840441,-160.18582
-15.942976,-159.66441
-15.200219,-160.18234
-15.835576,-160.11522
-14.357584,-160.97719
-15.654268,-157.96744
-15.314205,-161.22746
-15.432573,-157.01582
-14.675592,-159.75652
-15.210863,-158.12184
-14.770797,-157.93216
-15.434117,-160.64192
-15.808898,-160.81036
-15.001817,-162.34628
-14.788254,-159.52621
-15.188289,-159.27191
-14.8483,-162.46391
-15.500414,-164.16119
-14.465536,-162.32753
-14.682051,-158.80432
-15.326737,-167.39215
-14.777641,-161.45035
-15.174129,-160.36836
-15.195652,-163.08151
-14.958844,-162.73627
-14.993337,-156.09499
-14.32267,-157.26898
-14.798507,-162.52953
-14.766731,-159.69974
-15.195093,-159.28653
-15.159776,-162.62851
-14.867045,-158.37778
-15.13911,-159.2355
-15.061026,-162.48068
-15.079074,-160.59158
-15.773174,-164.89145
-14.931725,-157.15878
-15.118679,-162.95865
-15.293695,-161.72127
-15.282393,-157.47069
-15.473456,-161.52007
-15.067181,-161.61514
-15.362169,-160.28757
-15.035718,-163.52518
-14.573211,-159.79134
-15.012518,-162.62956
-15.472888,-157.46243
-15.648855,-161.98247
-14.884089,-161.12193
-15.126124,-160.06769
-14.970822,-157.10492
-15.679987,-161.75676
-15.445098,-165.70174
-15.107697,-164.72116
-15.679461,-159.75198
-14.594473,-158.42336
-14.740032,-159.26677
-15.154616,-161.37985
-14.863554,-155.43677
-15.265105,-159.86624
-15.180429,-160.41643
-15.106972,-159.03087
-15.03308,-163.0813
-14.828428,-158.36983
-15.216055,-159.22954
-15.256514,-159.26587
-15.504343,-160.29788
-15.474675,-158.63585
-14.636741,-161.98959
-15.608783,-161.05357
-14.842925,-157.74918
-15.318563,-157.15665
-15.402005,-160.27966
-15.2083,-163.01907
-15.355885,-161.76701
-15.298585,-158.66458
-14.548079,-160.26103
-15.201919,-161.42291
-15.088788,-159.08994
-14.663033,-160.40117
-15.292127,-164.73154
-15.652433,-162.13725
-15.173092,-161.10182
-15.580405,-160.19589
-15.14813,-160.91077
-14.941865,-161.2372
-15.119568,-163.8927
-15.510474,-161.11369
-15.22358,-161.86992
-15.097209,-159.86696
-15.03913,-160.79477
-15.110151,-157.44202
-15.012306,-161.16197
-14.897492,-160.25941
-14.856876,-156.6638
-15.277019,-160.46526
-15.316032,-162.62808
-15.205516,-160.1441
-15.496939,-160.93257
-14.871848,-159.12083
-15.078127,-163.98029
-15.52216,-159.53998
-15.034163,-156.36421
-14.784299,-162.04451
-14.93574,-160.96243
-14.791938,-160.69041
-15.043995,-162.59218
-14.8966,-161.3376
-15.249423,-158.7804
-14.386012,-160.12471
-14.964376,-163.57237
-15.2848,-157.17752
-15.401061,-162.05542
-15.284119,-163.84831
-15.109158,-164.82945
-15.576744,-161.58014
-15.625865,-161.02243
-15.035476,-163.02103
-15.000159,-159.1729
-15.38468,-165.18761
-15.204536,-160.10504
-14.81359,-159.69695
-15.463833,-162.95157
-14.772414,-160.69099
-15.303994,-163.21477
-15.202456,-162.38522
-14.666053,-161.40424
-14.957952,-160.96648
-15.205826,-160.63109
-14.985826,-158.95172
-14.975997,-161.86531
-15.303879,-163.93735
-15.167709,-160.55899
-15.155284,-158.79376
-15.301452,-157.48111
-14.986277,-159.17641
-15.25006,-161.56651
-15.271691,-163.21552
-14.820907,-159.52693
-15.29234,-158.25171
-14.812981,-161.54231
-15.401336,-161.83905
-15.044866,-160.92107
-14.873531,-160.30232
-14.882843,-162.35504
-14.724833,-157.7359
-14.914936,-160.44237
-15.094899,-157.92822
-15.157529,-164.21812
-14.677678,-159.72633
-14.895776,-157.88774
-14.705874,-157.60739
-14.924759,-161.43274
-15.260604,-160.18063
-15.109766,-162.70717
-15.595526,-158.39684
-15.192439,-161.68892
-15.123127,-161.25764
-14.980705,-161.04837
-14.80966,-158.67041
-14.991142,-160.81781
-15.369332,-158.25102
-15.709904,-161.70122
-15.179809,-162.88014
-15.328503,-161.4725
-15.047503,-158.32336
-15.506395,-160.60745
-15.132667,-156.9657
-15.042359,-160.15048
-15.057758,-159.43591
-15.046394,-160.56445
-15.557958,-158.27026
-14.873581,-161.26131
-15.008286,-159.62218
-15.411205,-160.82439
-15.369271,-158.80609
-15.235894,-161.37643
-15.267192,-159.78983
-14.995682,-160.05647
-15.085769,-158.93823
-15.560338,-160.36989
-14.934652,-160.79199
-14.800693,-160.32423
-15.242021,-159.47289
-14.957891,-160.45146
-15.402437,-162.88579
-14.664869,-160.47578
-14.833935,-158.09424
-15.189315,-160.63086
-15.430486,-160.76865
-15.061923,-161.56804
-15.338157,-159.80452
-15.228498,-158.26497
-14.992098,-162.69464
-14.931445,-160.43347
-15.575393,-158.17622
-15.05511,-161.41187
-15.080476,-157.9778
-15.473749,-159.41032
-15.356187,-162.26991
-15.007336,-163.71327
-15.447865,-159.121
-14.958977,-158.39134
-15.178685,-160.02585
-15.345793,-159.49916
-15.320805,-158.81369
-15.211806,-160.68336
-15.259825,-162.72517
-14.694081,-162.73091
-15.240905,-159.1403
-15.421691,-161.05359
-14.874458,-163.05089
-14.967167,-160.50323
-15.299739,-162.10835
-15.176268,-158.1226
-15.120289,-162.7907
-15.291282,-159.93808
-15.04921,-162.01599
-15.075117,-160.74124
-15.276749,-159.90326
-15.202887,-160.15329
-14.873973,-160.82574
-15.132674,-161.94843
-14.885161,-160.36729
-14.926718,-159.6134
-15.015052,-161.01958
-15.323539,-161.56857
-14.829885,-160.31282
-15.070226,-159.67632
-14.880355,-160.50119
-15.094043,-157.82881
-14.874833,-162.77657
-14.868285,-160.39029
-15.252888,-161.61211
-15.222308,-161.24834
-15.172699,-160.30019
-15.191731,-162.26364
-14.817299,-161.66922
-14.741588,-159.95673
-14.987403,-157.84538
-15.386989,-162.40724
-14.990841,-162.96693
-14.86353,-161.59763
-14.780269,-160.96684
-14.978121,-162.4839
-15.496389,-159.78748
-15.317013,-159.69458
-15.155459,-159.94542
-15.566949,-159.89357
-15.28205,-158.22333
-15.222779,-162.33459
-15.08831,-161.94226
-15.09191,-160.03642
-14.910912,-161.11278
-15.334522,-160.70692
-15.237956,-160.58698
-15.190624,-160.09854
-14.938016,-159.93489
-15.333684,-157.3495
-15.300276,-157.45427
-14.981758,-162.39819
-15.158811,-160.95107
-15.226205,-158.79745
-15.171878,-157.50188
-15.340521,-160.31406
-15.025875,-159.52507
-14.858479,-161.27484
-15.271436,-161.16971
-15.409832,-161.37747
-15.576096,-159.13011
-14.955832,-160.52368
-15.652458,-161.15034
-15.417768,-161.71906
-15.023626,-159.90491
-15.303418,-158.74738
-14.7136,-160.02411
-14.759748,-162.10188
-15.066075,-159.47586
-15.084545,-160.63197
-15.035648,-160.83493
-15.311537,-159.8448
-15.011599,-159.82674
-14.696052,-160.66408
-15.046906,-160.66034
-15.113883,-160.12933
-14.983719,-160.80261
-15.170356,-160.87988
-15.427341,-161.97055
-15.044139,-161.56465
-15.119051,-159.88858
-15.243894,-160.68678
-15.181382,-160.51591
-14.966372,-159.04343
-15.087642,-159.4344
-15.239227,-159.478
-15.313675,-159.83374
-15.026248,-159.993
-15.274214,-159.89929
-15.593879,-159.90215
-15.167652,-159.97374
-14.860195,-161.17477
-15.291122,-161.71408
-15.026864,-158.63901
-15.177184,-162.94258
-15.26396,-159.34995
-15.18439,-162.48222
-14.693819,-163.19463
-15.143946,-159.50534
-14.871723,-158.83638
-14.991707,-161.23714
-15.090736,-160.04007
-15.269477,-162.54453
-14.851226,-161.44934
-14.992049,-159.81343
-14.92231,-160.03444
-15.297012,-159.59822
-15.021303,-159.63043
-15.316968,-161.35246
-15.015544,-161.74272
-14.997051,-161.15273
-14.815147,-159.13371
-14.886866,-160.59486
-15.250831,-157.81708
-15.334204,-159.72981
-15.055765,-160.5287
-15.179911,-158.98418
-15.152956,-162.40562
-15.382839,-159.76596
-15.063296,-161.08543
-14.981581,-162.07597
-15.111888,-162.48624
-15.197435,-159.27118
-15.088781,-157.93257
-15.011301,-159.08214
-15.231846,-160.2907
-15.172352,-159.85211
-15.02411,-161.43892
-15.182715,-158.14951
-14.976064,-159.65714
-14.825156,-161.82181
-15.187463,-161.96646
-15.083992,-161.18468
-14.752478,-160.4498
-15.28549,-159.42393
-15.037124,-160.77284
-15.183508,-159.81184
-15.051822,-161.50322
-15.117459,-160.07259
-14.821081,-161.30556
-15.214577,-161.8078
-15.054302,-160.46239
-14.99759,-161.71037
-14.8866,-161.806
-15.264141,-159.34038
-15.263664,-160.34457
-15.361075,-160.05435
-15.009644,-161.41989
-15.00502,-161.86378
-14.870543,-160.55527
-15.246128,-160.26726
-15.203401,-161.22913
-15.095805,-159.91391
-14.78996,-160.29655
-15.096844,-161.70677
-15.199134,-159.35284
-15.040893,-159.70709
-15.135945,-158.53285
-15.256284,-159.37354
-15.117333,-160.03252
-15.050467,-160.1931
-14.935331,-161.99094
-15.339028,-161.2345
-15.101804,-161.30414
-15.339545,-162.8416
-14.829794,-161.03957
-14.994376,-161.367
-15.203281,-161.11096
-15.036359,-160.12404
-15.127787,-161.30782
-15.409293,-159.22948
-15.0814,-161.95045
-14.880811,-160.44928
-14.858115,-159.64662
-15.035993,-161.41437
-15.24845,-160.00597
-14.912485,-161.79356
-14.948592,-161.87843
-15.025802,-160.6667
-15.360159,-160.91672
-15.004617,-160.35228
-14.973372,-161.58368
-15.274959,-159.15587
-15.283761,-159.44801
-15.085505,-161.66631
-15.172675,-160.39835
-15.104632,-160.91692
-14.944821,-159.38844
-14.934768,-161.58946
-14.956961,-159.87917
-15.04748,-159.81337
-15.021757,-159.96681
-14.99525,-161.33237
-15.208563,-159.51901
-15.192293,-158.68704
-15.022569,-160.42227
-14.855969,-160.86017
-15.057139,-160.66049
-14.953068,-160.22368
-14.904622,-160.20949
-15.041902,-161.92924
-15.224196,-159.01366
-15.028729,-161.46605
-15.080676,-160.37413
-15.211924,-160.7944
-15.122192,-160.40404
-14.966716,-161.90164
-15.095653,-161.07301
-15.029489,-162.25865
-14.984104,-160.12442
-15.007236,-159.2695
-15.329216,-159.60291
-15.19911,-160.55569
-15.104571,-159.60387
-15.007698,-161.02202
-15.586405,-161.70105
-14.988047,-160.63051
-15.167129,-160.98372
-15.19035,-160.77538
-14.997974,-160.39209
-14.993162,-158.67545
-15.141098,-159.2077
-14.974583,-159.76111
-15.293975,-161.04756
-15.085716,-160.73775
-15.03577,-160.79356
-15.090123,-160.05699
-15.06505,-160.73056
-14.925973,-159.23703
-15.064403,-160.22929
-15.243095,-159.22166
-14.984173,-159.7258
-15.190518,-159.26523
