CITIFILE A.01.01
!Agilent Technologies,N5230C,MY48100142,A.08.04.10
!Agilent N5230C: A.08.04.10
!Format: LogMag/Angle
!Date: Tuesday, August 25, 2020 15:31:18
NAME CH1_DATA
VAR Power MAG 801
DATA S11 DBANGLE
DATA S21 DBANGLE
DATA S12 DBANGLE
DATA S22 DBANGLE
VAR_LIST_BEGIN
-40
-39.975
-39.95
-39.925
-39.9
-39.875
-39.85
-39.825
-39.8
-39.775
-39.75
-39.725
-39.7
-39.675
-39.65
-39.625
-39.6
-39.575
-39.55
-39.525
-39.5
-39.475
-39.45
-39.425
-39.4
-39.375
-39.35
-39.325
-39.3
-39.275
-39.25
-39.225
-39.2
-39.175
-39.15
-39.125
-39.1
-39.075
-39.05
-39.025
-39
-38.975
-38.95
-38.925
-38.9
-38.875
-38.85
-38.825
-38.8
-38.775
-38.75
-38.725
-38.7
-38.675
-38.65
-38.625
-38.6
-38.575
-38.55
-38.525
-38.5
-38.475
-38.45
-38.425
-38.4
-38.375
-38.35
-38.325
-38.3
-38.275
-38.25
-38.225
-38.2
-38.175
-38.15
-38.125
-38.1
-38.075
-38.05
-38.025
-38
-37.975
-37.95
-37.925
-37.9
-37.875
-37.85
-37.825
-37.8
-37.775
-37.75
-37.725
-37.7
-37.675
-37.65
-37.625
-37.6
-37.575
-37.55
-37.525
-37.5
-37.475
-37.45
-37.425
-37.4
-37.375
-37.35
-37.325
-37.3
-37.275
-37.25
-37.225
-37.2
-37.175
-37.15
-37.125
-37.1
-37.075
-37.05
-37.025
-37
-36.975
-36.95
-36.925
-36.9
-36.875
-36.85
-36.825
-36.8
-36.775
-36.75
-36.725
-36.7
-36.675
-36.65
-36.625
-36.6
-36.575
-36.55
-36.525
-36.5
-36.475
-36.45
-36.425
-36.4
-36.375
-36.35
-36.325
-36.3
-36.275
-36.25
-36.225
-36.2
-36.175
-36.15
-36.125
-36.1
-36.075
-36.05
-36.025
-36
-35.975
-35.95
-35.925
-35.9
-35.875
-35.85
-35.825
-35.8
-35.775
-35.75
-35.725
-35.7
-35.675
-35.65
-35.625
-35.6
-35.575
-35.55
-35.525
-35.5
-35.475
-35.45
-35.425
-35.4
-35.375
-35.35
-35.325
-35.3
-35.275
-35.25
-35.225
-35.2
-35.175
-35.15
-35.125
-35.1
-35.075
-35.05
-35.025
-35
-34.975
-34.95
-34.925
-34.9
-34.875
-34.85
-34.825
-34.8
-34.775
-34.75
-34.725
-34.7
-34.675
-34.65
-34.625
-34.6
-34.575
-34.55
-34.525
-34.5
-34.475
-34.45
-34.425
-34.4
-34.375
-34.35
-34.325
-34.3
-34.275
-34.25
-34.225
-34.2
-34.175
-34.15
-34.125
-34.1
-34.075
-34.05
-34.025
-34
-33.975
-33.95
-33.925
-33.9
-33.875
-33.85
-33.825
-33.8
-33.775
-33.75
-33.725
-33.7
-33.675
-33.65
-33.625
-33.6
-33.575
-33.55
-33.525
-33.5
-33.475
-33.45
-33.425
-33.4
-33.375
-33.35
-33.325
-33.3
-33.275
-33.25
-33.225
-33.2
-33.175
-33.15
-33.125
-33.1
-33.075
-33.05
-33.025
-33
-32.975
-32.95
-32.925
-32.9
-32.875
-32.85
-32.825
-32.8
-32.775
-32.75
-32.725
-32.7
-32.675
-32.65
-32.625
-32.6
-32.575
-32.55
-32.525
-32.5
-32.475
-32.45
-32.425
-32.4
-32.375
-32.35
-32.325
-32.3
-32.275
-32.25
-32.225
-32.2
-32.175
-32.15
-32.125
-32.1
-32.075
-32.05
-32.025
-32
-31.975
-31.95
-31.925
-31.9
-31.875
-31.85
-31.825
-31.8
-31.775
-31.75
-31.725
-31.7
-31.675
-31.65
-31.625
-31.6
-31.575
-31.55
-31.525
-31.5
-31.475
-31.45
-31.425
-31.4
-31.375
-31.35
-31.325
-31.3
-31.275
-31.25
-31.225
-31.2
-31.175
-31.15
-31.125
-31.1
-31.075
-31.05
-31.025
-31
-30.975
-30.95
-30.925
-30.9
-30.875
-30.85
-30.825
-30.8
-30.775
-30.75
-30.725
-30.7
-30.675
-30.65
-30.625
-30.6
-30.575
-30.55
-30.525
-30.5
-30.475
-30.45
-30.425
-30.4
-30.375
-30.35
-30.325
-30.3
-30.275
-30.25
-30.225
-30.2
-30.175
-30.15
-30.125
-30.1
-30.075
-30.05
-30.025
-30
-29.975
-29.95
-29.925
-29.9
-29.875
-29.85
-29.825
-29.8
-29.775
-29.75
-29.725
-29.7
-29.675
-29.65
-29.625
-29.6
-29.575
-29.55
-29.525
-29.5
-29.475
-29.45
-29.425
-29.4
-29.375
-29.35
-29.325
-29.3
-29.275
-29.25
-29.225
-29.2
-29.175
-29.15
-29.125
-29.1
-29.075
-29.05
-29.025
-29
-28.975
-28.95
-28.925
-28.9
-28.875
-28.85
-28.825
-28.8
-28.775
-28.75
-28.725
-28.7
-28.675
-28.65
-28.625
-28.6
-28.575
-28.55
-28.525
-28.5
-28.475
-28.45
-28.425
-28.4
-28.375
-28.35
-28.325
-28.3
-28.275
-28.25
-28.225
-28.2
-28.175
-28.15
-28.125
-28.1
-28.075
-28.05
-28.025
-28
-27.975
-27.95
-27.925
-27.9
-27.875
-27.85
-27.825
-27.8
-27.775
-27.75
-27.725
-27.7
-27.675
-27.65
-27.625
-27.6
-27.575
-27.55
-27.525
-27.5
-27.475
-27.45
-27.425
-27.4
-27.375
-27.35
-27.325
-27.3
-27.275
-27.25
-27.225
-27.2
-27.175
-27.15
-27.125
-27.1
-27.075
-27.05
-27.025
-27
-26.975
-26.95
-26.925
-26.9
-26.875
-26.85
-26.825
-26.8
-26.775
-26.75
-26.725
-26.7
-26.675
-26.65
-26.625
-26.6
-26.575
-26.55
-26.525
-26.5
-26.475
-26.45
-26.425
-26.4
-26.375
-26.35
-26.325
-26.3
-26.275
-26.25
-26.225
-26.2
-26.175
-26.15
-26.125
-26.1
-26.075
-26.05
-26.025
-26
-25.975
-25.95
-25.925
-25.9
-25.875
-25.85
-25.825
-25.8
-25.775
-25.75
-25.725
-25.7
-25.675
-25.65
-25.625
-25.6
-25.575
-25.55
-25.525
-25.5
-25.475
-25.45
-25.425
-25.4
-25.375
-25.35
-25.325
-25.3
-25.275
-25.25
-25.225
-25.2
-25.175
-25.15
-25.125
-25.1
-25.075
-25.05
-25.025
-25
-24.975
-24.95
-24.925
-24.9
-24.875
-24.85
-24.825
-24.8
-24.775
-24.75
-24.725
-24.7
-24.675
-24.65
-24.625
-24.6
-24.575
-24.55
-24.525
-24.5
-24.475
-24.45
-24.425
-24.4
-24.375
-24.35
-24.325
-24.3
-24.275
-24.25
-24.225
-24.2
-24.175
-24.15
-24.125
-24.1
-24.075
-24.05
-24.025
-24
-23.975
-23.95
-23.925
-23.9
-23.875
-23.85
-23.825
-23.8
-23.775
-23.75
-23.725
-23.7
-23.675
-23.65
-23.625
-23.6
-23.575
-23.55
-23.525
-23.5
-23.475
-23.45
-23.425
-23.4
-23.375
-23.35
-23.325
-23.3
-23.275
-23.25
-23.225
-23.2
-23.175
-23.15
-23.125
-23.1
-23.075
-23.05
-23.025
-23
-22.975
-22.95
-22.925
-22.9
-22.875
-22.85
-22.825
-22.8
-22.775
-22.75
-22.725
-22.7
-22.675
-22.65
-22.625
-22.6
-22.575
-22.55
-22.525
-22.5
-22.475
-22.45
-22.425
-22.4
-22.375
-22.35
-22.325
-22.3
-22.275
-22.25
-22.225
-22.2
-22.175
-22.15
-22.125
-22.1
-22.075
-22.05
-22.025
-22
-21.975
-21.95
-21.925
-21.9
-21.875
-21.85
-21.825
-21.8
-21.775
-21.75
-21.725
-21.7
-21.675
-21.65
-21.625
-21.6
-21.575
-21.55
-21.525
-21.5
-21.475
-21.45
-21.425
-21.4
-21.375
-21.35
-21.325
-21.3
-21.275
-21.25
-21.225
-21.2
-21.175
-21.15
-21.125
-21.1
-21.075
-21.05
-21.025
-21
-20.975
-20.95
-20.925
-20.9
-20.875
-20.85
-20.825
-20.8
-20.775
-20.75
-20.725
-20.7
-20.675
-20.65
-20.625
-20.6
-20.575
-20.55
-20.525
-20.5
-20.475
-20.45
-20.425
-20.4
-20.375
-20.35
-20.325
-20.3
-20.275
-20.25
-20.225
-20.2
-20.175
-20.15
-20.125
-20.1
-20.075
-20.05
-20.025
-20
VAR_LIST_END
BEGIN
-15.347901,-156.50922
-15.21302,-158.86963
-14.897839,-159.30492
-15.170156,-158.66354
-15.148744,-158.9093
-15.202622,-158.21519
-15.075413,-157.79042
-15.193974,-159.15359
-15.260593,-157.6709
-15.077229,-159.66492
-15.159789,-159.14113
-14.967341,-158.34799
-14.93814,-159.96417
-15.218274,-157.2439
-15.294014,-158.35844
-15.211063,-158.94545
-15.341266,-157.94772
-15.013079,-159.54506
-15.16096,-157.75095
-15.101169,-160.01123
-14.891041,-158.81113
-15.281882,-158.87738
-15.13288,-161.33865
-15.229145,-158.96275
-14.843621,-158.45685
-15.181004,-157.55144
-15.070237,-158.47456
-15.041927,-157.29518
-14.970934,-159.33078
-15.044816,-158.09634
-15.270936,-159.93811
-14.843627,-160.81937
-14.692125,-159.08626
-15.431281,-158.82251
-15.083134,-157.24092
-15.177317,-158.39894
-14.875004,-156.79979
-14.89746,-157.29213
-15.030951,-159.14629
-15.060065,-157.97554
-15.094725,-157.95302
-15.012096,-156.92587
-14.651702,-157.6221
-15.01737,-160.13329
-15.000583,-158.77919
-15.336125,-158.91563
-14.976744,-157.67662
-14.908613,-157.50421
-14.976457,-158.96281
-14.913447,-157.25948
-15.417041,-156.51205
-15.220601,-159.76553
-15.356894,-158.93533
-14.968313,-158.82413
-15.00742,-159.9785
-14.737917,-159.02106
-15.086164,-158.0787
-15.145459,-159.68144
-15.046216,-160.16359
-15.146349,-160.07753
-15.149374,-158.28352
-15.067631,-157.99886
-15.220005,-157.11694
-15.217936,-158.98105
-14.906715,-160.24873
-15.077074,-159.99937
-15.263577,-159.63855
-15.353651,-158.0853
-14.902163,-158.83224
-15.01652,-157.97392
-14.950214,-159.26807
-15.429738,-158.90637
-14.940681,-158.98997
-15.308185,-158.04907
-14.670887,-160.5956
-15.168138,-158.66942
-15.226547,-157.64854
-15.113997,-159.73752
-15.050735,-159.8466
-14.812424,-156.99716
-15.072254,-158.83458
-14.70868,-157.73827
-15.193225,-158.84567
-15.268122,-159.11607
-15.110403,-157.71577
-15.195484,-158.48058
-15.307874,-158.31598
-15.308819,-158.65323
-15.210488,-159.97452
-15.018675,-158.74205
-15.023993,-160.21422
-15.047913,-158.10353
-15.26259,-158.31651
-14.904398,-158.49165
-15.276567,-159.72647
-15.137851,-158.82211
-14.740529,-159.00343
-15.245548,-160.38518
-15.202618,-156.81956
-15.103368,-158.59775
-15.197261,-158.6227
-15.130941,-158.35962
-14.895639,-158.46454
-15.262245,-158.13878
-15.370984,-158.71158
-15.011765,-158.88432
-15.282182,-160.55411
-14.932565,-158.77008
-14.77499,-157.32726
-15.000878,-157.51572
-15.117284,-158.28029
-15.075317,-158.5262
-14.892075,-158.19661
-15.118809,-157.66339
-15.059325,-158.86626
-14.981492,-157.48351
-15.150796,-157.25819
-15.034005,-158.61618
-15.192393,-158.23857
-15.347613,-159.1015
-15.158848,-157.8804
-15.111383,-159.24777
-14.880441,-160.82472
-15.238433,-160.9514
-15.068596,-159.04744
-14.957146,-158.0105
-15.165769,-158.81581
-15.098349,-160.11121
-14.961866,-159.51407
-15.262117,-157.1539
-15.047272,-157.81358
-14.843925,-158.4679
-15.18811,-159.16115
-14.925573,-159.60519
-15.210597,-158.87535
-14.99135,-159.91045
-15.264358,-159.58328
-15.071826,-158.59111
-15.153975,-159.63339
-15.095027,-158.13831
-15.149924,-159.24519
-15.179521,-158.45499
-15.179832,-159.63127
-14.869188,-158.72672
-15.192553,-159.02628
-15.285215,-159.34143
-15.143824,-158.08571
-14.808898,-158.18932
-15.01843,-159.62251
-14.857852,-160.42039
-15.059227,-159.66423
-15.183453,-156.81346
-15.051964,-158.93324
-15.192584,-159.00465
-14.887375,-158.38588
-14.660834,-159.80247
-15.19898,-157.25266
-15.293428,-157.80917
-15.267097,-158.95876
-15.109241,-158.99097
-15.03041,-158.06873
-14.844348,-159.44264
-14.790166,-159.90054
-15.002378,-158.96164
-15.116739,-158.10524
-15.159947,-158.24335
-15.045175,-159.07613
-15.017267,-160.40123
-15.029922,-158.85849
-15.165806,-159.00362
-15.09139,-157.59976
-15.08184,-158.5482
-15.2316,-159.32532
-15.029382,-158.57925
-15.202295,-159.08264
-14.863585,-158.58939
-15.000501,-158.44508
-14.915988,-159.32108
-14.968375,-158.67146
-15.305114,-158.39046
-15.014253,-158.59962
-14.97226,-157.34309
-15.026895,-157.00659
-15.182865,-158.24623
-15.046045,-156.36685
-14.932405,-158.60329
-15.074907,-157.28096
-15.109663,-158.58904
-14.8761,-157.94003
-15.125622,-159.74472
-14.974049,-158.78691
-15.006066,-158.27171
-15.025361,-157.1131
-14.787141,-158.13292
-14.913186,-158.75699
-14.81946,-160.06612
-15.113813,-159.40797
-15.153568,-158.78387
-14.99194,-158.80672
-15.046412,-159.17313
-14.987015,-158.25517
-14.97863,-159.33208
-15.082644,-158.9111
-14.813663,-156.90956
-15.110353,-158.97037
-15.1084,-158.1187
-15.052041,-160.1277
-14.968308,-158.50296
-15.114541,-159.56375
-15.022552,-159.32585
-15.108961,-158.79196
-15.012623,-156.88531
-14.823478,-158.21591
-15.066843,-157.47708
-15.16083,-158.5114
-14.859937,-159.75175
-14.910826,-158.93039
-15.129193,-158.07904
-14.938872,-158.82652
-15.129861,-158.47298
-15.229516,-159.51398
-14.986869,-159.07628
-15.054368,-157.98683
-15.192309,-159.43744
-15.136788,-159.22717
-15.169858,-158.20184
-15.072758,-158.17667
-15.005725,-158.04678
-15.135175,-157.21797
-15.223246,-158.78427
-15.228741,-159.3924
-15.112123,-158.89078
-14.943068,-160.04147
-15.011649,-158.74963
-15.030715,-158.95073
-14.900012,-159.68872
-15.0794,-160.11935
-15.0177,-160.27258
-15.145514,-158.35995
-15.208629,-157.86716
-15.013052,-158.52907
-15.135355,-158.45302
-15.206473,-159.41129
-15.051598,-158.69841
-14.948756,-157.77274
-15.183128,-158.82698
-15.057559,-159.09933
-15.000447,-159.0571
-15.009778,-158.28722
-15.02733,-159.35033
-15.104989,-159.15224
-14.982767,-158.91876
-15.045841,-158.94646
-15.020234,-159.57138
-15.102174,-158.79887
-15.197149,-158.99217
-15.036724,-158.95456
-15.070159,-158.54427
-15.190174,-158.25316
-15.061677,-158.91745
-15.179749,-159.19498
-15.421352,-159.07283
-15.297974,-160.19849
-15.076055,-158.23225
-15.00078,-158.28012
-15.068652,-158.24895
-15.140249,-157.66794
-15.06807,-157.67369
-15.031823,-159.19388
-15.194013,-158.25679
-15.363976,-158.26244
-15.007868,-159.44429
-15.13653,-158.26437
-15.077447,-157.63829
-15.064965,-159.29921
-15.057334,-159.63881
-14.969949,-159.22644
-15.211532,-158.61227
-15.13165,-159.71129
-15.021363,-158.88501
-15.170021,-157.64021
-14.897518,-159.028
-15.041731,-158.2916
-15.019975,-158.59338
-15.115508,-159.57648
-14.977819,-158.1913
-14.826809,-158.56448
-15.093532,-158.44553
-14.968009,-158.03046
-15.115288,-159.72658
-15.275836,-158.75829
-14.917504,-158.506
-15.089013,-158.56985
-15.274841,-159.61729
-14.901999,-158.60774
-15.103569,-158.33592
-15.10065,-158.36046
-14.881693,-158.33643
-15.011794,-158.4588
-15.182902,-159.39079
-15.146916,-158.56717
-15.249502,-158.04097
-15.040494,-158.79027
-15.127629,-159.48494
-15.117083,-158.9693
-15.211662,-159.63644
-15.001355,-159.43793
-15.041738,-157.62613
-15.168972,-157.5804
-15.137719,-158.48759
-15.16343,-158.3028
-14.78869,-158.65851
-14.938549,-159.14616
-15.148052,-159.11432
-15.024515,-158.2706
-15.100568,-159.53227
-15.045851,-159.32494
-14.845595,-159.53954
-15.08231,-158.50569
-15.089229,-158.80414
-15.018553,-158.07159
-15.051331,-158.4465
-15.012221,-158.51837
-14.961116,-158.58397
-15.03931,-158.07884
-15.130635,-157.54581
-15.056267,-159.01949
-14.876057,-158.86218
-15.016242,-158.76294
-15.01336,-158.29109
-15.092628,-159.28503
-15.116805,-158.1918
-15.074137,-158.19543
-15.07947,-159.3634
-15.065174,-158.74615
-15.051827,-158.17679
-15.014678,-158.53918
-15.190859,-158.10008
-15.116113,-159.57043
-15.25185,-159.59889
-15.050498,-159.09512
-15.080352,-158.39891
-14.977278,-159.78506
-15.044217,-159.084
-14.974881,-158.87881
-15.018791,-158.33585
-15.032038,-159.30067
-15.181971,-159.89861
-14.972023,-158.13513
-15.089087,-158.43971
-14.952079,-159.52946
-15.260636,-158.39902
-15.161416,-158.81517
-15.175079,-159.34346
-14.991384,-158.79723
-15.121969,-158.73683
-14.968971,-158.75529
-15.040643,-158.99644
-15.022394,-159.61421
-15.280741,-158.7202
-15.166996,-159.25592
-15.144009,-157.94664
-15.11761,-158.35988
-15.129056,-158.44331
-14.925124,-159.09543
-15.045149,-158.9651
-15.143441,-158.20694
-15.114845,-159.23016
-15.090739,-158.46925
-15.075727,-158.62872
-15.152766,-158.23843
-15.06456,-158.13091
-14.921488,-158.96698
-14.91997,-158.75845
-15.057558,-159.02554
-15.088976,-158.43274
-15.108431,-159.83951
-14.957183,-157.91797
-15.118255,-158.53781
-15.00017,-158.95511
-15.02552,-160.1459
-15.040603,-158.78252
-14.971958,-158.55806
-14.967734,-158.9523
-15.102475,-158.35112
-14.889343,-159.29372
-15.045941,-158.7762
-15.142056,-158.99614
-15.139948,-158.61874
-15.152383,-157.75575
-14.982765,-158.90086
-15.110818,-159.11143
-15.00289,-158.78224
-15.006193,-159.16602
-15.083551,-158.4915
-14.998446,-159.00706
-15.077745,-158.09669
-15.05676,-158.47771
-15.029447,-159.22624
-15.074453,-159.13766
-14.99313,-159.54675
-15.001523,-159.37357
-15.101989,-158.50607
-15.065032,-158.3461
-15.117972,-158.29362
-15.177721,-159.41547
-15.167268,-158.57086
-15.117136,-159.53114
-15.128711,-158.11618
-15.014477,-158.84941
-15.143361,-159.32622
-15.070307,-158.70401
-15.153048,-159.16322
-15.07443,-159.25906
-15.190116,-158.9231
-15.062505,-159.55077
-15.024264,-159.37672
-15.17026,-158.11052
-14.951854,-158.94492
-15.024647,-158.91949
-15.111568,-158.8497
-15.001541,-159.11916
-15.054711,-158.51901
-14.980311,-158.77502
-15.068427,-159.04587
-15.158247,-159.52812
-15.085643,-158.92497
-15.022341,-159.15637
-15.026816,-158.437
-15.050935,-157.97485
-15.055077,-158.3213
-14.96634,-158.90202
-14.896421,-158.5004
-15.101813,-158.97171
-15.041603,-158.50471
-15.013491,-157.83359
-15.016657,-158.77632
-15.005603,-158.64366
-15.027079,-158.77776
-15.133498,-158.98972
-15.055553,-158.57681
-15.0304,-158.26112
-15.000009,-159.23381
-14.970672,-158.96819
-15.023749,-158.7934
-15.104705,-158.83548
-15.017655,-158.77945
-14.988992,-159.158
-15.049214,-158.41373
-15.064625,-158.62903
-15.030273,-158.97617
-15.013914,-158.8779
-15.073565,-158.75798
-15.095424,-158.53227
-15.156858,-159.27681
-15.093538,-158.34442
-15.097795,-158.45119
-15.043157,-159.04779
-15.030788,-158.67554
-15.006856,-158.99805
-15.16449,-158.73772
-15.060464,-159.18909
-15.113402,-159.20372
-14.928948,-158.74379
-14.985569,-158.93674
-15.000013,-158.83539
-15.128113,-158.9521
-15.084795,-159.04753
-15.096313,-159.30933
-15.060672,-158.70534
-15.012666,-158.69243
-15.071828,-158.89302
-15.056266,-159.74512
-15.028092,-158.55597
-15.124917,-158.70697
-15.114236,-158.88782
-15.015666,-158.58684
-15.104648,-159.58438
-15.069004,-158.97607
-14.973177,-158.57759
-15.107367,-158.08932
-15.130098,-158.96587
-15.063062,-158.47987
-15.051167,-158.44339
-15.119831,-159.01381
-15.032907,-158.74597
-15.095525,-158.56209
-15.022645,-158.80995
-15.045244,-159.19109
-15.056156,-158.3243
-15.020365,-158.79762
-14.955875,-158.83357
-15.113062,-158.71335
-15.056674,-158.55652
-15.027332,-158.90559
-15.080902,-158.89407
-15.112429,-158.98799
-15.024665,-159.13687
-15.058764,-158.42592
-15.07933,-158.29166
-14.972559,-158.50815
-15.032125,-158.53278
-15.093733,-158.91748
-15.117723,-158.76399
-15.050034,-158.96812
-15.000681,-158.15897
-15.097364,-158.74423
-15.078465,-159.4375
-15.057079,-158.47859
-15.08415,-158.61169
-15.065844,-158.95561
-14.945342,-158.95763
-15.063725,-158.62843
-15.097928,-158.57593
-15.092258,-158.36479
-15.003404,-158.70663
-15.030004,-158.91789
-15.081809,-158.80618
-15.086216,-158.37871
-15.121933,-158.21347
-15.089665,-158.70947
-15.099424,-159.21819
-14.997498,-158.99596
-15.095515,-158.45003
-15.041779,-158.69415
-15.056338,-159.46748
-15.039038,-158.90399
-15.123127,-158.47664
-14.997916,-158.73979
-15.085476,-157.99416
-15.05607,-158.59456
-15.046325,-158.94395
-15.046654,-159.36777
-15.037406,-158.86501
-15.044408,-158.22218
-15.006888,-158.28253
-15.087084,-159.11649
-15.002687,-158.85239
-15.067549,-158.83978
-15.042493,-158.78061
-15.004317,-158.60358
-15.040624,-158.83177
-15.130305,-158.94656
-15.072282,-158.72034
-15.020329,-158.71947
-15.01644,-159.37563
-15.103203,-158.98471
-15.07222,-159.15363
-15.021991,-158.54033
-15.039829,-158.42664
-15.043095,-158.32658
-15.070193,-159.53644
-15.085217,-158.25865
-15.093967,-158.3602
-15.101149,-158.93314
-15.172062,-158.83878
-15.000639,-158.50038
-15.098782,-159.20288
-14.991406,-158.63705
-15.067759,-159.37738
-15.086676,-158.36775
-15.077785,-159.0733
-15.088812,-158.48561
-15.019773,-158.81081
-15.041084,-158.88681
-15.046576,-158.95099
-15.090517,-158.49367
-15.071093,-158.76454
-15.069999,-158.73094
-14.99157,-159.05229
-15.020443,-158.59392
-15.041579,-158.60458
-15.108316,-158.56628
-15.090331,-159.16077
-15.051057,-158.72035
-15.067467,-158.80133
