CITIFILE A.01.01
!Agilent Technologies,N5230C,MY48100142,A.08.04.10
!Agilent N5230C: A.08.04.10
!Format: LogMag/Angle
!Date: Monday, August 31, 2020 13:15:43
NAME CH1_DATA
VAR Power MAG 801
DATA S11 DBANGLE
DATA S21 DBANGLE
DATA S12 DBANGLE
DATA S22 DBANGLE
VAR_LIST_BEGIN
-40
-39.975
-39.95
-39.925
-39.9
-39.875
-39.85
-39.825
-39.8
-39.775
-39.75
-39.725
-39.7
-39.675
-39.65
-39.625
-39.6
-39.575
-39.55
-39.525
-39.5
-39.475
-39.45
-39.425
-39.4
-39.375
-39.35
-39.325
-39.3
-39.275
-39.25
-39.225
-39.2
-39.175
-39.15
-39.125
-39.1
-39.075
-39.05
-39.025
-39
-38.975
-38.95
-38.925
-38.9
-38.875
-38.85
-38.825
-38.8
-38.775
-38.75
-38.725
-38.7
-38.675
-38.65
-38.625
-38.6
-38.575
-38.55
-38.525
-38.5
-38.475
-38.45
-38.425
-38.4
-38.375
-38.35
-38.325
-38.3
-38.275
-38.25
-38.225
-38.2
-38.175
-38.15
-38.125
-38.1
-38.075
-38.05
-38.025
-38
-37.975
-37.95
-37.925
-37.9
-37.875
-37.85
-37.825
-37.8
-37.775
-37.75
-37.725
-37.7
-37.675
-37.65
-37.625
-37.6
-37.575
-37.55
-37.525
-37.5
-37.475
-37.45
-37.425
-37.4
-37.375
-37.35
-37.325
-37.3
-37.275
-37.25
-37.225
-37.2
-37.175
-37.15
-37.125
-37.1
-37.075
-37.05
-37.025
-37
-36.975
-36.95
-36.925
-36.9
-36.875
-36.85
-36.825
-36.8
-36.775
-36.75
-36.725
-36.7
-36.675
-36.65
-36.625
-36.6
-36.575
-36.55
-36.525
-36.5
-36.475
-36.45
-36.425
-36.4
-36.375
-36.35
-36.325
-36.3
-36.275
-36.25
-36.225
-36.2
-36.175
-36.15
-36.125
-36.1
-36.075
-36.05
-36.025
-36
-35.975
-35.95
-35.925
-35.9
-35.875
-35.85
-35.825
-35.8
-35.775
-35.75
-35.725
-35.7
-35.675
-35.65
-35.625
-35.6
-35.575
-35.55
-35.525
-35.5
-35.475
-35.45
-35.425
-35.4
-35.375
-35.35
-35.325
-35.3
-35.275
-35.25
-35.225
-35.2
-35.175
-35.15
-35.125
-35.1
-35.075
-35.05
-35.025
-35
-34.975
-34.95
-34.925
-34.9
-34.875
-34.85
-34.825
-34.8
-34.775
-34.75
-34.725
-34.7
-34.675
-34.65
-34.625
-34.6
-34.575
-34.55
-34.525
-34.5
-34.475
-34.45
-34.425
-34.4
-34.375
-34.35
-34.325
-34.3
-34.275
-34.25
-34.225
-34.2
-34.175
-34.15
-34.125
-34.1
-34.075
-34.05
-34.025
-34
-33.975
-33.95
-33.925
-33.9
-33.875
-33.85
-33.825
-33.8
-33.775
-33.75
-33.725
-33.7
-33.675
-33.65
-33.625
-33.6
-33.575
-33.55
-33.525
-33.5
-33.475
-33.45
-33.425
-33.4
-33.375
-33.35
-33.325
-33.3
-33.275
-33.25
-33.225
-33.2
-33.175
-33.15
-33.125
-33.1
-33.075
-33.05
-33.025
-33
-32.975
-32.95
-32.925
-32.9
-32.875
-32.85
-32.825
-32.8
-32.775
-32.75
-32.725
-32.7
-32.675
-32.65
-32.625
-32.6
-32.575
-32.55
-32.525
-32.5
-32.475
-32.45
-32.425
-32.4
-32.375
-32.35
-32.325
-32.3
-32.275
-32.25
-32.225
-32.2
-32.175
-32.15
-32.125
-32.1
-32.075
-32.05
-32.025
-32
-31.975
-31.95
-31.925
-31.9
-31.875
-31.85
-31.825
-31.8
-31.775
-31.75
-31.725
-31.7
-31.675
-31.65
-31.625
-31.6
-31.575
-31.55
-31.525
-31.5
-31.475
-31.45
-31.425
-31.4
-31.375
-31.35
-31.325
-31.3
-31.275
-31.25
-31.225
-31.2
-31.175
-31.15
-31.125
-31.1
-31.075
-31.05
-31.025
-31
-30.975
-30.95
-30.925
-30.9
-30.875
-30.85
-30.825
-30.8
-30.775
-30.75
-30.725
-30.7
-30.675
-30.65
-30.625
-30.6
-30.575
-30.55
-30.525
-30.5
-30.475
-30.45
-30.425
-30.4
-30.375
-30.35
-30.325
-30.3
-30.275
-30.25
-30.225
-30.2
-30.175
-30.15
-30.125
-30.1
-30.075
-30.05
-30.025
-30
-29.975
-29.95
-29.925
-29.9
-29.875
-29.85
-29.825
-29.8
-29.775
-29.75
-29.725
-29.7
-29.675
-29.65
-29.625
-29.6
-29.575
-29.55
-29.525
-29.5
-29.475
-29.45
-29.425
-29.4
-29.375
-29.35
-29.325
-29.3
-29.275
-29.25
-29.225
-29.2
-29.175
-29.15
-29.125
-29.1
-29.075
-29.05
-29.025
-29
-28.975
-28.95
-28.925
-28.9
-28.875
-28.85
-28.825
-28.8
-28.775
-28.75
-28.725
-28.7
-28.675
-28.65
-28.625
-28.6
-28.575
-28.55
-28.525
-28.5
-28.475
-28.45
-28.425
-28.4
-28.375
-28.35
-28.325
-28.3
-28.275
-28.25
-28.225
-28.2
-28.175
-28.15
-28.125
-28.1
-28.075
-28.05
-28.025
-28
-27.975
-27.95
-27.925
-27.9
-27.875
-27.85
-27.825
-27.8
-27.775
-27.75
-27.725
-27.7
-27.675
-27.65
-27.625
-27.6
-27.575
-27.55
-27.525
-27.5
-27.475
-27.45
-27.425
-27.4
-27.375
-27.35
-27.325
-27.3
-27.275
-27.25
-27.225
-27.2
-27.175
-27.15
-27.125
-27.1
-27.075
-27.05
-27.025
-27
-26.975
-26.95
-26.925
-26.9
-26.875
-26.85
-26.825
-26.8
-26.775
-26.75
-26.725
-26.7
-26.675
-26.65
-26.625
-26.6
-26.575
-26.55
-26.525
-26.5
-26.475
-26.45
-26.425
-26.4
-26.375
-26.35
-26.325
-26.3
-26.275
-26.25
-26.225
-26.2
-26.175
-26.15
-26.125
-26.1
-26.075
-26.05
-26.025
-26
-25.975
-25.95
-25.925
-25.9
-25.875
-25.85
-25.825
-25.8
-25.775
-25.75
-25.725
-25.7
-25.675
-25.65
-25.625
-25.6
-25.575
-25.55
-25.525
-25.5
-25.475
-25.45
-25.425
-25.4
-25.375
-25.35
-25.325
-25.3
-25.275
-25.25
-25.225
-25.2
-25.175
-25.15
-25.125
-25.1
-25.075
-25.05
-25.025
-25
-24.975
-24.95
-24.925
-24.9
-24.875
-24.85
-24.825
-24.8
-24.775
-24.75
-24.725
-24.7
-24.675
-24.65
-24.625
-24.6
-24.575
-24.55
-24.525
-24.5
-24.475
-24.45
-24.425
-24.4
-24.375
-24.35
-24.325
-24.3
-24.275
-24.25
-24.225
-24.2
-24.175
-24.15
-24.125
-24.1
-24.075
-24.05
-24.025
-24
-23.975
-23.95
-23.925
-23.9
-23.875
-23.85
-23.825
-23.8
-23.775
-23.75
-23.725
-23.7
-23.675
-23.65
-23.625
-23.6
-23.575
-23.55
-23.525
-23.5
-23.475
-23.45
-23.425
-23.4
-23.375
-23.35
-23.325
-23.3
-23.275
-23.25
-23.225
-23.2
-23.175
-23.15
-23.125
-23.1
-23.075
-23.05
-23.025
-23
-22.975
-22.95
-22.925
-22.9
-22.875
-22.85
-22.825
-22.8
-22.775
-22.75
-22.725
-22.7
-22.675
-22.65
-22.625
-22.6
-22.575
-22.55
-22.525
-22.5
-22.475
-22.45
-22.425
-22.4
-22.375
-22.35
-22.325
-22.3
-22.275
-22.25
-22.225
-22.2
-22.175
-22.15
-22.125
-22.1
-22.075
-22.05
-22.025
-22
-21.975
-21.95
-21.925
-21.9
-21.875
-21.85
-21.825
-21.8
-21.775
-21.75
-21.725
-21.7
-21.675
-21.65
-21.625
-21.6
-21.575
-21.55
-21.525
-21.5
-21.475
-21.45
-21.425
-21.4
-21.375
-21.35
-21.325
-21.3
-21.275
-21.25
-21.225
-21.2
-21.175
-21.15
-21.125
-21.1
-21.075
-21.05
-21.025
-21
-20.975
-20.95
-20.925
-20.9
-20.875
-20.85
-20.825
-20.8
-20.775
-20.75
-20.725
-20.7
-20.675
-20.65
-20.625
-20.6
-20.575
-20.55
-20.525
-20.5
-20.475
-20.45
-20.425
-20.4
-20.375
-20.35
-20.325
-20.3
-20.275
-20.25
-20.225
-20.2
-20.175
-20.15
-20.125
-20.1
-20.075
-20.05
-20.025
-20
VAR_LIST_END
BEGIN
-15.341779,-162.51222
-15.01314,-157.08429
-15.318602,-162.76073
-15.009689,-159.38069
-15.18973,-159.52788
-15.104756,-160.04391
-14.923484,-158.66362
-15.309307,-158.683
-15.254873,-159.98163
-15.472674,-158.99063
-15.31556,-158.78697
-14.92802,-161.85896
-15.397169,-158.03255
-14.700957,-162.02332
-15.146482,-158.61494
-14.98844,-159.26964
-14.644532,-161.25229
-14.585117,-158.49718
-15.222142,-161.26999
-15.445518,-164.92206
-15.028765,-157.5667
-15.022017,-160.09796
-15.606575,-158.87842
-15.328891,-156.94363
-15.260793,-160.04761
-15.558701,-153.47986
-15.053011,-159.9575
-14.829673,-160.86833
-14.933476,-155.51497
-15.064581,-159.06544
-15.138085,-158.30081
-15.014867,-158.35669
-15.207863,-159.26077
-15.143629,-161.59637
-15.165776,-158.3967
-15.544586,-159.26366
-15.016372,-159.05841
-15.117978,-157.386
-15.049763,-153.4391
-15.287312,-159.88931
-15.036514,-159.93384
-14.623703,-157.11076
-15.389846,-160.12408
-15.012344,-160.4532
-14.769128,-160.53589
-15.129762,-162.75183
-15.311531,-158.59102
-15.031206,-160.02754
-14.729042,-157.7789
-15.072576,-162.37718
-15.159391,-160.78261
-15.298876,-159.70465
-14.971518,-158.42734
-15.030334,-159.02437
-15.317989,-160.3842
-15.776017,-158.97021
-14.467339,-161.08521
-14.924593,-161.0565
-15.210526,-161.29552
-14.911087,-165.24367
-15.094611,-163.43861
-15.482841,-158.59756
-14.646111,-160.10477
-14.956434,-158.12442
-15.018545,-162.47209
-15.045437,-157.36156
-15.057858,-160.50873
-14.796049,-158.95583
-14.981046,-158.4996
-15.105091,-158.24022
-15.042517,-160.26457
-14.830108,-158.45578
-15.023669,-159.84094
-15.451416,-160.20639
-14.985883,-156.15439
-15.101188,-161.91101
-14.913233,-161.1902
-15.278172,-158.78624
-14.789608,-160.01126
-14.8671,-159.01816
-15.334618,-160.22609
-14.901364,-158.75475
-15.239902,-162.82562
-15.116253,-159.2
-15.067638,-157.14818
-14.752042,-157.35468
-15.283339,-158.81824
-14.949227,-159.89989
-15.329089,-159.08163
-15.167358,-156.51845
-15.117229,-155.7596
-14.998428,-158.34807
-15.264549,-159.29152
-15.004539,-156.95424
-14.770824,-163.00658
-15.398365,-157.37436
-14.849962,-158.03085
-14.942343,-160.25824
-15.231411,-158.42445
-15.117208,-159.18147
-14.903866,-161.03685
-15.201792,-158.91898
-14.890867,-160.88133
-15.157217,-159.03821
-14.796208,-156.80528
-15.172429,-158.92284
-15.141835,-159.99193
-14.975211,-159.15759
-14.920999,-160.09297
-14.746935,-159.66565
-15.119247,-160.56172
-14.778706,-157.99612
-15.093706,-159.23955
-14.976821,-159.06731
-15.027351,-158.37822
-15.205377,-160.43394
-15.012024,-156.51627
-14.797858,-158.43823
-15.008882,-160.7601
-14.87414,-158.14163
-15.317882,-159.27118
-14.905905,-160.35231
-14.933353,-161.82654
-14.856681,-159.8504
-14.948725,-158.02251
-14.97302,-160.58293
-15.158624,-159.79449
-15.264927,-158.81212
-15.024507,-160.70792
-14.963601,-159.06902
-15.306831,-160.49532
-15.476839,-159.94493
-15.15547,-158.70836
-14.898274,-159.83803
-14.680543,-157.67178
-15.25213,-161.98409
-14.969857,-158.25375
-15.278796,-159.72032
-14.818539,-158.80943
-14.727386,-159.15709
-15.332256,-161.04076
-15.237434,-163.22823
-15.268646,-156.50966
-14.920793,-159.33928
-14.724331,-159.61703
-14.833057,-158.76199
-14.703913,-159.67625
-15.021875,-158.47615
-15.04865,-159.23322
-15.013,-162.44742
-14.882247,-157.84917
-15.046471,-158.36617
-14.693635,-157.65739
-15.140789,-159.10634
-14.689294,-159.57083
-14.889267,-162.26488
-15.191825,-156.62099
-15.037238,-156.39032
-15.257588,-161.34888
-14.914098,-159.76855
-15.321882,-160.34433
-14.877117,-160.98029
-15.151775,-161.98885
-15.053823,-159.43735
-14.719891,-159.66411
-14.812121,-158.60529
-15.223048,-160.28658
-14.820903,-158.46979
-15.059549,-158.18546
-14.945198,-159.0528
-15.264337,-159.34348
-14.940143,-158.05663
-15.285366,-159.82385
-15.081214,-160.91502
-15.118367,-160.56677
-15.181428,-159.78232
-15.099095,-158.10907
-14.735698,-159.59879
-15.147333,-157.86061
-14.716058,-159.56555
-15.357244,-160.72279
-15.082139,-159.04228
-15.000994,-159.75798
-15.12157,-158.4814
-15.566612,-160.47176
-15.031186,-159.24789
-15.196294,-160.0432
-15.116837,-160.76535
-15.343496,-160.54991
-14.824685,-157.67477
-15.013511,-160.13162
-14.686368,-159.61749
-14.917351,-161.42519
-15.093852,-159.22986
-14.866351,-159.52455
-14.987172,-159.47667
-15.065067,-159.22218
-14.612813,-158.08472
-14.946226,-160.35078
-15.035704,-158.99284
-14.873121,-160.138
-15.046448,-159.041
-14.801092,-158.64537
-15.137346,-158.58856
-14.6844,-159.02336
-15.031174,-159.01207
-15.238532,-158.73174
-15.013896,-158.64175
-15.264243,-157.88251
-14.968997,-159.34174
-15.313696,-159.19315
-14.742561,-159.66193
-15.175626,-158.7782
-14.911058,-159.77264
-15.202505,-157.95807
-15.427508,-160.36049
-15.303379,-160.18436
-14.909945,-158.93671
-15.223237,-160.42686
-14.917679,-159.38194
-14.824123,-156.86601
-15.226395,-160.27779
-15.093637,-158.90089
-14.971449,-158.95424
-15.207877,-160.80197
-14.858004,-157.38678
-15.330871,-159.43617
-15.383715,-160.88763
-15.528734,-160.10741
-14.778737,-161.40553
-14.945424,-159.00064
-14.969301,-161.47481
-14.998196,-159.76833
-15.24717,-158.70018
-15.164589,-158.1712
-14.937257,-161.75722
-14.931335,-160.22908
-14.957659,-160.11539
-15.121248,-157.58607
-15.249082,-158.84204
-15.159782,-158.89212
-14.995828,-161.47466
-15.363913,-159.51984
-14.915669,-160.75781
-15.146356,-159.13968
-14.894823,-158.18529
-15.128411,-158.13602
-15.526985,-159.39326
-15.208512,-159.95222
-14.809583,-158.37392
-14.853865,-159.80278
-14.965418,-158.28308
-15.252985,-159.3009
-15.038305,-159.72925
-15.428072,-160.50601
-15.032664,-157.82713
-15.126904,-157.34024
-14.919551,-159.85693
-15.140416,-161.23393
-14.912395,-159.42851
-15.11595,-160.7681
-15.059381,-160.55043
-15.126355,-158.87318
-14.939306,-159.30794
-14.895282,-159.54034
-14.929925,-159.42793
-15.151503,-161.00838
-15.260947,-158.739
-14.7378,-160.14624
-14.966761,-159.63687
-14.893948,-158.62361
-15.045234,-158.92625
-15.139085,-157.13943
-14.89623,-160.86885
-15.079975,-159.38788
-15.45288,-161.34053
-15.035795,-157.98375
-15.160279,-158.67896
-15.050527,-158.6142
-15.053884,-158.73381
-14.903134,-160.17218
-14.782636,-158.82863
-15.113482,-160.23418
-15.230787,-158.39133
-15.195345,-159.06618
-15.214501,-160.27499
-14.928867,-159.9277
-15.046851,-158.84917
-14.8896,-160.67593
-15.030657,-158.32262
-15.395184,-159.33432
-14.994862,-159.3219
-15.154191,-161.0155
-15.033342,-159.10698
-15.00813,-160.43843
-14.876066,-160.48514
-14.874445,-159.86116
-14.858897,-159.71198
-15.089603,-159.09921
-14.9058,-159.45169
-14.928754,-159.06271
-15.058468,-158.63821
-15.139468,-158.39664
-15.234807,-157.01291
-15.075757,-159.87073
-14.896057,-157.52719
-14.832517,-159.60318
-15.228752,-159.34421
-15.277553,-159.34598
-14.897703,-160.3779
-15.256069,-160.22647
-15.023093,-159.47792
-15.282133,-160.8532
-15.016715,-160.85432
-15.138428,-157.45467
-14.837883,-159.51482
-15.04024,-158.07559
-15.30332,-159.55722
-15.019411,-159.14186
-15.224388,-159.17578
-14.925694,-159.80107
-15.112678,-160.22711
-15.006799,-160.12614
-15.016837,-158.74171
-15.15416,-159.99936
-15.017759,-158.06198
-14.969942,-159.73926
-15.22532,-160.49623
-15.039348,-159.48637
-14.907884,-159.60275
-14.920829,-159.75679
-14.934204,-159.50311
-15.034968,-159.50485
-15.057604,-157.88499
-14.955519,-157.10901
-15.127257,-157.04364
-14.965146,-160.66248
-15.113735,-159.17094
-15.061385,-159.93556
-14.860319,-159.867
-14.940856,-161.05873
-15.094319,-159.68781
-14.849576,-157.69189
-15.134503,-159.36942
-15.001261,-160.16722
-15.03546,-159.70155
-15.095506,-159.10309
-15.099171,-160.23125
-14.953571,-160.46667
-14.874998,-158.41789
-14.945561,-159.09473
-14.997479,-158.87894
-15.123806,-158.10085
-15.188298,-158.97281
-14.918041,-159.17776
-14.947691,-159.8351
-14.898149,-159.0748
-14.912858,-160.86977
-14.917009,-160.36595
-15.286577,-159.06868
-15.137133,-160.27153
-15.072145,-159.32402
-14.953053,-159.45798
-15.061567,-160.44928
-15.107094,-159.39008
-14.954267,-158.5112
-15.095275,-161.05815
-15.199836,-160.50458
-14.89541,-159.93213
-14.994808,-158.65503
-15.010571,-159.0264
-15.077998,-158.38824
-15.149283,-159.02914
-15.186669,-160.85971
-15.015854,-160.0867
-15.138694,-158.28392
-14.879112,-159.5871
-15.018139,-158.748
-15.019555,-159.3947
-15.056009,-158.23643
-15.124417,-159.23964
-15.076302,-158.01216
-15.028771,-159.80237
-14.995023,-160.76582
-15.07466,-159.56512
-15.039259,-160.32253
-14.904534,-159.05383
-15.191711,-158.78703
-14.993932,-158.62752
-15.030458,-158.45876
-14.90474,-160.32198
-14.887295,-159.22057
-14.995349,-159.12956
-15.200473,-159.46944
-15.026525,-159.56418
-15.00844,-160.50085
-14.940755,-158.71437
-14.940076,-159.01231
-15.027328,-159.04779
-14.97941,-160.1826
-15.163508,-159.50349
-15.110859,-158.78914
-15.046669,-160.02026
-15.045971,-159.22774
-14.964849,-159.62381
-15.04121,-159.50325
-14.905463,-159.73383
-15.103143,-160.31075
-15.175866,-159.65849
-15.119396,-158.9362
-15.053537,-160.22656
-15.038529,-159.02322
-14.944478,-160.02859
-15.136977,-158.65123
-15.011896,-159.7993
-15.131518,-158.64043
-14.841413,-159.1637
-15.057972,-160.04364
-15.089795,-159.09666
-14.914701,-161.14386
-14.824709,-159.99571
-14.990327,-159.5529
-15.020687,-160.53978
-15.064234,-160.37027
-15.074327,-159.4258
-14.874041,-158.96796
-14.963569,-159.42197
-15.035581,-159.93318
-14.8954,-158.52542
-14.939565,-159.00964
-15.067554,-158.60837
-15.149296,-159.06361
-15.033141,-158.57205
-15.104185,-159.79567
-15.093392,-159.1994
-15.024096,-159.89391
-15.136048,-159.03296
-14.909957,-160.03145
-15.065061,-159.37004
-14.990819,-159.67244
-15.080495,-159.03229
-14.984194,-159.77252
-14.960153,-158.37314
-15.069618,-158.86209
-15.048162,-160.3757
-15.258822,-158.44586
-14.944923,-158.43587
-15.002542,-159.99638
-14.983669,-159.23338
-14.900608,-159.17221
-15.017457,-160.33244
-15.192867,-159.46648
-14.919721,-160.71446
-14.981334,-159.04013
-15.223442,-159.62213
-14.946545,-159.778
-15.119062,-159.41374
-14.957411,-159.04625
-14.970693,-159.10324
-14.968741,-159.77562
-14.92476,-160.02142
-14.934102,-159.07115
-14.998001,-159.58293
-15.088224,-159.53561
-14.952299,-159.14008
-15.071188,-160.91121
-15.003129,-159.1716
-15.077409,-159.23802
-15.127504,-158.44659
-15.005604,-158.97368
-15.010741,-159.57086
-14.986383,-160.16249
-15.09481,-160.36398
-14.959834,-159.01028
-14.94769,-159.62033
-15.140197,-160.6985
-14.987021,-159.888
-15.044486,-158.94141
-14.814195,-160.07372
-14.970574,-159.36014
-14.922709,-159.9344
-15.061971,-159.782
-15.1467,-159.43893
-14.900154,-159.13097
-15.173202,-159.39813
-15.007038,-159.002
-15.052626,-158.97139
-15.024027,-160.37209
-15.14554,-159.93825
-14.801482,-160.5769
-15.275024,-158.81607
-14.998809,-159.61092
-14.901749,-158.50546
-15.015696,-160.31197
-15.085224,-159.76747
-15.014708,-159.06549
-14.953203,-159.62909
-15.058204,-159.51387
-14.94009,-161.16464
-14.936178,-159.77646
-15.047505,-159.79398
-14.993032,-159.33858
-14.976137,-159.47641
-14.895828,-158.54443
-15.009798,-160.60463
-14.95587,-159.36348
-14.964467,-159.52155
-14.991558,-159.82188
-14.863775,-158.97266
-14.973547,-158.7746
-15.021503,-159.24728
-14.916329,-159.17384
-15.004726,-159.36607
-15.136803,-158.87566
-15.017328,-160.22647
-15.113541,-160.19621
-15.091515,-159.11302
-14.910328,-159.71016
-15.164306,-160.25342
-14.998695,-159.92033
-14.952375,-159.2823
-14.992462,-159.76732
-15.020191,-159.47975
-14.959877,-158.73445
-15.016736,-159.11281
-14.999557,-159.6376
-15.048398,-159.44357
-14.994606,-158.97208
-14.918703,-160.36879
-14.98451,-159.53226
-15.042057,-159.21544
-15.117762,-159.23888
-14.914187,-158.71239
-15.177999,-158.84152
-15.002687,-159.67351
-14.949071,-159.42821
-15.062624,-159.12062
-15.098983,-159.60464
-14.884109,-159.43848
-15.04879,-158.72897
-14.999542,-160.24806
-15.011804,-159.43129
-14.937851,-158.94075
-14.909251,-159.16193
-14.934629,-160.3083
-14.989754,-159.19658
-14.895035,-158.74792
-15.0419,-158.58681
-15.139826,-159.74501
-14.921058,-159.16881
-15.087884,-159.51538
-15.010848,-158.8755
-15.046596,-159.88562
-15.071826,-159.21004
-15.033738,-159.78244
-15.016388,-160.10139
-14.970239,-159.06874
-14.982589,-159.51132
-15.037905,-158.53905
-15.012403,-160.15042
-15.065125,-158.76567
-15.127553,-160.30429
-15.077111,-159.27396
-15.115976,-159.7464
-15.181214,-159.19469
-15.142422,-159.60022
-15.125728,-159.60426
-15.067207,-160.50365
-15.004889,-160.20906
-15.062013,-159.80887
-15.007686,-158.64624
-15.065889,-158.63116
-15.019706,-159.29362
-15.061777,-158.52853
-15.010569,-159.3389
-15.076465,-159.67609
