CITIFILE A.01.01
!Agilent Technologies,N5230C,MY48100142,A.08.04.10
!Agilent N5230C: A.08.04.10
!Format: LogMag/Angle
!Date: Monday, August 24, 2020 12:50:39
NAME CH1_DATA
VAR Power MAG 801
DATA S11 DBANGLE
DATA S21 DBANGLE
DATA S12 DBANGLE
DATA S22 DBANGLE
VAR_LIST_BEGIN
-40
-39.975
-39.95
-39.925
-39.9
-39.875
-39.85
-39.825
-39.8
-39.775
-39.75
-39.725
-39.7
-39.675
-39.65
-39.625
-39.6
-39.575
-39.55
-39.525
-39.5
-39.475
-39.45
-39.425
-39.4
-39.375
-39.35
-39.325
-39.3
-39.275
-39.25
-39.225
-39.2
-39.175
-39.15
-39.125
-39.1
-39.075
-39.05
-39.025
-39
-38.975
-38.95
-38.925
-38.9
-38.875
-38.85
-38.825
-38.8
-38.775
-38.75
-38.725
-38.7
-38.675
-38.65
-38.625
-38.6
-38.575
-38.55
-38.525
-38.5
-38.475
-38.45
-38.425
-38.4
-38.375
-38.35
-38.325
-38.3
-38.275
-38.25
-38.225
-38.2
-38.175
-38.15
-38.125
-38.1
-38.075
-38.05
-38.025
-38
-37.975
-37.95
-37.925
-37.9
-37.875
-37.85
-37.825
-37.8
-37.775
-37.75
-37.725
-37.7
-37.675
-37.65
-37.625
-37.6
-37.575
-37.55
-37.525
-37.5
-37.475
-37.45
-37.425
-37.4
-37.375
-37.35
-37.325
-37.3
-37.275
-37.25
-37.225
-37.2
-37.175
-37.15
-37.125
-37.1
-37.075
-37.05
-37.025
-37
-36.975
-36.95
-36.925
-36.9
-36.875
-36.85
-36.825
-36.8
-36.775
-36.75
-36.725
-36.7
-36.675
-36.65
-36.625
-36.6
-36.575
-36.55
-36.525
-36.5
-36.475
-36.45
-36.425
-36.4
-36.375
-36.35
-36.325
-36.3
-36.275
-36.25
-36.225
-36.2
-36.175
-36.15
-36.125
-36.1
-36.075
-36.05
-36.025
-36
-35.975
-35.95
-35.925
-35.9
-35.875
-35.85
-35.825
-35.8
-35.775
-35.75
-35.725
-35.7
-35.675
-35.65
-35.625
-35.6
-35.575
-35.55
-35.525
-35.5
-35.475
-35.45
-35.425
-35.4
-35.375
-35.35
-35.325
-35.3
-35.275
-35.25
-35.225
-35.2
-35.175
-35.15
-35.125
-35.1
-35.075
-35.05
-35.025
-35
-34.975
-34.95
-34.925
-34.9
-34.875
-34.85
-34.825
-34.8
-34.775
-34.75
-34.725
-34.7
-34.675
-34.65
-34.625
-34.6
-34.575
-34.55
-34.525
-34.5
-34.475
-34.45
-34.425
-34.4
-34.375
-34.35
-34.325
-34.3
-34.275
-34.25
-34.225
-34.2
-34.175
-34.15
-34.125
-34.1
-34.075
-34.05
-34.025
-34
-33.975
-33.95
-33.925
-33.9
-33.875
-33.85
-33.825
-33.8
-33.775
-33.75
-33.725
-33.7
-33.675
-33.65
-33.625
-33.6
-33.575
-33.55
-33.525
-33.5
-33.475
-33.45
-33.425
-33.4
-33.375
-33.35
-33.325
-33.3
-33.275
-33.25
-33.225
-33.2
-33.175
-33.15
-33.125
-33.1
-33.075
-33.05
-33.025
-33
-32.975
-32.95
-32.925
-32.9
-32.875
-32.85
-32.825
-32.8
-32.775
-32.75
-32.725
-32.7
-32.675
-32.65
-32.625
-32.6
-32.575
-32.55
-32.525
-32.5
-32.475
-32.45
-32.425
-32.4
-32.375
-32.35
-32.325
-32.3
-32.275
-32.25
-32.225
-32.2
-32.175
-32.15
-32.125
-32.1
-32.075
-32.05
-32.025
-32
-31.975
-31.95
-31.925
-31.9
-31.875
-31.85
-31.825
-31.8
-31.775
-31.75
-31.725
-31.7
-31.675
-31.65
-31.625
-31.6
-31.575
-31.55
-31.525
-31.5
-31.475
-31.45
-31.425
-31.4
-31.375
-31.35
-31.325
-31.3
-31.275
-31.25
-31.225
-31.2
-31.175
-31.15
-31.125
-31.1
-31.075
-31.05
-31.025
-31
-30.975
-30.95
-30.925
-30.9
-30.875
-30.85
-30.825
-30.8
-30.775
-30.75
-30.725
-30.7
-30.675
-30.65
-30.625
-30.6
-30.575
-30.55
-30.525
-30.5
-30.475
-30.45
-30.425
-30.4
-30.375
-30.35
-30.325
-30.3
-30.275
-30.25
-30.225
-30.2
-30.175
-30.15
-30.125
-30.1
-30.075
-30.05
-30.025
-30
-29.975
-29.95
-29.925
-29.9
-29.875
-29.85
-29.825
-29.8
-29.775
-29.75
-29.725
-29.7
-29.675
-29.65
-29.625
-29.6
-29.575
-29.55
-29.525
-29.5
-29.475
-29.45
-29.425
-29.4
-29.375
-29.35
-29.325
-29.3
-29.275
-29.25
-29.225
-29.2
-29.175
-29.15
-29.125
-29.1
-29.075
-29.05
-29.025
-29
-28.975
-28.95
-28.925
-28.9
-28.875
-28.85
-28.825
-28.8
-28.775
-28.75
-28.725
-28.7
-28.675
-28.65
-28.625
-28.6
-28.575
-28.55
-28.525
-28.5
-28.475
-28.45
-28.425
-28.4
-28.375
-28.35
-28.325
-28.3
-28.275
-28.25
-28.225
-28.2
-28.175
-28.15
-28.125
-28.1
-28.075
-28.05
-28.025
-28
-27.975
-27.95
-27.925
-27.9
-27.875
-27.85
-27.825
-27.8
-27.775
-27.75
-27.725
-27.7
-27.675
-27.65
-27.625
-27.6
-27.575
-27.55
-27.525
-27.5
-27.475
-27.45
-27.425
-27.4
-27.375
-27.35
-27.325
-27.3
-27.275
-27.25
-27.225
-27.2
-27.175
-27.15
-27.125
-27.1
-27.075
-27.05
-27.025
-27
-26.975
-26.95
-26.925
-26.9
-26.875
-26.85
-26.825
-26.8
-26.775
-26.75
-26.725
-26.7
-26.675
-26.65
-26.625
-26.6
-26.575
-26.55
-26.525
-26.5
-26.475
-26.45
-26.425
-26.4
-26.375
-26.35
-26.325
-26.3
-26.275
-26.25
-26.225
-26.2
-26.175
-26.15
-26.125
-26.1
-26.075
-26.05
-26.025
-26
-25.975
-25.95
-25.925
-25.9
-25.875
-25.85
-25.825
-25.8
-25.775
-25.75
-25.725
-25.7
-25.675
-25.65
-25.625
-25.6
-25.575
-25.55
-25.525
-25.5
-25.475
-25.45
-25.425
-25.4
-25.375
-25.35
-25.325
-25.3
-25.275
-25.25
-25.225
-25.2
-25.175
-25.15
-25.125
-25.1
-25.075
-25.05
-25.025
-25
-24.975
-24.95
-24.925
-24.9
-24.875
-24.85
-24.825
-24.8
-24.775
-24.75
-24.725
-24.7
-24.675
-24.65
-24.625
-24.6
-24.575
-24.55
-24.525
-24.5
-24.475
-24.45
-24.425
-24.4
-24.375
-24.35
-24.325
-24.3
-24.275
-24.25
-24.225
-24.2
-24.175
-24.15
-24.125
-24.1
-24.075
-24.05
-24.025
-24
-23.975
-23.95
-23.925
-23.9
-23.875
-23.85
-23.825
-23.8
-23.775
-23.75
-23.725
-23.7
-23.675
-23.65
-23.625
-23.6
-23.575
-23.55
-23.525
-23.5
-23.475
-23.45
-23.425
-23.4
-23.375
-23.35
-23.325
-23.3
-23.275
-23.25
-23.225
-23.2
-23.175
-23.15
-23.125
-23.1
-23.075
-23.05
-23.025
-23
-22.975
-22.95
-22.925
-22.9
-22.875
-22.85
-22.825
-22.8
-22.775
-22.75
-22.725
-22.7
-22.675
-22.65
-22.625
-22.6
-22.575
-22.55
-22.525
-22.5
-22.475
-22.45
-22.425
-22.4
-22.375
-22.35
-22.325
-22.3
-22.275
-22.25
-22.225
-22.2
-22.175
-22.15
-22.125
-22.1
-22.075
-22.05
-22.025
-22
-21.975
-21.95
-21.925
-21.9
-21.875
-21.85
-21.825
-21.8
-21.775
-21.75
-21.725
-21.7
-21.675
-21.65
-21.625
-21.6
-21.575
-21.55
-21.525
-21.5
-21.475
-21.45
-21.425
-21.4
-21.375
-21.35
-21.325
-21.3
-21.275
-21.25
-21.225
-21.2
-21.175
-21.15
-21.125
-21.1
-21.075
-21.05
-21.025
-21
-20.975
-20.95
-20.925
-20.9
-20.875
-20.85
-20.825
-20.8
-20.775
-20.75
-20.725
-20.7
-20.675
-20.65
-20.625
-20.6
-20.575
-20.55
-20.525
-20.5
-20.475
-20.45
-20.425
-20.4
-20.375
-20.35
-20.325
-20.3
-20.275
-20.25
-20.225
-20.2
-20.175
-20.15
-20.125
-20.1
-20.075
-20.05
-20.025
-20
VAR_LIST_END
BEGIN
-15.818107,-155.83307
-14.921222,-161.18188
-15.814145,-158.02014
-14.842169,-161.68312
-15.200222,-157.47935
-14.435061,-158.3049
-15.624269,-160.04173
-15.522781,-162.32893
-15.047319,-163.32382
-14.753574,-159.67152
-14.677917,-162.41476
-15.451853,-159.42149
-14.530862,-155.05101
-14.667547,-158.30676
-15.291569,-160.2762
-15.130342,-158.88344
-15.705025,-165.17635
-14.551959,-157.86978
-15.303089,-154.12767
-13.906088,-162.86897
-14.679666,-157.41911
-15.128883,-160.01465
-15.54933,-157.57787
-15.245186,-156.19252
-14.933535,-162.55606
-15.493779,-156.54718
-15.107236,-158.70862
-15.549625,-156.47968
-15.31328,-163.47807
-14.464345,-159.11459
-15.403433,-164.28561
-14.733575,-159.54477
-15.09655,-162.02588
-15.107642,-160.65623
-14.961541,-154.52744
-14.721135,-158.17683
-15.080986,-156.69356
-14.757691,-159.55965
-15.228536,-157.79375
-16.141945,-159.54478
-15.305428,-158.56062
-15.136302,-157.6618
-14.506805,-159.59859
-15.12521,-161.42937
-15.630661,-151.75742
-15.121278,-161.30663
-14.889416,-158.78963
-15.727502,-160.42174
-15.493817,-167.2289
-15.459529,-157.58847
-15.644909,-160.46936
-15.562156,-158.70609
-14.990186,-156.29097
-15.155474,-163.85339
-15.927203,-159.46358
-15.244576,-158.00526
-15.147128,-156.09804
-14.826474,-158.76566
-14.843656,-162.17029
-14.221391,-162.17014
-14.886749,-160.36418
-14.85712,-161.80174
-15.156367,-159.51265
-14.927844,-165.33398
-15.772944,-157.73528
-14.893693,-160.39192
-15.240845,-158.54224
-15.055929,-160.55707
-15.380564,-161.34691
-14.709923,-161.66943
-15.194688,-161.40512
-15.379579,-159.02176
-15.804987,-160.47314
-14.460881,-162.15067
-15.28709,-160.16994
-14.905262,-159.06108
-14.839835,-159.29021
-14.783929,-160.01701
-15.137439,-158.92654
-14.944175,-159.52014
-15.470782,-159.30165
-15.395252,-159.39705
-14.79246,-158.45538
-15.024587,-160.75665
-15.100478,-158.66611
-14.690602,-157.42261
-14.724385,-163.8625
-15.303256,-164.1696
-15.058341,-157.47391
-15.478597,-162.66731
-14.912539,-157.02568
-15.36594,-155.94096
-15.83195,-158.48676
-15.474422,-154.70232
-14.84211,-158.36644
-14.905549,-152.97107
-15.336872,-156.51079
-14.841352,-158.12575
-15.905402,-162.81569
-14.558664,-159.20618
-14.988917,-153.77753
-16.161646,-156.62553
-15.274134,-160.29198
-15.245049,-157.43166
-14.500949,-157.98593
-14.81723,-156.27573
-15.657857,-161.33867
-14.875315,-157.8372
-15.323471,-161.15623
-14.628562,-160.8387
-15.153872,-154.9388
-14.581331,-160.10728
-14.759683,-159.54517
-14.825336,-159.25966
-15.317307,-163.94038
-15.113483,-154.82526
-15.558985,-158.1234
-15.147187,-156.03926
-14.346077,-165.59389
-15.073676,-158.07343
-15.313126,-157.71834
-14.927057,-156.97314
-15.401348,-156.69006
-15.089009,-155.90967
-15.277513,-161.01485
-15.216833,-160.89424
-15.275917,-155.38535
-15.471136,-157.50963
-15.778588,-158.88469
-14.41977,-160.56583
-14.945236,-158.57967
-14.539011,-159.20398
-15.036911,-161.36313
-14.971526,-159.25331
-15.561543,-160.61848
-14.951311,-158.54471
-15.32239,-161.44507
-14.82079,-163.94731
-14.876755,-158.51735
-15.783265,-158.19435
-15.175807,-158.2193
-15.080155,-158.64436
-15.616358,-163.88734
-15.089618,-157.9277
-14.787587,-158.62526
-14.976948,-161.93481
-15.005795,-155.78185
-15.034002,-157.03648
-14.807386,-159.32921
-15.479895,-158.8096
-15.473801,-156.73549
-14.448039,-160.98691
-15.459583,-161.71773
-14.624345,-159.96706
-15.500346,-158.13618
-14.997477,-159.73869
-15.495232,-155.80034
-15.087729,-158.23471
-15.144169,-157.15616
-14.697534,-155.81117
-15.525151,-159.03006
-15.232257,-162.99341
-14.933534,-161.36789
-14.687367,-160.85576
-15.949838,-158.55492
-14.874557,-159.44926
-15.094369,-155.96674
-14.997416,-160.23947
-15.321802,-157.77121
-15.422341,-157.52371
-15.204677,-155.29146
-14.960773,-160.69147
-14.62163,-157.23779
-15.174905,-160.93687
-15.179628,-157.48296
-15.471491,-158.45396
-15.21067,-159.11948
-15.653403,-157.71129
-15.216465,-157.07697
-15.319398,-157.42892
-15.119788,-162.89679
-15.158955,-163.2323
-15.69604,-155.43396
-15.569383,-162.22813
-15.193746,-157.73174
-14.982571,-159.17442
-15.088724,-161.22395
-14.586005,-157.18388
-15.085597,-159.82706
-15.165928,-159.29156
-14.526293,-161.22089
-14.908542,-159.20589
-15.723577,-157.80435
-15.763474,-157.62692
-14.657518,-159.24101
-15.73789,-161.00415
-14.894881,-155.49573
-14.679672,-157.34682
-14.790671,-165.33322
-14.919019,-159.2083
-15.871566,-157.36694
-15.292819,-159.86256
-15.192682,-158.1114
-14.707927,-156.97929
-14.949828,-159.5537
-14.77272,-154.69751
-14.824619,-160.72905
-15.671171,-156.90125
-15.144269,-158.73174
-14.926695,-162.32603
-15.773209,-160.18752
-15.573091,-159.55154
-14.696849,-157.53705
-14.975115,-156.72066
-14.886803,-158.37651
-14.56256,-158.93146
-14.704983,-161.59082
-14.967405,-160.25185
-14.972688,-161.47476
-14.688642,-158.50917
-14.820098,-160.83188
-15.241085,-157.321
-14.71025,-157.30052
-14.98665,-161.03282
-15.274549,-160.43298
-14.820006,-158.91208
-15.304328,-157.68939
-14.659589,-158.24474
-14.909008,-157.31436
-15.209779,-156.63896
-15.077519,-156.28534
-15.419529,-158.87277
-14.723975,-158.44174
-15.398437,-159.48836
-15.601933,-159.03796
-15.242636,-157.9292
-15.40465,-159.69151
-15.224625,-161.86906
-15.168153,-158.98364
-14.533523,-159.87154
-14.73277,-162.38348
-15.109281,-155.8349
-14.458358,-160.30186
-15.29318,-158.20366
-15.382947,-159.11615
-14.927732,-158.30389
-15.66419,-159.95892
-14.935607,-158.95406
-14.928043,-158.02266
-14.839678,-158.76489
-15.131559,-156.36108
-14.994515,-156.14093
-14.733161,-157.70316
-14.938906,-160.49625
-14.968279,-158.91911
-14.672336,-158.92223
-14.983078,-161.01135
-14.811618,-159.85699
-15.161353,-160.79721
-14.785789,-158.89232
-15.446745,-162.01485
-14.919906,-158.58197
-15.144897,-155.65436
-15.366884,-159.56479
-14.834455,-159.12442
-14.939842,-159.79005
-15.440841,-160.08757
-15.40249,-153.79784
-14.975126,-159.32594
-14.903749,-159.54677
-14.81556,-157.15341
-14.951102,-159.21826
-15.08588,-156.23439
-15.132555,-159.32446
-15.176156,-159.59952
-15.064628,-159.18384
-14.624304,-161.41061
-14.882073,-162.32179
-15.365413,-158.37296
-14.537892,-157.58705
-15.351295,-160.96306
-15.029958,-158.69571
-14.708185,-159.36136
-15.153538,-157.79074
-14.695034,-159.98589
-15.383752,-157.07466
-15.179495,-160.55894
-14.863455,-155.69507
-15.348849,-157.82338
-14.841153,-159.11978
-14.756874,-159.48038
-15.46467,-159.06049
-14.897339,-157.15678
-15.364399,-157.91708
-14.789361,-158.10059
-15.130886,-156.54495
-14.867762,-160.82979
-15.293084,-159.25742
-14.66382,-160.95753
-15.071606,-160.06616
-15.399262,-161.71609
-15.06727,-157.95671
-15.254619,-157.13261
-15.309684,-158.66754
-14.921702,-157.93248
-15.089864,-158.05289
-14.889807,-158.30244
-14.997257,-160.42049
-15.31707,-158.21324
-15.138606,-158.51273
-14.94136,-158.06392
-15.417347,-158.7345
-14.829246,-159.92763
-14.780368,-161.77142
-15.14904,-158.48477
-14.932523,-161.02362
-15.178855,-159.36142
-14.855803,-159.32591
-14.997294,-161.22559
-14.755195,-157.97217
-14.846302,-156.80246
-15.210817,-160.48874
-14.730707,-161.94098
-15.264259,-158.93156
-15.312954,-159.82118
-15.093331,-161.26268
-14.826111,-160.66383
-15.188621,-162.69151
-15.011295,-156.62256
-14.950541,-161.21475
-15.31004,-160.38763
-15.180152,-161.91953
-14.698488,-157.11772
-14.877522,-159.84778
-15.188157,-159.54567
-15.069436,-160.99977
-15.03798,-159.21996
-15.213059,-157.5453
-14.90884,-158.89052
-14.809281,-159.26102
-15.289304,-158.06799
-15.144527,-161.3006
-14.925323,-157.94969
-15.052415,-158.01825
-15.126327,-157.9091
-14.822453,-157.43399
-14.940293,-159.16296
-15.249414,-156.99619
-15.263443,-159.85033
-15.158814,-157.68893
-15.023939,-159.43718
-15.316706,-159.1879
-15.180533,-157.41833
-15.390207,-160.52165
-15.38302,-156.67635
-15.113345,-159.23061
-15.074318,-158.89777
-15.355457,-160.53816
-15.033463,-159.74731
-14.986938,-160.13786
-14.642255,-159.06645
-14.990571,-160.90732
-14.808619,-158.25916
-15.274487,-156.99023
-15.145829,-159.32892
-14.938783,-160.3576
-14.754187,-159.371
-15.04102,-158.53899
-15.042693,-159.29201
-15.354939,-159.52524
-15.395128,-159.01111
-15.058187,-158.65666
-14.940011,-158.88651
-15.218142,-160.74554
-15.092332,-161.44946
-15.002592,-158.67329
-15.241779,-160.60327
-15.320485,-159.39322
-15.150572,-160.48306
-15.319108,-158.98915
-14.960879,-159.97113
-14.774812,-158.49406
-15.32637,-158.20715
-15.384038,-160.10048
-15.15026,-159.87509
-15.260822,-158.32759
-15.299255,-159.29379
-14.955543,-157.18489
-15.198017,-161.83002
-15.092323,-160.35371
-15.260464,-159.83275
-15.411917,-159.35095
-14.47347,-161.32538
-15.154205,-159.40645
-14.913835,-160.65707
-15.342716,-158.93227
-14.982828,-156.77167
-15.111513,-158.31142
-15.222644,-159.94838
-15.271016,-158.28612
-15.060121,-157.75552
-15.188275,-157.74852
-15.119493,-159.56563
-15.218483,-156.59267
-15.381266,-160.97977
-15.010242,-158.35811
-15.218125,-157.63234
-15.163132,-159.66887
-15.138983,-161.05949
-15.011604,-158.42409
-14.897113,-158.48361
-15.132583,-159.04247
-15.098616,-158.63118
-14.88496,-159.94749
-15.070617,-159.14157
-15.033298,-158.85419
-15.179865,-160.82907
-14.88229,-160.56653
-15.369488,-159.32491
-15.202525,-159.24382
-15.071816,-158.60675
-15.054317,-160.10085
-15.081588,-159.54173
-15.158507,-159.08926
-15.221433,-158.9279
-14.884241,-157.8056
-14.908004,-158.71346
-15.125087,-158.53911
-14.859413,-158.97729
-15.365097,-158.03557
-15.087683,-158.49573
-14.984935,-161.54697
-15.141931,-158.49959
-15.206018,-159.15579
-15.156981,-156.2021
-15.117281,-158.10574
-15.109822,-158.23257
-15.007277,-159.24152
-15.190463,-159.2583
-15.112726,-157.15552
-15.346134,-158.75282
-14.920249,-158.6346
-14.918394,-157.69038
-15.192946,-156.90657
-14.968336,-158.911
-15.184209,-158.80287
-15.19355,-159.63176
-15.248235,-159.40378
-14.965432,-159.43971
-15.040112,-159.28783
-14.762516,-160.83472
-14.957551,-157.47766
-15.232314,-158.52957
-15.139341,-159.43161
-14.763503,-158.6217
-14.984538,-158.67557
-15.04588,-158.87173
-15.06086,-157.45212
-14.889087,-159.6795
-15.07407,-159.56319
-15.024357,-159.06425
-15.044794,-158.07368
-15.007737,-159.89706
-14.971561,-160.29149
-15.103266,-158.86452
-15.145126,-158.20135
-15.156016,-158.18323
-15.069742,-158.73274
-15.07677,-159.74696
-15.120536,-158.29031
-15.08277,-159.32674
-15.14795,-157.65594
-14.993042,-158.59993
-14.854704,-158.59805
-15.089967,-159.16969
-15.048081,-160.10033
-15.390927,-159.53825
-15.095771,-157.54773
-14.941442,-158.49925
-15.176783,-159.0601
-15.082397,-157.30371
-15.20846,-159.08205
-15.226605,-159.27811
-15.173059,-159.16061
-15.09858,-157.99341
-15.022191,-158.2213
-15.206642,-157.5345
-15.10587,-158.78461
-14.736415,-157.72319
-15.165236,-158.22472
-15.422187,-159.15778
-15.157863,-158.62604
-15.084589,-159.76328
-14.847971,-159.61273
-14.943861,-158.95419
-15.157959,-159.4081
-15.038951,-157.93056
-14.831194,-158.29988
-15.100692,-157.92693
-15.130832,-157.55533
-15.042535,-158.83199
-15.095532,-158.86707
-14.797006,-157.60495
-15.233579,-158.98735
-14.906278,-159.92831
-14.952449,-160.45152
-15.05413,-159.35353
-15.200427,-159.42871
-15.066702,-159.431
-15.162118,-161.05045
-15.04036,-157.34818
-15.082829,-157.70854
-14.963398,-159.14185
-15.260512,-158.99469
-14.884891,-159.57813
-15.156094,-160.3026
-15.197254,-159.07091
-15.222781,-158.86575
-15.173897,-160.83711
-14.983042,-158.55855
-15.219601,-159.54202
-14.765601,-158.12904
-15.165577,-159.8432
-15.088657,-159.46829
-15.015319,-158.57367
-15.044353,-158.55072
-15.165651,-159.6566
-15.300431,-158.4561
-15.236229,-159.70787
-15.034945,-158.42065
-15.013834,-158.25206
-15.099816,-158.2337
-15.261954,-158.94536
-15.000685,-159.18658
-15.055308,-158.77243
-15.147198,-158.88718
-15.071065,-158.91235
-15.066411,-159.13336
-15.170443,-158.79549
-14.948093,-157.57242
-15.087437,-159.40681
-14.915924,-159.1125
-15.107998,-158.81483
-15.257373,-158.0338
-15.225826,-159.11253
-14.962078,-159.49303
-14.978825,-160.16101
-15.02721,-158.05238
-15.148694,-159.57884
-14.853129,-158.95224
-15.008376,-157.11705
-15.05925,-158.2164
-15.059155,-158.58571
-15.219127,-159.18747
-15.221054,-158.57297
-14.949187,-159.46701
-14.927581,-158.53983
-14.806152,-159.40526
-15.194123,-159.2226
-14.953975,-159.00763
-15.227629,-159.19704
-15.290553,-159.83377
-14.98726,-157.4312
-15.102592,-159.11456
-15.120144,-158.28287
-15.056565,-159.46625
-15.195694,-158.58789
-14.980613,-159.28647
-15.092601,-158.35602
-15.18035,-159.75073
-15.103689,-159.0672
-15.015907,-159.39241
-14.99439,-159.95061
-15.256484,-159.03517
-15.153463,-159.75871
