CITIFILE A.01.01
!Agilent Technologies,N5230C,MY48100142,A.08.04.10
!Agilent N5230C: A.08.04.10
!Format: LogMag/Angle
!Date: Wednesday, January 15, 2020 14:41:21
NAME CH1_DATA
VAR Power MAG 801
DATA S11 DBANGLE
DATA S21 DBANGLE
DATA S12 DBANGLE
DATA S22 DBANGLE
VAR_LIST_BEGIN
-40
-39.975
-39.95
-39.925
-39.9
-39.875
-39.85
-39.825
-39.8
-39.775
-39.75
-39.725
-39.7
-39.675
-39.65
-39.625
-39.6
-39.575
-39.55
-39.525
-39.5
-39.475
-39.45
-39.425
-39.4
-39.375
-39.35
-39.325
-39.3
-39.275
-39.25
-39.225
-39.2
-39.175
-39.15
-39.125
-39.1
-39.075
-39.05
-39.025
-39
-38.975
-38.95
-38.925
-38.9
-38.875
-38.85
-38.825
-38.8
-38.775
-38.75
-38.725
-38.7
-38.675
-38.65
-38.625
-38.6
-38.575
-38.55
-38.525
-38.5
-38.475
-38.45
-38.425
-38.4
-38.375
-38.35
-38.325
-38.3
-38.275
-38.25
-38.225
-38.2
-38.175
-38.15
-38.125
-38.1
-38.075
-38.05
-38.025
-38
-37.975
-37.95
-37.925
-37.9
-37.875
-37.85
-37.825
-37.8
-37.775
-37.75
-37.725
-37.7
-37.675
-37.65
-37.625
-37.6
-37.575
-37.55
-37.525
-37.5
-37.475
-37.45
-37.425
-37.4
-37.375
-37.35
-37.325
-37.3
-37.275
-37.25
-37.225
-37.2
-37.175
-37.15
-37.125
-37.1
-37.075
-37.05
-37.025
-37
-36.975
-36.95
-36.925
-36.9
-36.875
-36.85
-36.825
-36.8
-36.775
-36.75
-36.725
-36.7
-36.675
-36.65
-36.625
-36.6
-36.575
-36.55
-36.525
-36.5
-36.475
-36.45
-36.425
-36.4
-36.375
-36.35
-36.325
-36.3
-36.275
-36.25
-36.225
-36.2
-36.175
-36.15
-36.125
-36.1
-36.075
-36.05
-36.025
-36
-35.975
-35.95
-35.925
-35.9
-35.875
-35.85
-35.825
-35.8
-35.775
-35.75
-35.725
-35.7
-35.675
-35.65
-35.625
-35.6
-35.575
-35.55
-35.525
-35.5
-35.475
-35.45
-35.425
-35.4
-35.375
-35.35
-35.325
-35.3
-35.275
-35.25
-35.225
-35.2
-35.175
-35.15
-35.125
-35.1
-35.075
-35.05
-35.025
-35
-34.975
-34.95
-34.925
-34.9
-34.875
-34.85
-34.825
-34.8
-34.775
-34.75
-34.725
-34.7
-34.675
-34.65
-34.625
-34.6
-34.575
-34.55
-34.525
-34.5
-34.475
-34.45
-34.425
-34.4
-34.375
-34.35
-34.325
-34.3
-34.275
-34.25
-34.225
-34.2
-34.175
-34.15
-34.125
-34.1
-34.075
-34.05
-34.025
-34
-33.975
-33.95
-33.925
-33.9
-33.875
-33.85
-33.825
-33.8
-33.775
-33.75
-33.725
-33.7
-33.675
-33.65
-33.625
-33.6
-33.575
-33.55
-33.525
-33.5
-33.475
-33.45
-33.425
-33.4
-33.375
-33.35
-33.325
-33.3
-33.275
-33.25
-33.225
-33.2
-33.175
-33.15
-33.125
-33.1
-33.075
-33.05
-33.025
-33
-32.975
-32.95
-32.925
-32.9
-32.875
-32.85
-32.825
-32.8
-32.775
-32.75
-32.725
-32.7
-32.675
-32.65
-32.625
-32.6
-32.575
-32.55
-32.525
-32.5
-32.475
-32.45
-32.425
-32.4
-32.375
-32.35
-32.325
-32.3
-32.275
-32.25
-32.225
-32.2
-32.175
-32.15
-32.125
-32.1
-32.075
-32.05
-32.025
-32
-31.975
-31.95
-31.925
-31.9
-31.875
-31.85
-31.825
-31.8
-31.775
-31.75
-31.725
-31.7
-31.675
-31.65
-31.625
-31.6
-31.575
-31.55
-31.525
-31.5
-31.475
-31.45
-31.425
-31.4
-31.375
-31.35
-31.325
-31.3
-31.275
-31.25
-31.225
-31.2
-31.175
-31.15
-31.125
-31.1
-31.075
-31.05
-31.025
-31
-30.975
-30.95
-30.925
-30.9
-30.875
-30.85
-30.825
-30.8
-30.775
-30.75
-30.725
-30.7
-30.675
-30.65
-30.625
-30.6
-30.575
-30.55
-30.525
-30.5
-30.475
-30.45
-30.425
-30.4
-30.375
-30.35
-30.325
-30.3
-30.275
-30.25
-30.225
-30.2
-30.175
-30.15
-30.125
-30.1
-30.075
-30.05
-30.025
-30
-29.975
-29.95
-29.925
-29.9
-29.875
-29.85
-29.825
-29.8
-29.775
-29.75
-29.725
-29.7
-29.675
-29.65
-29.625
-29.6
-29.575
-29.55
-29.525
-29.5
-29.475
-29.45
-29.425
-29.4
-29.375
-29.35
-29.325
-29.3
-29.275
-29.25
-29.225
-29.2
-29.175
-29.15
-29.125
-29.1
-29.075
-29.05
-29.025
-29
-28.975
-28.95
-28.925
-28.9
-28.875
-28.85
-28.825
-28.8
-28.775
-28.75
-28.725
-28.7
-28.675
-28.65
-28.625
-28.6
-28.575
-28.55
-28.525
-28.5
-28.475
-28.45
-28.425
-28.4
-28.375
-28.35
-28.325
-28.3
-28.275
-28.25
-28.225
-28.2
-28.175
-28.15
-28.125
-28.1
-28.075
-28.05
-28.025
-28
-27.975
-27.95
-27.925
-27.9
-27.875
-27.85
-27.825
-27.8
-27.775
-27.75
-27.725
-27.7
-27.675
-27.65
-27.625
-27.6
-27.575
-27.55
-27.525
-27.5
-27.475
-27.45
-27.425
-27.4
-27.375
-27.35
-27.325
-27.3
-27.275
-27.25
-27.225
-27.2
-27.175
-27.15
-27.125
-27.1
-27.075
-27.05
-27.025
-27
-26.975
-26.95
-26.925
-26.9
-26.875
-26.85
-26.825
-26.8
-26.775
-26.75
-26.725
-26.7
-26.675
-26.65
-26.625
-26.6
-26.575
-26.55
-26.525
-26.5
-26.475
-26.45
-26.425
-26.4
-26.375
-26.35
-26.325
-26.3
-26.275
-26.25
-26.225
-26.2
-26.175
-26.15
-26.125
-26.1
-26.075
-26.05
-26.025
-26
-25.975
-25.95
-25.925
-25.9
-25.875
-25.85
-25.825
-25.8
-25.775
-25.75
-25.725
-25.7
-25.675
-25.65
-25.625
-25.6
-25.575
-25.55
-25.525
-25.5
-25.475
-25.45
-25.425
-25.4
-25.375
-25.35
-25.325
-25.3
-25.275
-25.25
-25.225
-25.2
-25.175
-25.15
-25.125
-25.1
-25.075
-25.05
-25.025
-25
-24.975
-24.95
-24.925
-24.9
-24.875
-24.85
-24.825
-24.8
-24.775
-24.75
-24.725
-24.7
-24.675
-24.65
-24.625
-24.6
-24.575
-24.55
-24.525
-24.5
-24.475
-24.45
-24.425
-24.4
-24.375
-24.35
-24.325
-24.3
-24.275
-24.25
-24.225
-24.2
-24.175
-24.15
-24.125
-24.1
-24.075
-24.05
-24.025
-24
-23.975
-23.95
-23.925
-23.9
-23.875
-23.85
-23.825
-23.8
-23.775
-23.75
-23.725
-23.7
-23.675
-23.65
-23.625
-23.6
-23.575
-23.55
-23.525
-23.5
-23.475
-23.45
-23.425
-23.4
-23.375
-23.35
-23.325
-23.3
-23.275
-23.25
-23.225
-23.2
-23.175
-23.15
-23.125
-23.1
-23.075
-23.05
-23.025
-23
-22.975
-22.95
-22.925
-22.9
-22.875
-22.85
-22.825
-22.8
-22.775
-22.75
-22.725
-22.7
-22.675
-22.65
-22.625
-22.6
-22.575
-22.55
-22.525
-22.5
-22.475
-22.45
-22.425
-22.4
-22.375
-22.35
-22.325
-22.3
-22.275
-22.25
-22.225
-22.2
-22.175
-22.15
-22.125
-22.1
-22.075
-22.05
-22.025
-22
-21.975
-21.95
-21.925
-21.9
-21.875
-21.85
-21.825
-21.8
-21.775
-21.75
-21.725
-21.7
-21.675
-21.65
-21.625
-21.6
-21.575
-21.55
-21.525
-21.5
-21.475
-21.45
-21.425
-21.4
-21.375
-21.35
-21.325
-21.3
-21.275
-21.25
-21.225
-21.2
-21.175
-21.15
-21.125
-21.1
-21.075
-21.05
-21.025
-21
-20.975
-20.95
-20.925
-20.9
-20.875
-20.85
-20.825
-20.8
-20.775
-20.75
-20.725
-20.7
-20.675
-20.65
-20.625
-20.6
-20.575
-20.55
-20.525
-20.5
-20.475
-20.45
-20.425
-20.4
-20.375
-20.35
-20.325
-20.3
-20.275
-20.25
-20.225
-20.2
-20.175
-20.15
-20.125
-20.1
-20.075
-20.05
-20.025
-20
VAR_LIST_END
BEGIN
-13.178258,-168.81355
-13.239096,-165.22997
-13.813844,-173.84293
-13.411576,-178.70235
-12.173012,-170.672
-13.988926,-178.48186
-12.792248,-173.4631
-13.470177,-161.80542
-13.027612,-162.65012
-14.058311,-166.69267
-12.776753,-165.04185
-14.353401,-170.85236
-13.31568,-169.74921
-13.938833,-163.03662
-12.887319,-163.46263
-13.445128,-166.96077
-13.795696,-172.05316
-12.414241,-160.33897
-13.213896,-169.85139
-14.971377,-162.9352
-13.102793,-161.7299
-14.063007,-162.28304
-15.524389,-161.01953
-12.821586,-163.63326
-13.536665,-165.88873
-14.663802,-168.31375
-14.03953,-169.83311
-13.783804,-167.99881
-12.606035,-166.98245
-13.340548,-155.90204
-14.333981,-165.02254
-12.844445,-157.54878
-12.674524,-176.61151
-13.144437,-165.86107
-14.032186,-171.45886
-12.408447,-158.71346
-14.236323,-154.73093
-13.013182,-166.80531
-13.549571,-174.40993
-14.044745,-167.60744
-13.615746,-161.2012
-14.592325,-162.48433
-13.43204,-172.48999
-14.317374,-164.53525
-13.114264,-166.15456
-13.768982,-162.62848
-13.296872,-165.57568
-13.905884,-157.28662
-14.675355,-173.07198
-12.705249,-163.71149
-13.826539,-170.83832
-14.905619,-169.42879
-13.920065,-172.4157
-14.594009,-163.10394
-13.221751,-170.14908
-13.230447,-170.43781
-14.61427,-166.90994
-13.705234,-172.35065
-13.988819,-169.18864
-14.785845,-171.36391
-13.781359,-163.77916
-14.872355,-167.52122
-13.673481,-174.44931
-13.605327,-170.36591
-14.128459,-173.93594
-14.296907,-165.47102
-13.855986,-171.35609
-14.47611,-170.36401
-13.692652,-166.14026
-14.193466,-169.77429
-14.652528,-169.27202
-13.69935,-158.24706
-13.765251,-167.80621
-13.549546,-162.36658
-13.915728,-165.63879
-14.155875,-167.63947
-14.504073,-168.69911
-13.908027,-169.73647
-15.020443,-163.30124
-12.213871,-174.77402
-13.913078,-172.91234
-13.378195,-166.96426
-13.856682,-170.04314
-13.705461,-171.67299
-13.308125,-166.12114
-13.565725,-175.66756
-13.021429,-167.47385
-14.956225,-163.87527
-14.120443,-168.3035
-13.232784,-169.13422
-14.01132,-159.34557
-14.895673,-171.86368
-14.820326,-166.17615
-13.574963,-166.08624
-12.760213,-160.93332
-12.72463,-164.94167
-14.414697,-174.08362
-13.08895,-163.35767
-13.965708,-175.19345
-15.177873,-174.58682
-14.668948,-171.02824
-13.79832,-158.83908
-13.917258,-167.77586
-13.364018,-170.02228
-13.851388,-170.19299
-13.887678,-168.35947
-15.130196,-165.33453
-13.647941,-178.99979
-15.131431,-175.32506
-14.429949,-164.99077
-13.301548,-172.79976
-15.309165,-166.92744
-13.36733,-169.106
-12.84239,-173.85806
-14.521195,-163.24355
-14.818158,-171.50215
-13.482676,-172.19221
-13.852188,-162.56915
-13.056924,-168.63347
-13.609602,-167.77448
-14.890182,-172.54128
-14.976309,-166.42093
-13.371953,-168.05852
-14.239253,-165.22925
-13.832731,-165.41263
-14.864415,-165.72871
-15.223481,-168.2355
-13.925404,-172.31062
-15.049108,-169.30278
-14.479997,-166.60146
-12.970263,-167.81169
-13.358448,-175.93974
-13.833407,-170.98618
-13.516083,-166.46245
-13.613132,-168.45915
-14.467983,-170.96753
-14.284258,-168.61952
-14.082205,-177.04817
-13.336923,-172.53677
-13.949507,-169.1938
-12.896649,-174.38916
-15.67218,-167.61713
-12.997806,-168.34813
-15.089895,-167.34999
-13.667695,-168.88312
-13.997089,-168.76755
-13.182497,-169.29062
-14.234131,-169.66008
-13.259096,-167.74512
-14.751684,-166.067
-15.144735,-166.87199
-13.32944,-169.11201
-13.102147,-162.86464
-15.680497,-178.95566
-13.037252,-167.48
-13.323463,-166.05692
-14.213202,-165.51102
-14.063544,-167.4045
-13.607185,-170.05688
-13.343659,-160.76817
-14.612749,-172.37392
-13.759074,-170.87465
-14.416943,-163.56439
-13.996476,-173.03932
-13.86889,-176.08733
-14.883468,-163.33389
-13.443398,-166.81377
-13.90004,-170.32874
-13.86667,-171.12086
-14.094097,-168.1609
-14.098834,-169.00946
-13.830956,-172.76486
-14.355762,-165.90332
-14.696236,-165.96913
-13.377869,-170.28847
-13.358437,-165.47356
-13.108421,-162.56007
-13.24301,-168.73915
-13.090614,-166.30414
-13.265284,-164.68748
-14.447678,-167.3755
-12.964178,-172.42203
-13.573732,-166.56029
-14.481678,-173.35588
-13.963183,-169.27654
-13.663639,-171.3698
-14.45929,-170.25958
-13.727383,-163.75861
-14.574129,-172.51126
-13.815479,-169.59189
-13.080227,-163.37599
-13.851322,-169.50447
-14.047439,-164.49902
-13.965915,-168.64812
-14.471075,-167.41039
-13.421674,-167.35191
-13.700943,-164.28282
-14.448867,-167.45384
-13.242676,-170.05492
-14.948011,-168.65211
-13.916028,-175.86162
-13.603359,-168.46066
-13.787869,-164.19653
-13.980442,-166.59123
-14.982718,-167.84714
-14.375117,-160.20357
-14.373819,-172.98746
-13.024168,-161.4897
-14.311212,-171.19742
-13.072097,-162.93826
-13.596116,-172.59137
-14.052726,-167.73375
-13.93657,-167.31068
-13.837639,-163.1438
-14.170532,-161.41177
-14.263098,-174.89279
-14.522856,-159.20576
-13.978139,-167.6488
-13.474298,-166.25037
-14.18635,-170.95781
-13.682589,-166.06883
-13.669589,-167.9254
-13.375822,-173.26233
-13.962142,-162.63556
-12.838863,-162.99667
-14.207589,-168.24098
-12.72445,-167.43265
-13.380773,-172.2256
-13.323912,-170.18761
-12.391085,-164.25623
-13.437816,-168.15413
-14.452896,-164.53596
-14.535466,-168.10187
-14.217673,-168.06937
-14.322437,-163.50166
-14.19249,-168.40169
-14.543788,-167.76959
-13.477738,-165.71635
-14.521995,-169.45088
-14.501146,-172.37036
-13.498525,-168.58592
-13.858994,-168.52512
-13.551826,-162.41658
-13.772573,-165.89529
-14.014955,-163.26759
-13.665915,-167.11661
-13.707949,-169.67387
-13.254881,-175.08293
-14.444535,-165.98595
-14.311271,-166.30617
-13.708084,-166.26309
-14.36936,-172.39796
-13.994546,-167.50571
-13.0132,-168.14912
-14.88199,-171.50945
-13.782285,-172.91771
-13.634856,-165.74126
-13.356834,-168.07079
-12.774934,-166.96779
-13.426437,-164.69318
-15.070434,-171.37057
-13.953996,-168.62791
-14.672446,-161.53935
-13.998044,-159.70062
-13.730989,-163.31964
-14.316806,-168.33083
-14.061291,-171.26245
-14.360553,-168.9673
-13.603594,-169.47778
-13.279247,-166.79253
-13.812959,-165.6032
-14.344954,-170.64214
-14.072023,-167.17436
-13.83094,-169.25015
-13.674839,-171.81682
-13.297925,-171.30231
-14.33992,-167.4612
-14.048731,-167.35835
-13.749268,-163.09502
-13.798622,-165.12923
-13.123181,-166.73169
-14.401484,-167.42413
-13.711641,-165.15588
-14.008274,-172.7113
-13.927929,-168.55487
-13.666204,-166.82196
-14.0005,-167.8443
-13.786016,-169.09776
-13.518969,-167.5504
-13.772166,-166.99583
-14.349955,-169.93884
-14.347342,-166.23215
-13.90055,-167.86607
-13.609229,-166.31313
-13.383141,-169.24774
-13.417103,-169.25848
-13.758101,-167.55394
-13.738413,-170.75038
-14.463866,-169.71078
-14.362902,-166.35721
-14.222602,-168.50558
-13.861567,-165.47997
-14.61719,-170.08296
-13.653241,-165.83403
-13.243334,-165.82277
-14.031088,-166.09926
-14.071936,-169.28444
-14.41123,-169.07353
-13.796083,-168.99689
-14.160254,-167.63261
-13.859364,-167.79643
-14.095166,-169.72835
-13.897724,-162.0264
-14.432242,-164.33754
-13.824263,-165.33284
-14.291523,-167.16785
-13.695377,-172.06029
-14.090514,-164.55344
-13.363635,-163.58482
-14.516236,-171.82387
-14.190557,-164.35243
-13.46742,-168.354
-13.351249,-165.44131
-13.81635,-164.34787
-13.907536,-167.07433
-14.368983,-171.03426
-13.546844,-172.92136
-13.952827,-166.1713
-13.506182,-172.1954
-14.00352,-164.75278
-13.514229,-165.24397
-13.774204,-167.9193
-13.786587,-163.47229
-13.892251,-168.35156
-13.991066,-163.15933
-13.720039,-169.94289
-13.590173,-165.58946
-14.197483,-165.14693
-13.308778,-169.85097
-13.491,-173.31215
-14.137879,-166.75728
-14.284062,-168.07253
-14.058885,-169.28658
-13.81568,-170.88025
-13.896714,-168.44473
-13.134721,-163.92944
-13.878325,-163.61195
-13.601639,-167.12459
-15.008263,-164.67418
-14.370527,-167.53786
-13.790847,-169.98843
-13.476009,-167.26282
-14.251763,-166.20163
-14.042422,-168.89374
-13.627671,-166.2885
-13.723652,-167.71922
-14.151349,-170.67412
-13.948265,-165.63739
-14.242204,-167.98105
-13.633652,-165.16043
-13.765485,-169.70805
-13.946278,-169.07675
-13.581933,-163.8389
-13.321648,-168.53998
-13.380815,-167.62794
-14.055239,-167.71017
-13.784251,-169.87796
-13.663712,-163.51503
-14.333663,-167.69127
-13.515751,-167.1761
-13.767541,-170.36736
-13.896701,-169.05066
-13.822945,-164.41034
-13.623855,-169.12274
-13.987625,-167.43384
-13.934201,-168.37613
-14.121017,-168.90756
-14.426168,-167.27324
-13.479459,-166.9368
-13.630116,-167.58083
-14.161451,-168.32733
-13.589901,-163.25426
-13.740745,-165.7468
-14.381191,-167.69659
-13.376611,-167.39369
-13.964167,-167.4301
-13.804553,-167.88692
-14.255634,-169.01791
-14.271192,-166.8875
-13.548797,-167.32617
-13.307804,-167.31375
-14.04988,-172.08118
-13.768665,-170.44862
-13.652579,-167.11395
-13.604748,-169.65242
-14.713556,-169.18005
-13.954516,-167.63759
-13.924542,-168.08095
-13.534656,-167.4969
-13.739259,-168.53394
-13.581336,-165.44823
-13.408057,-168.14525
-13.757885,-166.12823
-13.751122,-162.83623
-14.463889,-165.85132
-13.448714,-164.5107
-14.226338,-167.95906
-14.033315,-168.70831
-13.960042,-167.43895
-14.297399,-167.79306
-13.755495,-166.22754
-13.932961,-169.52164
-13.97106,-163.82536
-13.865447,-164.40199
-14.075047,-169.81413
-14.52742,-168.25192
-14.159291,-167.02034
-13.595534,-166.6586
-14.165538,-169.66249
-13.371313,-167.08908
-13.837773,-166.16316
-13.420171,-165.64932
-13.405079,-166.02861
-13.69699,-170.17776
-13.9765,-167.41652
-13.577151,-164.12212
-13.770305,-168.18179
-13.566268,-168.06256
-13.491281,-168.25198
-13.368925,-172.0415
-13.423534,-165.91306
-13.676202,-166.04103
-13.788407,-166.32808
-13.393737,-166.52917
-13.656443,-167.33827
-14.071486,-165.50578
-13.838701,-168.26454
-13.514334,-166.33765
-14.656332,-169.57216
-14.159219,-166.70078
-13.545407,-168.83328
-13.318917,-167.48732
-13.8785,-169.04211
-13.550237,-165.17204
-13.819067,-167.02699
-13.840627,-169.57555
-13.854718,-166.50676
-13.678321,-170.054
-13.913961,-169.37466
-14.482496,-168.33624
-13.917607,-163.60156
-13.909607,-164.4855
-13.846292,-167.13919
-13.753199,-165.88861
-13.921804,-167.26959
-14.03159,-165.32977
-13.869186,-164.4101
-13.81844,-168.92326
-13.624329,-166.52655
-13.892124,-166.81215
-13.970854,-168.77229
-13.803639,-166.65523
-13.804766,-167.37862
-14.019422,-168.93501
-13.824208,-170.64125
-14.071684,-169.08867
-13.497072,-165.5403
-14.008212,-165.89064
-13.521333,-170.76926
-13.95251,-167.10963
-13.572658,-165.81674
-14.084119,-166.50198
-14.325451,-167.19258
-14.45576,-166.82997
-13.458401,-167.44542
-14.240512,-167.16618
-14.334248,-164.79314
-13.920717,-167.51613
-13.799807,-168.70168
-13.661543,-165.74658
-13.248043,-167.11836
-13.617224,-170.9606
-13.692575,-163.70274
-13.697003,-168.05801
-13.643126,-167.3445
-13.673625,-166.76585
-13.612629,-166.71228
-13.452278,-169.19839
-13.914891,-165.4324
-13.980985,-170.81932
-13.378951,-167.18425
-13.821074,-165.2729
-13.819127,-168.67314
-13.943278,-167.6904
-13.992944,-166.09637
-13.850592,-169.89359
-13.754639,-168.69067
-14.151461,-167.92758
-13.886507,-168.64264
-13.591749,-166.26877
-13.921707,-169.46588
-13.292571,-169.63405
-13.831291,-168.80875
-13.985237,-167.3009
-13.769532,-170.0278
-13.617125,-168.26834
-14.094447,-166.93231
-13.758711,-167.33916
-13.554781,-168.32431
-13.838791,-167.57332
-13.99718,-169.08183
-13.983957,-169.54565
-14.014088,-168.89339
-13.933692,-168.25514
-13.613623,-167.92841
-14.072677,-164.82948
-13.659972,-168.3775
-13.623903,-168.90736
-14.027233,-165.56302
-13.656188,-169.4305
-13.968207,-164.97916
-14.003047,-168.11876
-13.596866,-166.46767
-13.796635,-167.20509
-13.673119,-168.95905
-13.817297,-168.10254
-14.148498,-168.85643
-13.949918,-166.71033
-13.907673,-167.51398
-14.217335,-167.40813
-13.972183,-166.63271
-13.703829,-168.88315
-13.96408,-167.51962
-13.886973,-167.19444
-13.702579,-168.42252
-13.949615,-168.69003
-13.875263,-166.92033
-13.919096,-168.87061
-13.895812,-167.81639
-13.817526,-167.34445
-13.764715,-167.69872
-14.178128,-167.84393
-13.626619,-167.60121
-13.828356,-166.09563
-14.005512,-168.2583
-13.738258,-166.91101
-13.784115,-169.24792
-13.532423,-169.69846
-13.637557,-167.29872
-13.483471,-167.66144
-14.354235,-168.32196
-13.908259,-168.48409
-13.570126,-167.09732
-13.951552,-168.1062
-13.724016,-167.041
-13.751279,-168.63928
-13.839894,-166.47571
-14.082058,-167.8123
-13.866314,-168.42819
-14.112959,-165.58897
-13.815717,-168.9352
-13.852932,-169.48859
-13.957845,-168.72792
-14.152063,-167.25273
-13.860253,-165.201
-13.806599,-168.74397
-13.789616,-166.66675
-13.762046,-168.25781
-13.909602,-166.24451
-13.990678,-167.00453
-13.871976,-167.93629
-14.256382,-166.13519
-13.661944,-166.88814
-13.985777,-163.53746
-14.334982,-168.33559
-13.650726,-167.77357
