CITIFILE A.01.01
!Agilent Technologies,N5230C,MY48100142,A.08.04.10
!Agilent N5230C: A.08.04.10
!Format: LogMag/Angle
!Date: Wednesday, January 15, 2020 14:47:40
NAME CH1_DATA
VAR Power MAG 801
DATA S11 DBANGLE
DATA S21 DBANGLE
DATA S12 DBANGLE
DATA S22 DBANGLE
VAR_LIST_BEGIN
-40
-39.975
-39.95
-39.925
-39.9
-39.875
-39.85
-39.825
-39.8
-39.775
-39.75
-39.725
-39.7
-39.675
-39.65
-39.625
-39.6
-39.575
-39.55
-39.525
-39.5
-39.475
-39.45
-39.425
-39.4
-39.375
-39.35
-39.325
-39.3
-39.275
-39.25
-39.225
-39.2
-39.175
-39.15
-39.125
-39.1
-39.075
-39.05
-39.025
-39
-38.975
-38.95
-38.925
-38.9
-38.875
-38.85
-38.825
-38.8
-38.775
-38.75
-38.725
-38.7
-38.675
-38.65
-38.625
-38.6
-38.575
-38.55
-38.525
-38.5
-38.475
-38.45
-38.425
-38.4
-38.375
-38.35
-38.325
-38.3
-38.275
-38.25
-38.225
-38.2
-38.175
-38.15
-38.125
-38.1
-38.075
-38.05
-38.025
-38
-37.975
-37.95
-37.925
-37.9
-37.875
-37.85
-37.825
-37.8
-37.775
-37.75
-37.725
-37.7
-37.675
-37.65
-37.625
-37.6
-37.575
-37.55
-37.525
-37.5
-37.475
-37.45
-37.425
-37.4
-37.375
-37.35
-37.325
-37.3
-37.275
-37.25
-37.225
-37.2
-37.175
-37.15
-37.125
-37.1
-37.075
-37.05
-37.025
-37
-36.975
-36.95
-36.925
-36.9
-36.875
-36.85
-36.825
-36.8
-36.775
-36.75
-36.725
-36.7
-36.675
-36.65
-36.625
-36.6
-36.575
-36.55
-36.525
-36.5
-36.475
-36.45
-36.425
-36.4
-36.375
-36.35
-36.325
-36.3
-36.275
-36.25
-36.225
-36.2
-36.175
-36.15
-36.125
-36.1
-36.075
-36.05
-36.025
-36
-35.975
-35.95
-35.925
-35.9
-35.875
-35.85
-35.825
-35.8
-35.775
-35.75
-35.725
-35.7
-35.675
-35.65
-35.625
-35.6
-35.575
-35.55
-35.525
-35.5
-35.475
-35.45
-35.425
-35.4
-35.375
-35.35
-35.325
-35.3
-35.275
-35.25
-35.225
-35.2
-35.175
-35.15
-35.125
-35.1
-35.075
-35.05
-35.025
-35
-34.975
-34.95
-34.925
-34.9
-34.875
-34.85
-34.825
-34.8
-34.775
-34.75
-34.725
-34.7
-34.675
-34.65
-34.625
-34.6
-34.575
-34.55
-34.525
-34.5
-34.475
-34.45
-34.425
-34.4
-34.375
-34.35
-34.325
-34.3
-34.275
-34.25
-34.225
-34.2
-34.175
-34.15
-34.125
-34.1
-34.075
-34.05
-34.025
-34
-33.975
-33.95
-33.925
-33.9
-33.875
-33.85
-33.825
-33.8
-33.775
-33.75
-33.725
-33.7
-33.675
-33.65
-33.625
-33.6
-33.575
-33.55
-33.525
-33.5
-33.475
-33.45
-33.425
-33.4
-33.375
-33.35
-33.325
-33.3
-33.275
-33.25
-33.225
-33.2
-33.175
-33.15
-33.125
-33.1
-33.075
-33.05
-33.025
-33
-32.975
-32.95
-32.925
-32.9
-32.875
-32.85
-32.825
-32.8
-32.775
-32.75
-32.725
-32.7
-32.675
-32.65
-32.625
-32.6
-32.575
-32.55
-32.525
-32.5
-32.475
-32.45
-32.425
-32.4
-32.375
-32.35
-32.325
-32.3
-32.275
-32.25
-32.225
-32.2
-32.175
-32.15
-32.125
-32.1
-32.075
-32.05
-32.025
-32
-31.975
-31.95
-31.925
-31.9
-31.875
-31.85
-31.825
-31.8
-31.775
-31.75
-31.725
-31.7
-31.675
-31.65
-31.625
-31.6
-31.575
-31.55
-31.525
-31.5
-31.475
-31.45
-31.425
-31.4
-31.375
-31.35
-31.325
-31.3
-31.275
-31.25
-31.225
-31.2
-31.175
-31.15
-31.125
-31.1
-31.075
-31.05
-31.025
-31
-30.975
-30.95
-30.925
-30.9
-30.875
-30.85
-30.825
-30.8
-30.775
-30.75
-30.725
-30.7
-30.675
-30.65
-30.625
-30.6
-30.575
-30.55
-30.525
-30.5
-30.475
-30.45
-30.425
-30.4
-30.375
-30.35
-30.325
-30.3
-30.275
-30.25
-30.225
-30.2
-30.175
-30.15
-30.125
-30.1
-30.075
-30.05
-30.025
-30
-29.975
-29.95
-29.925
-29.9
-29.875
-29.85
-29.825
-29.8
-29.775
-29.75
-29.725
-29.7
-29.675
-29.65
-29.625
-29.6
-29.575
-29.55
-29.525
-29.5
-29.475
-29.45
-29.425
-29.4
-29.375
-29.35
-29.325
-29.3
-29.275
-29.25
-29.225
-29.2
-29.175
-29.15
-29.125
-29.1
-29.075
-29.05
-29.025
-29
-28.975
-28.95
-28.925
-28.9
-28.875
-28.85
-28.825
-28.8
-28.775
-28.75
-28.725
-28.7
-28.675
-28.65
-28.625
-28.6
-28.575
-28.55
-28.525
-28.5
-28.475
-28.45
-28.425
-28.4
-28.375
-28.35
-28.325
-28.3
-28.275
-28.25
-28.225
-28.2
-28.175
-28.15
-28.125
-28.1
-28.075
-28.05
-28.025
-28
-27.975
-27.95
-27.925
-27.9
-27.875
-27.85
-27.825
-27.8
-27.775
-27.75
-27.725
-27.7
-27.675
-27.65
-27.625
-27.6
-27.575
-27.55
-27.525
-27.5
-27.475
-27.45
-27.425
-27.4
-27.375
-27.35
-27.325
-27.3
-27.275
-27.25
-27.225
-27.2
-27.175
-27.15
-27.125
-27.1
-27.075
-27.05
-27.025
-27
-26.975
-26.95
-26.925
-26.9
-26.875
-26.85
-26.825
-26.8
-26.775
-26.75
-26.725
-26.7
-26.675
-26.65
-26.625
-26.6
-26.575
-26.55
-26.525
-26.5
-26.475
-26.45
-26.425
-26.4
-26.375
-26.35
-26.325
-26.3
-26.275
-26.25
-26.225
-26.2
-26.175
-26.15
-26.125
-26.1
-26.075
-26.05
-26.025
-26
-25.975
-25.95
-25.925
-25.9
-25.875
-25.85
-25.825
-25.8
-25.775
-25.75
-25.725
-25.7
-25.675
-25.65
-25.625
-25.6
-25.575
-25.55
-25.525
-25.5
-25.475
-25.45
-25.425
-25.4
-25.375
-25.35
-25.325
-25.3
-25.275
-25.25
-25.225
-25.2
-25.175
-25.15
-25.125
-25.1
-25.075
-25.05
-25.025
-25
-24.975
-24.95
-24.925
-24.9
-24.875
-24.85
-24.825
-24.8
-24.775
-24.75
-24.725
-24.7
-24.675
-24.65
-24.625
-24.6
-24.575
-24.55
-24.525
-24.5
-24.475
-24.45
-24.425
-24.4
-24.375
-24.35
-24.325
-24.3
-24.275
-24.25
-24.225
-24.2
-24.175
-24.15
-24.125
-24.1
-24.075
-24.05
-24.025
-24
-23.975
-23.95
-23.925
-23.9
-23.875
-23.85
-23.825
-23.8
-23.775
-23.75
-23.725
-23.7
-23.675
-23.65
-23.625
-23.6
-23.575
-23.55
-23.525
-23.5
-23.475
-23.45
-23.425
-23.4
-23.375
-23.35
-23.325
-23.3
-23.275
-23.25
-23.225
-23.2
-23.175
-23.15
-23.125
-23.1
-23.075
-23.05
-23.025
-23
-22.975
-22.95
-22.925
-22.9
-22.875
-22.85
-22.825
-22.8
-22.775
-22.75
-22.725
-22.7
-22.675
-22.65
-22.625
-22.6
-22.575
-22.55
-22.525
-22.5
-22.475
-22.45
-22.425
-22.4
-22.375
-22.35
-22.325
-22.3
-22.275
-22.25
-22.225
-22.2
-22.175
-22.15
-22.125
-22.1
-22.075
-22.05
-22.025
-22
-21.975
-21.95
-21.925
-21.9
-21.875
-21.85
-21.825
-21.8
-21.775
-21.75
-21.725
-21.7
-21.675
-21.65
-21.625
-21.6
-21.575
-21.55
-21.525
-21.5
-21.475
-21.45
-21.425
-21.4
-21.375
-21.35
-21.325
-21.3
-21.275
-21.25
-21.225
-21.2
-21.175
-21.15
-21.125
-21.1
-21.075
-21.05
-21.025
-21
-20.975
-20.95
-20.925
-20.9
-20.875
-20.85
-20.825
-20.8
-20.775
-20.75
-20.725
-20.7
-20.675
-20.65
-20.625
-20.6
-20.575
-20.55
-20.525
-20.5
-20.475
-20.45
-20.425
-20.4
-20.375
-20.35
-20.325
-20.3
-20.275
-20.25
-20.225
-20.2
-20.175
-20.15
-20.125
-20.1
-20.075
-20.05
-20.025
-20
VAR_LIST_END
BEGIN
-13.387617,-167.19839
-12.991995,-167.36826
-14.960139,-167.55048
-13.870339,-167.53197
-14.365648,-172.54378
-13.309873,-166.49356
-14.229339,-173.10548
-12.545176,-171.07822
-14.03824,-164.26543
-13.476971,-164.92186
-14.324422,-163.89545
-14.418563,-166.65109
-12.418749,-166.91109
-14.026073,-169.65784
-13.638111,-159.30341
-13.62846,-162.60059
-14.464856,-164.14388
-14.790394,-179.0818
-14.103335,-164.55063
-14.756045,-160.50847
-12.713905,-167.79785
-12.543638,-164.61617
-13.870485,-166.63583
-12.791503,-174.35167
-13.850137,-161.11684
-14.766305,-171.52338
-15.066339,-170.73393
-13.456795,-164.49402
-12.645105,-171.78333
-14.600197,-168.06461
-13.492125,-173.21007
-14.011861,-170.27306
-13.999759,-171.07849
-13.085307,-167.81633
-12.88586,-170.20354
-13.872864,-164.90147
-14.35442,-167.76775
-14.84434,-164.25723
-13.946202,-168.53069
-13.847391,-166.69559
-13.098884,-160.8904
-13.300886,-175.0273
-13.347608,-167.16585
-13.313635,-174.06023
-14.467161,-170.88789
-13.542383,-173.16222
-13.810066,-167.84233
-14.22115,-171.63893
-13.815546,-169.51721
-14.978258,-171.12601
-13.614089,-166.16611
-14.649314,-168.75954
-14.039725,-170.39284
-14.08729,-162.12314
-12.780681,-163.47417
-13.262476,-162.76866
-12.60452,-165.47404
-14.198219,-166.66103
-13.367379,-166.66229
-13.522001,-173.66245
-12.671088,-168.05385
-14.017768,179.95882
-13.347396,-161.45267
-13.584439,-178.30821
-14.295979,-161.21924
-12.794226,-173.30489
-13.716557,-166.78909
-14.458158,-171.98624
-13.372569,-168.49171
-13.521234,-168.32043
-15.084676,-168.3632
-13.687032,-171.28186
-13.763434,-169.89192
-14.785854,-173.54118
-14.108643,-166.76268
-15.638858,-171.91673
-14.563108,-168.98753
-13.76362,-168.78191
-13.793277,-170.62251
-13.835847,-163.66054
-13.912411,-174.30203
-13.618561,-165.43288
-14.487485,-174.50951
-13.00006,-167.29091
-14.510458,-162.94522
-13.413026,-166.58321
-15.010283,-177.00206
-13.891265,-161.70996
-13.790814,-166.51357
-14.214291,-174.96983
-13.727706,-160.87634
-14.593714,-171.36479
-13.021006,-166.98442
-13.636136,-170.19785
-14.051598,-174.28569
-13.337014,-165.86029
-13.765755,-161.68109
-13.553235,-171.22644
-14.620102,-166.16414
-13.581717,-165.20749
-13.424829,-165.72549
-13.056845,-163.16458
-13.49312,-174.59023
-13.122676,-165.6447
-13.582027,-171.05852
-13.193854,-165.26651
-14.076307,-170.87201
-14.318621,-162.37782
-14.200145,-163.71529
-13.984661,-169.07433
-14.128322,-160.30402
-13.557933,-168.51787
-13.880857,-170.11922
-14.244661,-165.02888
-13.56933,-166.82529
-14.858677,-161.2003
-14.763564,-167.36647
-14.700162,-163.10754
-14.99919,-165.1438
-13.422263,-172.42526
-12.842999,-165.57652
-13.051629,-165.76472
-12.808593,-169.2122
-13.469574,-165.38463
-13.252576,-175.26524
-12.719106,-168.38158
-13.316514,-159.96271
-14.225109,-172.69246
-13.61861,-166.3905
-13.529371,-167.62283
-14.701084,-164.48595
-13.230857,-167.88441
-14.164345,-174.73465
-12.874571,-164.43315
-12.877157,-172.9536
-13.891085,-162.30916
-13.411114,-169.67484
-13.77182,-160.62741
-14.920317,-166.88428
-13.511195,-170.80783
-14.186902,-163.54628
-13.547915,-162.63397
-14.583028,-163.86752
-13.690207,-168.75409
-14.396105,-171.35596
-14.045629,-162.81133
-14.767887,-174.44708
-14.908807,-168.25595
-13.676465,-166.89728
-13.130198,-171.91637
-14.621217,-163.28227
-14.180038,-167.92281
-14.722887,-168.59216
-14.67304,-167.4377
-13.648688,-168.75491
-13.651055,-165.84602
-13.444366,-167.37828
-14.943071,-168.62216
-14.12117,-163.87411
-13.077251,-165.93155
-13.750159,-166.658
-12.767301,-162.472
-13.277076,-168.47107
-14.123869,-165.45033
-13.612194,-166.56184
-14.324227,-164.06714
-13.914718,-165.95552
-14.135967,-166.23767
-13.827295,-169.26552
-14.13195,-164.07571
-13.595399,-177.28798
-14.429529,-166.76704
-13.797992,-160.33859
-13.396975,-171.50638
-14.407395,-170.07951
-13.939283,-169.36681
-14.569574,-162.90652
-13.027731,-168.34222
-14.12428,-171.72479
-13.163061,-163.04001
-14.257992,-167.76711
-13.418427,-164.42755
-14.104244,-169.84723
-14.366111,-164.27924
-13.642249,-167.59608
-13.786991,-171.54187
-13.828692,-165.51627
-13.825914,-170.84987
-13.843813,-162.28795
-14.352065,-163.25632
-13.720295,-167.7937
-13.722581,-170.80428
-13.964626,-168.56206
-12.949051,-163.49492
-13.35476,-169.12122
-14.764793,-166.47556
-14.132735,-166.52188
-13.248208,-170.27548
-14.210111,-163.95047
-13.695652,-171.11655
-13.818074,-169.06335
-13.145887,-162.54823
-13.974993,-163.26193
-14.017,-169.37674
-13.758854,-172.34038
-13.723584,-171.44962
-14.472374,-166.95268
-14.597349,-171.11977
-13.996039,-165.53738
-14.607835,-168.89238
-14.79557,-166.05188
-13.671681,-166.41051
-13.610994,-163.52846
-13.95192,-165.78876
-13.066915,-171.35109
-14.187534,-168.7101
-13.258664,-168.39825
-14.500875,-170.29619
-13.378342,-164.83055
-13.781224,-168.4624
-14.093431,-165.44067
-13.490794,-166.76674
-13.516794,-166.08646
-13.80152,-166.67531
-13.635002,-168.7722
-13.774793,-165.10681
-13.237699,-163.30128
-13.722095,-166.38898
-14.192743,-164.29988
-14.406989,-167.32683
-13.911725,-174.94772
-13.015718,-164.7469
-14.071621,-171.1507
-13.580266,-167.60544
-14.032144,-170.15408
-14.400543,-161.57245
-14.26492,-163.70175
-13.7669,-166.86604
-14.389661,-165.45529
-14.057008,-170.64012
-13.468667,-169.22137
-14.193576,-170.56264
-13.631126,-168.95378
-13.581109,-166.86452
-13.786256,-173.24001
-13.632706,-167.3362
-14.399522,-171.48112
-13.648917,-165.36151
-13.604441,-169.05168
-13.944094,-163.90034
-13.756001,-169.24767
-13.466503,-163.45195
-13.74037,-160.0408
-13.896366,-166.32925
-13.635778,-170.97853
-14.087401,-170.35944
-15.24345,-168.38924
-14.103889,-167.70795
-14.086185,-165.7755
-13.512747,-168.02719
-14.491769,-161.86821
-13.683766,-167.92383
-13.669987,-168.22232
-13.790257,-165.96408
-13.654127,-167.4669
-12.962303,-166.67511
-14.317114,-162.12967
-13.398938,-164.97775
-13.580273,-169.7795
-13.105319,-165.87222
-13.750491,-165.15669
-13.360747,-166.98318
-14.026262,-166.33856
-14.143738,-167.18413
-13.980327,-169.22626
-14.187644,-167.61426
-14.171967,-167.19148
-13.647734,-166.19571
-13.39213,-168.12462
-14.051541,-172.01329
-13.560604,-166.57019
-13.259427,-167.32086
-14.444946,-169.25853
-13.935378,-166.80161
-13.854711,-170.08841
-13.767977,-165.10612
-13.946727,-166.41275
-14.057923,-167.63638
-13.379004,-167.30838
-14.241895,-168.50291
-13.475207,-164.25569
-14.51017,-163.41058
-13.264703,-167.3219
-13.434381,-163.0419
-13.450411,-167.00531
-14.009784,-169.61058
-13.969521,-165.21626
-13.638364,-167.12489
-14.117944,-169.05017
-13.585071,-167.45012
-13.710982,-168.14716
-13.073093,-166.8163
-13.68713,-166.81529
-13.883696,-165.59274
-13.986056,-165.97316
-13.349568,-168.44861
-14.07241,-168.67603
-13.577223,-170.03131
-14.269538,-170.33963
-13.355296,-164.38507
-13.974973,-167.07262
-14.090484,-163.87437
-13.784155,-168.19994
-13.730255,-169.50131
-13.655778,-169.9341
-13.710406,-167.93001
-14.364491,-167.17805
-14.17358,-167.87039
-13.613737,-165.4469
-13.867828,-165.23639
-13.419063,-168.15076
-13.31113,-166.79398
-13.343859,-171.8909
-13.234214,-166.53732
-13.343862,-169.03058
-13.446437,-167.75375
-13.780904,-167.21277
-13.91179,-171.24825
-14.051742,-167.5287
-13.810897,-170.32361
-13.655422,-165.96919
-13.908031,-167.56345
-13.941369,-164.26611
-13.99963,-168.50049
-13.828133,-163.54832
-13.967791,-168.4794
-13.538859,-170.08252
-13.5553,-167.49261
-13.73805,-165.70888
-13.880642,-169.76236
-14.389688,-168.33208
-13.546994,-168.44405
-13.945503,-162.65111
-13.575236,-171.25531
-13.966114,-166.0798
-13.814962,-168.88589
-13.852679,-164.58533
-14.078362,-169.53288
-13.599105,-161.63496
-13.549176,-166.60233
-14.561902,-168.65947
-13.78752,-164.57642
-13.755762,-165.95459
-13.631107,-164.47653
-13.929974,-164.56842
-13.821393,-166.71587
-13.737803,-169.19838
-13.855199,-167.98955
-14.225149,-168.53847
-13.987758,-170.97859
-14.325377,-168.77855
-14.190559,-167.46292
-13.64821,-165.44144
-13.543914,-166.02431
-14.244797,-169.50468
-14.210609,-167.99683
-14.00278,-167.46819
-13.695614,-166.66139
-13.68816,-167.48286
-13.283132,-168.70888
-13.678583,-167.28682
-13.816931,-165.51411
-13.730228,-166.96419
-13.911669,-163.44269
-14.067369,-166.34839
-13.893099,-168.60414
-14.144606,-170.53848
-13.623442,-165.41699
-13.667135,-166.38266
-14.113207,-166.18698
-13.906179,-166.91891
-13.648641,-169.00946
-13.53289,-165.05414
-13.598224,-164.37096
-13.709474,-169.72298
-13.66199,-168.25768
-13.996474,-165.61267
-13.062036,-169.51239
-13.687205,-168.59717
-13.277265,-168.39671
-13.650892,-166.53023
-13.82955,-169.28796
-13.612247,-167.6402
-13.686359,-167.89424
-13.971747,-168.69287
-13.872296,-167.83064
-13.960265,-168.94736
-13.815907,-169.57436
-13.882552,-168.88588
-13.805902,-168.56589
-13.857252,-163.13252
-13.766036,-168.43349
-13.821532,-168.49504
-14.10604,-170.39758
-13.72036,-168.93311
-13.940163,-171.11435
-13.824916,-165.45305
-13.707599,-166.57068
-13.543846,-164.95094
-13.794111,-168.597
-14.116348,-167.56549
-13.925445,-168.57353
-14.30868,-166.29657
-13.770852,-168.25468
-13.33831,-167.90134
-14.010997,-168.39326
-13.578438,-169.45476
-13.761487,-165.48946
-13.92727,-169.60228
-13.828919,-166.81882
-14.112472,-166.11816
-13.982759,-167.05878
-13.948223,-168.04526
-14.109838,-166.76018
-14.045848,-169.55666
-14.086009,-169.15657
-13.781782,-167.84065
-14.454002,-168.19897
-14.316125,-166.53983
-13.684074,-166.5952
-13.970435,-167.19406
-13.730758,-167.09138
-14.147101,-168.34216
-14.082212,-168.81798
-13.960895,-165.67548
-14.363327,-167.78633
-14.174728,-167.02321
-14.080304,-168.34422
-14.253073,-165.72879
-13.79923,-166.05988
-13.610259,-168.68634
-14.018408,-168.74689
-13.523958,-168.65945
-13.952955,-166.71745
-14.045813,-168.01559
-13.942595,-168.11893
-13.956847,-166.93161
-13.738048,-168.46329
-14.003013,-165.37598
-13.931804,-165.45857
-14.029089,-165.53191
-13.611259,-166.4736
-13.53888,-167.41385
-14.044509,-170.03584
-13.988851,-168.79099
-13.715543,-166.96841
-13.951166,-168.92848
-13.775464,-167.0571
-13.97744,-168.653
-13.739544,-166.52846
-13.870885,-166.0199
-13.776031,-165.08206
-13.849297,-168.81316
-13.844084,-165.92719
-13.46084,-167.32018
-13.749807,-167.26849
-13.663646,-167.72484
-13.905054,-169.34552
-13.744856,-166.11728
-13.939157,-170.37547
-13.663656,-167.75055
-13.853226,-166.9285
-14.368005,-168.74042
-14.033124,-169.38702
-13.691914,-168.12016
-13.964644,-169.49986
-13.67752,-168.50682
-14.088929,-166.11679
-13.929951,-166.06787
-13.536575,-167.15968
-13.785136,-167.63962
-13.561654,-167.53584
-13.754586,-167.10896
-13.576177,-167.2829
-13.59131,-166.99115
-13.93801,-167.78937
-13.787297,-171.5248
-13.840091,-165.96176
-13.922399,-166.53032
-13.408601,-167.20485
-13.534715,-167.10794
-13.925075,-165.26802
-14.078207,-168.40413
-13.729249,-167.02998
-13.822639,-165.80205
-14.138741,-168.28618
-13.98023,-168.80894
-14.044331,-167.63118
-13.805104,-170.05005
-13.778034,-166.05083
-13.828808,-168.70993
-13.742765,-167.85912
-13.89962,-164.75497
-13.588685,-167.55746
-14.230532,-164.73291
-13.81472,-166.41843
-14.016362,-167.68115
-14.223995,-167.74597
-13.858603,-166.18977
-13.65831,-166.32895
-13.582259,-167.22234
-14.191946,-169.74326
-14.050168,-169.11
-14.118948,-168.53885
-13.633305,-167.69295
-13.792706,-167.62949
-13.711307,-165.16499
-13.982248,-166.93065
-13.969851,-166.74217
-13.98243,-164.6734
-13.975046,-167.12907
-13.680506,-165.30257
-13.618404,-167.8932
-14.063702,-166.4512
-13.680843,-169.55301
-13.951917,-167.02486
-13.940185,-169.95615
-13.721142,-168.29044
-13.789123,-166.36998
-13.506755,-166.50195
-13.819224,-169.69203
-14.046064,-168.10777
-13.692815,-168.20369
-14.043216,-166.48032
-13.96157,-166.48547
-13.543285,-168.31659
-14.271837,-165.88586
-13.899635,-168.01552
-13.898729,-168.72055
-14.020685,-170.03815
-13.452695,-169.80496
-13.864153,-166.29318
-13.833978,-167.15508
-14.272418,-168.36974
-13.871274,-169.21399
-13.759645,-166.35774
-13.906341,-166.43858
-13.575388,-168.90344
-13.73618,-165.51758
-13.717843,-167.51288
-13.814959,-167.81293
-13.803484,-167.99844
-13.835688,-165.18495
-13.867239,-168.49805
-13.78759,-168.5135
-14.037133,-167.40282
-13.969761,-165.43588
-14.017489,-169.14192
-13.995419,-166.79576
-14.156326,-165.81432
-14.237803,-167.44914
-13.827475,-168.15923
-13.851948,-167.1394
-14.164174,-166.69781
-13.63113,-168.16083
-13.837751,-168.08519
-13.928769,-167.51816
-13.927743,-164.51242
-13.42938,-165.89063
-13.720367,-168.82909
-13.610608,-167.69408
-14.008479,-166.18146
-13.782208,-167.28981
-13.892943,-167.16821
-13.782095,-169.25829
-13.721578,-167.81952
