CITIFILE A.01.01
!Agilent Technologies,N5230C,MY48100142,A.08.04.10
!Agilent N5230C: A.08.04.10
!Format: LogMag/Angle
!Date: Friday, August 14, 2020 16:48:35
NAME CH1_DATA
VAR Power MAG 801
DATA S11 DBANGLE
DATA S21 DBANGLE
DATA S12 DBANGLE
DATA S22 DBANGLE
VAR_LIST_BEGIN
-40
-39.975
-39.95
-39.925
-39.9
-39.875
-39.85
-39.825
-39.8
-39.775
-39.75
-39.725
-39.7
-39.675
-39.65
-39.625
-39.6
-39.575
-39.55
-39.525
-39.5
-39.475
-39.45
-39.425
-39.4
-39.375
-39.35
-39.325
-39.3
-39.275
-39.25
-39.225
-39.2
-39.175
-39.15
-39.125
-39.1
-39.075
-39.05
-39.025
-39
-38.975
-38.95
-38.925
-38.9
-38.875
-38.85
-38.825
-38.8
-38.775
-38.75
-38.725
-38.7
-38.675
-38.65
-38.625
-38.6
-38.575
-38.55
-38.525
-38.5
-38.475
-38.45
-38.425
-38.4
-38.375
-38.35
-38.325
-38.3
-38.275
-38.25
-38.225
-38.2
-38.175
-38.15
-38.125
-38.1
-38.075
-38.05
-38.025
-38
-37.975
-37.95
-37.925
-37.9
-37.875
-37.85
-37.825
-37.8
-37.775
-37.75
-37.725
-37.7
-37.675
-37.65
-37.625
-37.6
-37.575
-37.55
-37.525
-37.5
-37.475
-37.45
-37.425
-37.4
-37.375
-37.35
-37.325
-37.3
-37.275
-37.25
-37.225
-37.2
-37.175
-37.15
-37.125
-37.1
-37.075
-37.05
-37.025
-37
-36.975
-36.95
-36.925
-36.9
-36.875
-36.85
-36.825
-36.8
-36.775
-36.75
-36.725
-36.7
-36.675
-36.65
-36.625
-36.6
-36.575
-36.55
-36.525
-36.5
-36.475
-36.45
-36.425
-36.4
-36.375
-36.35
-36.325
-36.3
-36.275
-36.25
-36.225
-36.2
-36.175
-36.15
-36.125
-36.1
-36.075
-36.05
-36.025
-36
-35.975
-35.95
-35.925
-35.9
-35.875
-35.85
-35.825
-35.8
-35.775
-35.75
-35.725
-35.7
-35.675
-35.65
-35.625
-35.6
-35.575
-35.55
-35.525
-35.5
-35.475
-35.45
-35.425
-35.4
-35.375
-35.35
-35.325
-35.3
-35.275
-35.25
-35.225
-35.2
-35.175
-35.15
-35.125
-35.1
-35.075
-35.05
-35.025
-35
-34.975
-34.95
-34.925
-34.9
-34.875
-34.85
-34.825
-34.8
-34.775
-34.75
-34.725
-34.7
-34.675
-34.65
-34.625
-34.6
-34.575
-34.55
-34.525
-34.5
-34.475
-34.45
-34.425
-34.4
-34.375
-34.35
-34.325
-34.3
-34.275
-34.25
-34.225
-34.2
-34.175
-34.15
-34.125
-34.1
-34.075
-34.05
-34.025
-34
-33.975
-33.95
-33.925
-33.9
-33.875
-33.85
-33.825
-33.8
-33.775
-33.75
-33.725
-33.7
-33.675
-33.65
-33.625
-33.6
-33.575
-33.55
-33.525
-33.5
-33.475
-33.45
-33.425
-33.4
-33.375
-33.35
-33.325
-33.3
-33.275
-33.25
-33.225
-33.2
-33.175
-33.15
-33.125
-33.1
-33.075
-33.05
-33.025
-33
-32.975
-32.95
-32.925
-32.9
-32.875
-32.85
-32.825
-32.8
-32.775
-32.75
-32.725
-32.7
-32.675
-32.65
-32.625
-32.6
-32.575
-32.55
-32.525
-32.5
-32.475
-32.45
-32.425
-32.4
-32.375
-32.35
-32.325
-32.3
-32.275
-32.25
-32.225
-32.2
-32.175
-32.15
-32.125
-32.1
-32.075
-32.05
-32.025
-32
-31.975
-31.95
-31.925
-31.9
-31.875
-31.85
-31.825
-31.8
-31.775
-31.75
-31.725
-31.7
-31.675
-31.65
-31.625
-31.6
-31.575
-31.55
-31.525
-31.5
-31.475
-31.45
-31.425
-31.4
-31.375
-31.35
-31.325
-31.3
-31.275
-31.25
-31.225
-31.2
-31.175
-31.15
-31.125
-31.1
-31.075
-31.05
-31.025
-31
-30.975
-30.95
-30.925
-30.9
-30.875
-30.85
-30.825
-30.8
-30.775
-30.75
-30.725
-30.7
-30.675
-30.65
-30.625
-30.6
-30.575
-30.55
-30.525
-30.5
-30.475
-30.45
-30.425
-30.4
-30.375
-30.35
-30.325
-30.3
-30.275
-30.25
-30.225
-30.2
-30.175
-30.15
-30.125
-30.1
-30.075
-30.05
-30.025
-30
-29.975
-29.95
-29.925
-29.9
-29.875
-29.85
-29.825
-29.8
-29.775
-29.75
-29.725
-29.7
-29.675
-29.65
-29.625
-29.6
-29.575
-29.55
-29.525
-29.5
-29.475
-29.45
-29.425
-29.4
-29.375
-29.35
-29.325
-29.3
-29.275
-29.25
-29.225
-29.2
-29.175
-29.15
-29.125
-29.1
-29.075
-29.05
-29.025
-29
-28.975
-28.95
-28.925
-28.9
-28.875
-28.85
-28.825
-28.8
-28.775
-28.75
-28.725
-28.7
-28.675
-28.65
-28.625
-28.6
-28.575
-28.55
-28.525
-28.5
-28.475
-28.45
-28.425
-28.4
-28.375
-28.35
-28.325
-28.3
-28.275
-28.25
-28.225
-28.2
-28.175
-28.15
-28.125
-28.1
-28.075
-28.05
-28.025
-28
-27.975
-27.95
-27.925
-27.9
-27.875
-27.85
-27.825
-27.8
-27.775
-27.75
-27.725
-27.7
-27.675
-27.65
-27.625
-27.6
-27.575
-27.55
-27.525
-27.5
-27.475
-27.45
-27.425
-27.4
-27.375
-27.35
-27.325
-27.3
-27.275
-27.25
-27.225
-27.2
-27.175
-27.15
-27.125
-27.1
-27.075
-27.05
-27.025
-27
-26.975
-26.95
-26.925
-26.9
-26.875
-26.85
-26.825
-26.8
-26.775
-26.75
-26.725
-26.7
-26.675
-26.65
-26.625
-26.6
-26.575
-26.55
-26.525
-26.5
-26.475
-26.45
-26.425
-26.4
-26.375
-26.35
-26.325
-26.3
-26.275
-26.25
-26.225
-26.2
-26.175
-26.15
-26.125
-26.1
-26.075
-26.05
-26.025
-26
-25.975
-25.95
-25.925
-25.9
-25.875
-25.85
-25.825
-25.8
-25.775
-25.75
-25.725
-25.7
-25.675
-25.65
-25.625
-25.6
-25.575
-25.55
-25.525
-25.5
-25.475
-25.45
-25.425
-25.4
-25.375
-25.35
-25.325
-25.3
-25.275
-25.25
-25.225
-25.2
-25.175
-25.15
-25.125
-25.1
-25.075
-25.05
-25.025
-25
-24.975
-24.95
-24.925
-24.9
-24.875
-24.85
-24.825
-24.8
-24.775
-24.75
-24.725
-24.7
-24.675
-24.65
-24.625
-24.6
-24.575
-24.55
-24.525
-24.5
-24.475
-24.45
-24.425
-24.4
-24.375
-24.35
-24.325
-24.3
-24.275
-24.25
-24.225
-24.2
-24.175
-24.15
-24.125
-24.1
-24.075
-24.05
-24.025
-24
-23.975
-23.95
-23.925
-23.9
-23.875
-23.85
-23.825
-23.8
-23.775
-23.75
-23.725
-23.7
-23.675
-23.65
-23.625
-23.6
-23.575
-23.55
-23.525
-23.5
-23.475
-23.45
-23.425
-23.4
-23.375
-23.35
-23.325
-23.3
-23.275
-23.25
-23.225
-23.2
-23.175
-23.15
-23.125
-23.1
-23.075
-23.05
-23.025
-23
-22.975
-22.95
-22.925
-22.9
-22.875
-22.85
-22.825
-22.8
-22.775
-22.75
-22.725
-22.7
-22.675
-22.65
-22.625
-22.6
-22.575
-22.55
-22.525
-22.5
-22.475
-22.45
-22.425
-22.4
-22.375
-22.35
-22.325
-22.3
-22.275
-22.25
-22.225
-22.2
-22.175
-22.15
-22.125
-22.1
-22.075
-22.05
-22.025
-22
-21.975
-21.95
-21.925
-21.9
-21.875
-21.85
-21.825
-21.8
-21.775
-21.75
-21.725
-21.7
-21.675
-21.65
-21.625
-21.6
-21.575
-21.55
-21.525
-21.5
-21.475
-21.45
-21.425
-21.4
-21.375
-21.35
-21.325
-21.3
-21.275
-21.25
-21.225
-21.2
-21.175
-21.15
-21.125
-21.1
-21.075
-21.05
-21.025
-21
-20.975
-20.95
-20.925
-20.9
-20.875
-20.85
-20.825
-20.8
-20.775
-20.75
-20.725
-20.7
-20.675
-20.65
-20.625
-20.6
-20.575
-20.55
-20.525
-20.5
-20.475
-20.45
-20.425
-20.4
-20.375
-20.35
-20.325
-20.3
-20.275
-20.25
-20.225
-20.2
-20.175
-20.15
-20.125
-20.1
-20.075
-20.05
-20.025
-20
VAR_LIST_END
BEGIN
-15.364397,-153.00491
-14.160258,-153.26764
-15.483682,-157.62328
-14.253757,-159.73053
-15.276232,-159.08215
-15.286784,-154.62984
-14.564486,-156.7225
-14.833585,-154.77771
-14.737453,-160.31348
-15.463021,-163.57979
-15.633753,-155.87569
-16.054756,-162.92125
-15.169321,-158.02283
-15.101163,-164.11269
-16.045771,-153.82954
-13.388148,-157.42833
-15.879744,-159.40164
-15.198743,-157.52583
-15.063204,-155.89709
-15.892433,-151.39049
-14.901073,-158.40009
-14.070763,-155.27531
-14.00351,-158.24495
-15.126382,-156.02016
-14.895814,-157.80362
-15.194313,-158.69072
-14.727757,-153.29095
-14.965315,-160.45879
-15.68364,-164.28328
-14.948886,-159.54099
-15.405005,-161.56567
-15.444129,-155.71309
-14.615928,-163.96342
-14.956979,-159.41534
-15.130016,-159.79433
-14.708091,-158.34567
-14.826806,-160.67206
-15.067977,-153.36664
-15.674509,-159.46542
-15.031972,-159.49686
-15.111998,-156.03755
-14.977938,-161.86081
-14.707077,-159.59059
-15.053423,-159.24557
-15.021836,-154.57436
-16.230223,-159.11809
-15.494859,-154.09325
-14.069353,-157.17203
-15.100249,-157.80418
-15.309113,-159.81261
-15.209779,-154.7442
-15.219851,-156.73274
-14.922654,-160.70094
-14.548246,-161.9926
-14.624142,-154.86516
-15.365261,-160.83603
-14.782559,-163.1572
-14.664081,-158.06721
-14.350039,-157.80469
-15.178868,-152.82588
-14.628811,-156.33163
-14.838664,-155.88329
-14.776751,-159.707
-14.414661,-155.05276
-15.210348,-163.0018
-14.399524,-153.18292
-14.799953,-161.99689
-14.953225,-156.05525
-14.863832,-153.96021
-14.558502,-159.11545
-14.892529,-158.64224
-15.465304,-152.70328
-15.636683,-163.28546
-14.211698,-160.75249
-14.85612,-157.22084
-15.384953,-154.90564
-14.770432,-155.96313
-15.792756,-156.85809
-15.011882,-156.52974
-15.389467,-163.84196
-15.291697,-153.30811
-15.007438,-160.70673
-14.674419,-156.10641
-14.716389,-160.37575
-14.594859,-158.89049
-15.658334,-159.28296
-14.573095,-158.82083
-15.011062,-160.60059
-14.923482,-158.32249
-15.721863,-156.78235
-14.78365,-160.86469
-15.838937,-154.75876
-15.512561,-160.22878
-15.711158,-153.21771
-16.091484,-162.05817
-14.78391,-159.85944
-14.923512,-159.83891
-15.305607,-159.87741
-15.205153,-159.32486
-14.784966,-159.75735
-15.019578,-158.82155
-15.64496,-161.24319
-14.773383,-162.47977
-15.120476,-159.72537
-14.588526,-158.02589
-14.687593,-156.61298
-14.971211,-154.4111
-14.463354,-156.12437
-14.390757,-158.90712
-15.470481,-155.99086
-14.245675,-157.55142
-14.69103,-158.89578
-14.511359,-162.26445
-15.511427,-153.65982
-15.401242,-152.89384
-15.563077,-160.14311
-14.956182,-157.29155
-14.960374,-157.26239
-15.632001,-160.06145
-15.356775,-156.79997
-16.067446,-155.56189
-15.015811,-158.93411
-14.765059,-160.11104
-15.819809,-162.05664
-14.626573,-160.88921
-15.774262,-161.1134
-15.145348,-155.11711
-14.701204,-156.23485
-14.611546,-156.41835
-14.109172,-153.65839
-14.885003,-156.30136
-15.039258,-150.59593
-15.879697,-159.62666
-15.074749,-167.85655
-14.7647,-158.50574
-15.021679,-156.43974
-14.717134,-152.2728
-13.731128,-155.47415
-15.474511,-160.29456
-15.353247,-156.92897
-14.899433,-164.12402
-14.167563,-153.30521
-14.385683,-156.12138
-15.910037,-153.87355
-15.681026,-161.80779
-14.80406,-155.74297
-14.86826,-157.95583
-15.076963,-159.20764
-15.147314,-157.26604
-15.023156,-163.35045
-15.381223,-159.83777
-15.470872,-158.28671
-15.715869,-157.51114
-15.637321,-155.43892
-14.174093,-157.91475
-15.530424,-159.46616
-15.33966,-155.00975
-14.873408,-158.2849
-15.120342,-161.52937
-14.98901,-153.77307
-14.934888,-155.37396
-14.814486,-161.94054
-14.754938,-161.36746
-14.544498,-159.77081
-14.976763,-160.29008
-14.82491,-157.04759
-14.660501,-154.87431
-15.177554,-157.38197
-15.120749,-163.86041
-14.950012,-161.70667
-15.555308,-158.02528
-14.623363,-157.65359
-15.179127,-160.41473
-14.650546,-162.44748
-15.953086,-163.87611
-14.900587,-156.85695
-14.737608,-159.8759
-15.331724,-162.66446
-14.834807,-157.92337
-15.291,-156.83626
-16.057814,-153.32733
-15.046693,-154.26732
-15.115934,-155.75679
-15.201609,-161.35017
-15.381994,-157.44562
-14.959888,-160.58229
-15.554548,-161.55743
-14.991148,-159.87315
-15.213214,-156.73372
-15.001868,-160.30957
-15.008883,-160.41081
-15.158572,-158.1631
-14.404274,-157.62379
-15.310204,-160.5139
-15.464151,-157.91495
-15.819568,-159.22621
-15.237876,-159.55258
-15.66355,-157.30026
-15.135179,-158.62996
-15.276035,-157.68793
-15.605207,-157.25821
-15.165296,-159.22923
-14.77554,-158.50627
-15.439116,-155.19151
-14.961855,-156.09953
-15.022461,-162.35153
-14.609606,-157.61847
-14.907871,-163.21576
-15.016804,-159.37178
-14.569422,-159.97734
-14.42368,-158.05775
-14.450016,-163.18462
-14.51433,-157.93205
-14.226084,-155.46626
-14.725698,-157.16486
-15.161034,-156.49084
-14.620026,-159.97612
-15.42931,-157.81165
-14.749449,-160.62389
-14.988429,-156.35934
-15.002223,-163.96742
-14.285367,-155.48372
-14.874061,-159.28368
-15.050312,-160.58788
-14.640425,-155.60959
-14.967702,-159.79956
-14.77524,-153.38065
-15.718649,-158.21539
-15.317617,-158.48412
-14.616971,-160.66289
-14.924693,-156.55734
-15.572869,-155.07632
-15.000605,-153.38985
-15.270116,-157.53891
-14.713306,-160.53445
-15.22301,-159.99356
-15.115547,-157.97072
-15.055321,-156.71773
-15.55686,-158.28279
-15.364758,-160.59843
-15.161556,-157.92517
-14.943566,-160.96242
-15.330772,-157.89725
-15.119873,-159.26802
-14.742258,-156.49837
-14.894567,-160.10016
-14.954864,-157.71112
-14.620695,-158.7334
-15.027905,-155.54768
-14.905612,-157.07242
-15.258806,-161.8161
-14.573679,-156.22833
-15.063423,-162.12447
-15.478939,-160.50412
-14.792814,-158.57072
-14.563719,-157.14566
-15.163764,-161.66315
-15.13618,-158.35928
-14.888659,-156.60606
-14.905496,-158.21461
-15.108333,-156.89778
-14.749566,-157.83475
-15.673265,-159.01213
-15.565484,-160.43851
-14.487965,-158.85381
-14.701173,-157.87277
-14.80022,-157.90048
-14.936826,-161.93747
-14.960157,-160.47598
-15.414754,-156.11255
-14.789531,-160.502
-14.882981,-157.01848
-15.120339,-160.97295
-15.063542,-157.43753
-15.019945,-159.8031
-14.949923,-156.27116
-14.427431,-157.64143
-15.282623,-154.76495
-14.840768,-157.78403
-14.899701,-158.49696
-14.962217,-159.6916
-15.114046,-156.91861
-15.327956,-158.53955
-15.183229,-157.70456
-15.252438,-157.50763
-14.989021,-161.92537
-14.667655,-155.14363
-14.425051,-157.60922
-14.75162,-158.29875
-14.928452,-160.15234
-15.345408,-161.60114
-14.752469,-162.37747
-14.82502,-157.54727
-15.113126,-157.31815
-15.488258,-159.68901
-14.527781,-155.41171
-15.262956,-159.05753
-15.871053,-157.60995
-15.672618,-158.62767
-15.056369,-159.64557
-15.28454,-156.431
-14.683636,-157.43254
-15.302009,-160.02963
-15.042241,-158.50249
-15.445907,-158.70746
-15.223738,-157.17586
-15.418115,-159.16533
-14.94284,-159.68034
-15.03029,-155.80569
-14.738839,-156.62572
-15.047979,-160.77629
-14.940433,-159.47543
-15.31016,-155.73683
-15.160726,-156.62018
-15.260909,-162.20319
-15.271145,-157.6669
-15.517544,-158.53745
-15.05736,-157.47498
-15.37246,-158.59659
-14.909888,-156.32314
-14.980096,-157.59509
-15.313747,-158.51628
-15.25332,-159.27303
-15.060487,-157.23141
-14.63043,-159.07823
-14.734293,-156.56729
-14.926095,-156.81079
-14.891746,-161.36668
-15.29564,-158.64549
-15.119287,-160.07759
-15.029056,-159.1384
-15.413885,-154.29689
-15.311379,-156.46736
-14.881808,-158.43742
-15.073601,-155.22925
-15.233016,-156.61826
-14.944511,-158.0676
-15.003953,-156.61346
-15.366721,-160.22902
-15.300256,-158.62228
-15.165778,-161.78926
-15.456946,-158.04813
-15.369243,-158.43282
-15.186142,-156.32689
-14.672338,-155.37204
-15.105188,-159.42482
-15.378168,-159.15698
-15.585896,-157.8051
-15.228938,-157.98492
-15.435087,-158.89656
-14.660427,-158.80612
-15.118597,-157.03554
-15.190286,-155.85799
-15.132134,-156.37245
-14.878026,-160.02592
-14.447732,-161.34253
-15.145481,-159.2023
-15.06703,-157.82343
-15.023007,-156.85231
-15.364394,-158.46428
-15.301663,-156.32076
-15.349923,-156.05547
-15.148647,-160.21494
-14.731735,-158.8123
-15.071164,-156.42126
-14.768197,-158.1752
-14.767868,-156.88571
-15.0064,-159.08403
-15.255229,-159.18811
-14.978941,-159.88832
-14.825431,-159.60263
-14.939652,-158.23454
-14.996837,-159.67992
-15.035501,-157.81876
-14.937541,-156.89621
-14.61432,-159.99236
-14.985033,-158.40054
-15.371237,-156.65807
-14.943254,-158.74219
-15.234699,-157.96019
-15.381751,-157.34116
-14.998583,-158.94904
-15.357038,-157.575
-14.834483,-161.16005
-14.909266,-157.53035
-15.413976,-158.18292
-14.577073,-155.64688
-15.18816,-160.66861
-14.848007,-158.54442
-15.050642,-158.69287
-15.251257,-157.15697
-14.738958,-159.25037
-14.850497,-162.88698
-14.764739,-157.89642
-15.118962,-158.37665
-15.245104,-157.14552
-15.010138,-157.56166
-14.995467,-156.28976
-14.825263,-157.07706
-14.826046,-160.84367
-15.398178,-159.95201
-15.295168,-158.22998
-15.449052,-157.60713
-14.92302,-158.15686
-14.992576,-158.7491
-15.00091,-157.2543
-14.88811,-157.92462
-15.009356,-156.95372
-15.031299,-158.29099
-14.960886,-157.88762
-15.017018,-158.18233
-15.324751,-160.02765
-15.033684,-159.16908
-14.636653,-158.54697
-14.75282,-159.70952
-14.854935,-155.80864
-14.872426,-159.7457
-15.091734,-160.68538
-15.11235,-157.16656
-15.118629,-158.21301
-14.629983,-158.61165
-14.693217,-160.40402
-15.180174,-158.43951
-15.379048,-157.90974
-14.74439,-157.44963
-15.646305,-157.51358
-15.402318,-158.39336
-14.790558,-158.86649
-15.053103,-159.44832
-15.067522,-156.00964
-15.155279,-155.77582
-15.489499,-157.23047
-14.860134,-156.79474
-14.989878,-157.0843
-15.176211,-159.48581
-15.129362,-159.07326
-14.846215,-157.50819
-15.473552,-158.34009
-15.180152,-159.23424
-15.15183,-157.03122
-14.906123,-158.24074
-15.228976,-159.08804
-15.180768,-158.71619
-15.068321,-157.54454
-14.856405,-158.15378
-15.0451,-158.68394
-15.138643,-160.99388
-15.317247,-158.85092
-15.414713,-157.3812
-15.227852,-156.7128
-15.396182,-158.54832
-14.860674,-158.1506
-14.812041,-159.77672
-15.080145,-159.15421
-15.616645,-159.64316
-14.827899,-157.49469
-15.011398,-157.93951
-15.271949,-157.5807
-14.996092,-157.44389
-15.322048,-159.54532
-15.065413,-156.92177
-14.993848,-159.12912
-15.269222,-159.39655
-14.916502,-160.31708
-15.190955,-158.42099
-15.172571,-158.0108
-15.280647,-159.06256
-14.76744,-156.82726
-15.070758,-159.21925
-15.190563,-158.29416
-15.069942,-160.6188
-14.930164,-157.64337
-14.9862,-159.29306
-15.158491,-159.14981
-14.936582,-158.49089
-14.925944,-160.39381
-14.950664,-155.32346
-15.147135,-158.09
-15.056094,-158.31833
-14.830563,-159.42302
-14.862727,-161.23866
-15.093182,-160.21286
-15.271819,-155.63197
-14.902884,-156.57492
-15.152642,-157.90718
-15.107724,-156.71774
-14.915939,-159.00282
-14.984935,-160.13817
-15.025731,-159.50252
-15.116655,-158.09998
-14.848774,-158.91353
-15.18957,-158.20122
-14.893359,-158.24158
-15.109878,-158.77043
-14.740888,-156.79483
-15.055754,-157.51427
-15.273912,-158.64758
-15.080651,-157.24971
-15.168821,-158.93939
-15.061373,-156.77687
-15.120833,-157.9332
-14.824459,-157.67538
-15.114467,-157.12297
-15.143744,-157.45871
-15.261324,-160.23621
-14.924048,-156.01273
-15.064552,-157.4341
-14.93628,-157.0191
-15.245408,-158.30974
-14.892689,-158.26682
-15.294599,-157.77144
-15.062862,-158.23068
-14.938873,-158.06857
-14.927448,-157.3651
-14.926045,-157.59641
-14.826209,-159.63908
-15.086248,-159.0649
-14.972912,-157.12157
-14.806195,-156.8851
-14.758912,-157.84615
-15.097434,-156.53648
-15.158539,-157.96017
-15.236798,-159.78024
-15.066718,-159.16782
-14.880286,-158.37271
-15.017903,-157.93636
-15.038168,-158.41466
-14.993483,-160.0181
-15.073718,-158.83235
-14.99605,-157.43559
-15.27016,-159.04248
-15.091406,-155.8118
-14.981632,-157.86005
-14.966978,-159.0631
-15.536791,-158.69054
-15.320645,-158.00456
-14.844133,-159.40865
-14.987631,-156.79271
-14.920324,-157.98926
-15.019034,-157.44569
-15.081248,-157.53488
-14.97156,-158.97266
-15.043301,-160.68118
-15.101084,-159.31064
-15.32093,-158.72676
-15.333737,-159.35362
-15.142227,-158.81517
-14.932209,-157.3829
-14.972047,-158.02434
-15.195411,-158.84384
-14.745794,-158.53969
-14.848483,-159.01956
-15.080859,-161.60484
-15.107959,-157.42833
-14.785112,-159.26358
-14.790751,-158.45714
-15.022681,-157.49136
-15.146018,-157.82684
-15.246505,-157.99977
-15.117496,-159.26465
-14.846244,-158.46727
-15.244082,-157.98393
-15.006476,-157.10854
-15.261981,-158.73779
-15.066352,-158.6555
-14.952241,-158.59866
-15.29855,-158.72092
-14.833399,-158.30078
-15.120854,-159.27487
-14.993059,-157.8446
-15.082309,-157.75975
-15.281734,-159.63272
-14.864882,-159.11298
-15.127644,-157.04384
-15.110498,-160.03745
