CITIFILE A.01.01
!Agilent Technologies,N5230C,MY48100142,A.08.04.10
!Agilent N5230C: A.08.04.10
!Format: LogMag/Angle
!Date: Tuesday, July 21, 2020 17:47:19
NAME CH1_DATA
VAR Power MAG 801
DATA S11 DBANGLE
DATA S21 DBANGLE
DATA S12 DBANGLE
DATA S22 DBANGLE
VAR_LIST_BEGIN
-40
-39.975
-39.95
-39.925
-39.9
-39.875
-39.85
-39.825
-39.8
-39.775
-39.75
-39.725
-39.7
-39.675
-39.65
-39.625
-39.6
-39.575
-39.55
-39.525
-39.5
-39.475
-39.45
-39.425
-39.4
-39.375
-39.35
-39.325
-39.3
-39.275
-39.25
-39.225
-39.2
-39.175
-39.15
-39.125
-39.1
-39.075
-39.05
-39.025
-39
-38.975
-38.95
-38.925
-38.9
-38.875
-38.85
-38.825
-38.8
-38.775
-38.75
-38.725
-38.7
-38.675
-38.65
-38.625
-38.6
-38.575
-38.55
-38.525
-38.5
-38.475
-38.45
-38.425
-38.4
-38.375
-38.35
-38.325
-38.3
-38.275
-38.25
-38.225
-38.2
-38.175
-38.15
-38.125
-38.1
-38.075
-38.05
-38.025
-38
-37.975
-37.95
-37.925
-37.9
-37.875
-37.85
-37.825
-37.8
-37.775
-37.75
-37.725
-37.7
-37.675
-37.65
-37.625
-37.6
-37.575
-37.55
-37.525
-37.5
-37.475
-37.45
-37.425
-37.4
-37.375
-37.35
-37.325
-37.3
-37.275
-37.25
-37.225
-37.2
-37.175
-37.15
-37.125
-37.1
-37.075
-37.05
-37.025
-37
-36.975
-36.95
-36.925
-36.9
-36.875
-36.85
-36.825
-36.8
-36.775
-36.75
-36.725
-36.7
-36.675
-36.65
-36.625
-36.6
-36.575
-36.55
-36.525
-36.5
-36.475
-36.45
-36.425
-36.4
-36.375
-36.35
-36.325
-36.3
-36.275
-36.25
-36.225
-36.2
-36.175
-36.15
-36.125
-36.1
-36.075
-36.05
-36.025
-36
-35.975
-35.95
-35.925
-35.9
-35.875
-35.85
-35.825
-35.8
-35.775
-35.75
-35.725
-35.7
-35.675
-35.65
-35.625
-35.6
-35.575
-35.55
-35.525
-35.5
-35.475
-35.45
-35.425
-35.4
-35.375
-35.35
-35.325
-35.3
-35.275
-35.25
-35.225
-35.2
-35.175
-35.15
-35.125
-35.1
-35.075
-35.05
-35.025
-35
-34.975
-34.95
-34.925
-34.9
-34.875
-34.85
-34.825
-34.8
-34.775
-34.75
-34.725
-34.7
-34.675
-34.65
-34.625
-34.6
-34.575
-34.55
-34.525
-34.5
-34.475
-34.45
-34.425
-34.4
-34.375
-34.35
-34.325
-34.3
-34.275
-34.25
-34.225
-34.2
-34.175
-34.15
-34.125
-34.1
-34.075
-34.05
-34.025
-34
-33.975
-33.95
-33.925
-33.9
-33.875
-33.85
-33.825
-33.8
-33.775
-33.75
-33.725
-33.7
-33.675
-33.65
-33.625
-33.6
-33.575
-33.55
-33.525
-33.5
-33.475
-33.45
-33.425
-33.4
-33.375
-33.35
-33.325
-33.3
-33.275
-33.25
-33.225
-33.2
-33.175
-33.15
-33.125
-33.1
-33.075
-33.05
-33.025
-33
-32.975
-32.95
-32.925
-32.9
-32.875
-32.85
-32.825
-32.8
-32.775
-32.75
-32.725
-32.7
-32.675
-32.65
-32.625
-32.6
-32.575
-32.55
-32.525
-32.5
-32.475
-32.45
-32.425
-32.4
-32.375
-32.35
-32.325
-32.3
-32.275
-32.25
-32.225
-32.2
-32.175
-32.15
-32.125
-32.1
-32.075
-32.05
-32.025
-32
-31.975
-31.95
-31.925
-31.9
-31.875
-31.85
-31.825
-31.8
-31.775
-31.75
-31.725
-31.7
-31.675
-31.65
-31.625
-31.6
-31.575
-31.55
-31.525
-31.5
-31.475
-31.45
-31.425
-31.4
-31.375
-31.35
-31.325
-31.3
-31.275
-31.25
-31.225
-31.2
-31.175
-31.15
-31.125
-31.1
-31.075
-31.05
-31.025
-31
-30.975
-30.95
-30.925
-30.9
-30.875
-30.85
-30.825
-30.8
-30.775
-30.75
-30.725
-30.7
-30.675
-30.65
-30.625
-30.6
-30.575
-30.55
-30.525
-30.5
-30.475
-30.45
-30.425
-30.4
-30.375
-30.35
-30.325
-30.3
-30.275
-30.25
-30.225
-30.2
-30.175
-30.15
-30.125
-30.1
-30.075
-30.05
-30.025
-30
-29.975
-29.95
-29.925
-29.9
-29.875
-29.85
-29.825
-29.8
-29.775
-29.75
-29.725
-29.7
-29.675
-29.65
-29.625
-29.6
-29.575
-29.55
-29.525
-29.5
-29.475
-29.45
-29.425
-29.4
-29.375
-29.35
-29.325
-29.3
-29.275
-29.25
-29.225
-29.2
-29.175
-29.15
-29.125
-29.1
-29.075
-29.05
-29.025
-29
-28.975
-28.95
-28.925
-28.9
-28.875
-28.85
-28.825
-28.8
-28.775
-28.75
-28.725
-28.7
-28.675
-28.65
-28.625
-28.6
-28.575
-28.55
-28.525
-28.5
-28.475
-28.45
-28.425
-28.4
-28.375
-28.35
-28.325
-28.3
-28.275
-28.25
-28.225
-28.2
-28.175
-28.15
-28.125
-28.1
-28.075
-28.05
-28.025
-28
-27.975
-27.95
-27.925
-27.9
-27.875
-27.85
-27.825
-27.8
-27.775
-27.75
-27.725
-27.7
-27.675
-27.65
-27.625
-27.6
-27.575
-27.55
-27.525
-27.5
-27.475
-27.45
-27.425
-27.4
-27.375
-27.35
-27.325
-27.3
-27.275
-27.25
-27.225
-27.2
-27.175
-27.15
-27.125
-27.1
-27.075
-27.05
-27.025
-27
-26.975
-26.95
-26.925
-26.9
-26.875
-26.85
-26.825
-26.8
-26.775
-26.75
-26.725
-26.7
-26.675
-26.65
-26.625
-26.6
-26.575
-26.55
-26.525
-26.5
-26.475
-26.45
-26.425
-26.4
-26.375
-26.35
-26.325
-26.3
-26.275
-26.25
-26.225
-26.2
-26.175
-26.15
-26.125
-26.1
-26.075
-26.05
-26.025
-26
-25.975
-25.95
-25.925
-25.9
-25.875
-25.85
-25.825
-25.8
-25.775
-25.75
-25.725
-25.7
-25.675
-25.65
-25.625
-25.6
-25.575
-25.55
-25.525
-25.5
-25.475
-25.45
-25.425
-25.4
-25.375
-25.35
-25.325
-25.3
-25.275
-25.25
-25.225
-25.2
-25.175
-25.15
-25.125
-25.1
-25.075
-25.05
-25.025
-25
-24.975
-24.95
-24.925
-24.9
-24.875
-24.85
-24.825
-24.8
-24.775
-24.75
-24.725
-24.7
-24.675
-24.65
-24.625
-24.6
-24.575
-24.55
-24.525
-24.5
-24.475
-24.45
-24.425
-24.4
-24.375
-24.35
-24.325
-24.3
-24.275
-24.25
-24.225
-24.2
-24.175
-24.15
-24.125
-24.1
-24.075
-24.05
-24.025
-24
-23.975
-23.95
-23.925
-23.9
-23.875
-23.85
-23.825
-23.8
-23.775
-23.75
-23.725
-23.7
-23.675
-23.65
-23.625
-23.6
-23.575
-23.55
-23.525
-23.5
-23.475
-23.45
-23.425
-23.4
-23.375
-23.35
-23.325
-23.3
-23.275
-23.25
-23.225
-23.2
-23.175
-23.15
-23.125
-23.1
-23.075
-23.05
-23.025
-23
-22.975
-22.95
-22.925
-22.9
-22.875
-22.85
-22.825
-22.8
-22.775
-22.75
-22.725
-22.7
-22.675
-22.65
-22.625
-22.6
-22.575
-22.55
-22.525
-22.5
-22.475
-22.45
-22.425
-22.4
-22.375
-22.35
-22.325
-22.3
-22.275
-22.25
-22.225
-22.2
-22.175
-22.15
-22.125
-22.1
-22.075
-22.05
-22.025
-22
-21.975
-21.95
-21.925
-21.9
-21.875
-21.85
-21.825
-21.8
-21.775
-21.75
-21.725
-21.7
-21.675
-21.65
-21.625
-21.6
-21.575
-21.55
-21.525
-21.5
-21.475
-21.45
-21.425
-21.4
-21.375
-21.35
-21.325
-21.3
-21.275
-21.25
-21.225
-21.2
-21.175
-21.15
-21.125
-21.1
-21.075
-21.05
-21.025
-21
-20.975
-20.95
-20.925
-20.9
-20.875
-20.85
-20.825
-20.8
-20.775
-20.75
-20.725
-20.7
-20.675
-20.65
-20.625
-20.6
-20.575
-20.55
-20.525
-20.5
-20.475
-20.45
-20.425
-20.4
-20.375
-20.35
-20.325
-20.3
-20.275
-20.25
-20.225
-20.2
-20.175
-20.15
-20.125
-20.1
-20.075
-20.05
-20.025
-20
VAR_LIST_END
BEGIN
-14.448455,-140.65784
-14.344189,-145.6266
-14.4641,-141.43138
-14.40413,-145.40834
-15.25105,-146.21078
-14.14695,-143.13707
-14.697303,-144.3707
-13.765685,-150.35472
-15.03442,-147.7047
-14.023906,-147.10396
-13.773264,-146.3313
-14.286454,-142.23656
-14.669621,-143.74425
-14.594001,-141.66437
-14.078835,-145.62013
-14.126113,-148.31628
-14.851965,-145.12962
-14.152184,-139.93094
-14.993725,-146.39093
-14.722794,-144.93988
-14.472658,-146.66217
-14.971183,-147.90907
-14.812875,-147.97777
-14.230194,-147.97327
-15.138759,-149.72461
-15.357493,-146.85606
-14.470564,-140.46492
-14.99826,-140.21176
-14.598537,-144.2682
-14.665097,-144.72766
-14.949037,-145.27576
-15.036458,-144.69296
-14.263199,-147.7083
-14.583488,-146.50914
-13.666753,-144.29482
-14.648225,-141.78992
-13.836951,-144.79402
-14.139334,-144.06963
-14.835991,-141.41887
-14.502263,-142.81689
-14.689114,-148.85545
-13.813835,-145.35268
-14.213239,-144.4247
-14.824895,-143.78026
-14.796169,-144.88408
-14.523761,-148.20938
-15.033485,-143.38304
-14.183393,-144.21201
-14.623873,-143.26683
-14.287889,-144.64162
-14.960137,-141.41006
-15.337773,-138.48091
-14.360622,-148.36197
-15.453428,-139.2901
-14.377388,-147.64227
-14.98303,-144.9189
-14.643277,-145.5116
-14.240961,-142.93236
-14.013021,-144.24933
-14.719357,-142.64462
-14.846641,-146.65941
-14.844461,-143.05759
-15.054818,-140.2276
-14.822946,-143.27109
-14.630909,-142.78214
-13.844222,-140.95529
-15.535445,-135.64154
-14.752794,-145.13402
-15.162845,-139.45114
-14.49795,-143.31946
-14.075345,-146.74226
-14.509514,-143.03638
-14.343083,-142.32158
-14.918316,-145.67307
-14.822186,-143.7966
-15.353155,-142.98621
-13.905161,-141.66248
-14.507834,-144.75006
-14.032488,-141.27977
-15.054474,-139.18109
-14.790954,-146.39453
-14.742458,-139.21758
-14.576204,-146.37498
-14.547647,-144.51108
-14.761346,-144.25439
-14.483222,-150.51964
-14.331615,-143.77621
-14.289052,-145.47182
-14.094266,-144.06638
-15.111897,-145.89468
-14.941425,-141.96194
-14.452056,-146.86404
-15.293564,-146.136
-14.539824,-149.17015
-14.504526,-142.14731
-14.793277,-143.48973
-14.941364,-144.10397
-14.005748,-142.52914
-14.671659,-144.60561
-13.867386,-143.84502
-15.294879,-145.7206
-14.86764,-148.01891
-14.392435,-144.23645
-15.414159,-143.28249
-15.122081,-144.45979
-14.513166,-144.74454
-14.766158,-138.10057
-13.923026,-143.38466
-14.463409,-144.34178
-14.959605,-143.28821
-14.157285,-140.87383
-14.484261,-144.47205
-14.487152,-145.81596
-14.752528,-146.53522
-13.866884,-144.58136
-14.960353,-144.26289
-14.794353,-146.29085
-14.014874,-140.83231
-14.152962,-147.06509
-14.242734,-147.53036
-14.261462,-147.17496
-14.892771,-139.71329
-15.026318,-144.97423
-14.175717,-141.97139
-14.272206,-146.55554
-14.963509,-140.42618
-14.386007,-145.235
-14.913102,-146.31104
-14.424541,-141.72966
-15.146725,-141.80383
-14.858272,-149.53856
-14.657738,-140.69133
-14.210097,-144.35835
-13.998901,-139.95398
-14.190979,-143.90546
-14.686741,-146.97041
-14.378286,-145.44221
-14.591496,-147.60678
-15.440888,-142.95518
-14.61234,-142.90198
-14.890533,-144.49124
-14.829743,-144.61769
-14.438662,-148.13487
-15.0479,-140.16113
-15.067245,-146.21591
-14.634271,-144.87897
-15.128264,-143.33218
-14.824386,-145.12183
-14.845235,-143.39063
-14.749723,-149.56645
-14.413031,-145.17929
-14.92421,-142.85712
-14.539221,-144.1971
-14.386267,-147.00894
-14.592253,-142.59828
-15.143375,-147.09805
-14.911483,-144.38429
-14.758191,-147.44955
-14.046104,-142.55316
-14.747159,-142.75296
-13.963408,-145.68625
-15.205291,-144.63504
-14.081382,-141.23203
-14.532549,-145.02148
-14.999781,-142.73819
-14.506508,-142.33665
-14.51264,-146.11356
-14.53238,-146.26588
-14.78074,-144.16298
-14.370615,-144.3551
-14.405142,-146.86087
-14.417921,-149.18919
-14.431195,-142.90134
-14.811316,-147.03255
-14.443833,-145.59354
-15.077771,-143.88657
-14.761156,-144.74274
-15.010386,-141.91759
-14.786384,-146.20874
-14.713197,-146.40674
-14.241736,-143.15504
-14.170127,-143.05655
-14.556899,-143.16365
-14.591327,-146.48042
-14.801668,-140.04341
-14.807596,-145.46339
-14.76314,-143.63603
-15.346441,-142.67735
-14.429442,-144.4449
-15.24418,-144.72438
-14.629061,-145.54768
-14.701123,-145.05186
-15.122135,-146.98601
-14.364062,-146.67178
-14.575049,-144.12543
-14.876114,-145.42816
-15.025493,-144.39856
-14.598059,-144.98985
-15.030214,-147.32437
-14.716464,-141.29976
-14.605532,-142.08537
-14.088352,-141.05249
-14.575981,-143.34239
-15.204144,-146.24059
-15.044458,-141.9516
-14.650893,-145.61447
-14.461495,-145.69348
-14.11995,-144.37727
-14.79156,-144.77203
-14.545685,-143.84204
-14.605374,-144.01729
-14.769695,-146.32391
-14.781891,-141.01932
-15.276484,-142.4482
-14.558814,-142.07352
-14.918296,-145.06067
-14.250691,-143.3963
-14.956089,-143.01584
-14.583723,-144.5995
-14.991167,-145.52524
-14.619673,-143.14525
-14.900862,-144.58183
-15.242059,-143.56686
-14.874209,-143.43434
-14.303201,-142.24355
-15.022873,-142.74188
-14.75487,-143.20695
-14.799009,-143.35852
-14.979165,-144.82907
-14.79928,-143.70175
-14.644648,-142.07001
-14.646172,-141.27393
-14.8237,-142.97223
-14.649445,-142.63937
-14.282948,-146.20914
-14.580158,-142.37476
-14.873311,-141.97075
-14.447729,-143.2859
-14.935435,-146.9684
-14.778665,-144.89369
-15.146074,-142.25156
-14.847525,-146.62289
-14.641857,-142.23915
-14.290388,-143.4328
-14.646148,-146.60121
-14.301567,-145.72255
-14.312955,-146.17722
-14.578206,-143.00623
-14.699337,-144.81894
-14.857562,-144.9581
-14.754938,-145.27901
-14.881731,-144.48189
-14.490852,-145.54277
-14.306542,-141.47807
-14.445365,-145.25992
-14.646334,-144.37123
-14.350238,-145.13353
-14.502762,-142.96468
-14.301028,-144.27895
-14.726336,-142.25188
-14.381172,-145.26517
-14.631313,-142.61595
-14.372531,-142.22603
-14.541749,-140.80078
-14.254087,-146.48776
-14.081856,-144.0775
-14.779002,-143.86984
-14.233402,-145.3168
-14.33676,-145.60117
-14.557245,-143.93362
-14.247284,-143.53683
-14.579334,-143.29387
-14.751207,-145.74979
-14.796966,-143.79536
-14.479805,-144.63889
-14.956622,-142.63423
-14.444364,-141.56944
-15.084537,-144.80991
-14.806278,-145.97333
-14.859033,-145.05087
-14.861095,-144.06209
-14.508869,-144.30734
-14.747941,-144.98392
-14.327738,-143.4438
-14.820967,-145.04172
-14.522287,-141.90169
-14.727665,-144.80026
-14.716969,-144.88589
-14.469089,-142.77937
-14.723352,-141.23032
-14.804299,-141.92746
-14.571039,-142.90021
-14.371169,-145.25383
-14.534199,-148.00404
-15.019375,-146.30107
-14.543037,-143.11389
-14.358751,-144.79857
-14.623091,-147.79532
-14.777163,-142.34245
-14.955012,-144.05234
-14.579733,-141.44142
-14.829061,-146.94554
-14.518698,-145.03893
-14.474706,-145.64583
-14.718585,-144.25995
-14.593229,-141.83876
-14.660316,-145.72301
-14.766697,-141.8152
-14.600614,-148.37122
-14.548465,-145.38007
-14.629962,-143.08284
-14.621933,-142.08746
-14.679111,-142.57907
-14.530769,-145.42564
-14.641196,-143.06197
-15.021915,-142.64998
-14.897596,-146.28856
-14.340168,-145.68808
-14.567847,-143.57321
-15.234983,-141.49893
-14.65748,-144.7292
-14.701718,-144.12561
-14.838646,-143.41669
-14.75599,-147.2209
-14.462574,-145.62134
-14.499515,-143.84134
-14.591243,-142.12296
-14.4,-145.66234
-14.712521,-144.0929
-14.734065,-143.85355
-14.647767,-142.98349
-14.890927,-143.79231
-14.481904,-142.82909
-14.496787,-142.09923
-14.726808,-144.79594
-14.575918,-145.2312
-14.437853,-145.1351
-14.84682,-142.92075
-14.679288,-143.16403
-14.774561,-143.9619
-14.680234,-145.90753
-14.556788,-143.49043
-14.615169,-147.59654
-14.486228,-145.65515
-14.568512,-144.77209
-14.697419,-144.81929
-14.407881,-144.14471
-14.859161,-144.70952
-14.920853,-144.21036
-15.070105,-145.39461
-14.574929,-141.88545
-14.84996,-143.31505
-14.782119,-144.35149
-14.822033,-144.89709
-14.636422,-144.62013
-14.8459,-142.1739
-14.43119,-142.54146
-14.502811,-144.84189
-14.40208,-144.83859
-14.729728,-144.57048
-14.777989,-143.73579
-14.540278,-145.46637
-15.103467,-145.82491
-14.507926,-145.65205
-14.743533,-144.59595
-14.622605,-143.48027
-14.438506,-144.50204
-14.83996,-143.85933
-14.823452,-142.49811
-14.428984,-144.07065
-15.178375,-143.77124
-14.50568,-144.03378
-14.850422,-144.34473
-14.47179,-146.10678
-14.537587,-144.28526
-14.618539,-144.96884
-14.616365,-144.42796
-14.648401,-145.08215
-14.641166,-142.99687
-15.009188,-145.93864
-14.7896,-145.56686
-14.56306,-145.44641
-14.808951,-145.5661
-14.665925,-143.99493
-14.512076,-146.37671
-14.853435,-145.25186
-14.684329,-145.44221
-14.346733,-145.33192
-14.576974,-141.7347
-14.541494,-142.38884
-14.612324,-143.53856
-14.327399,-143.13799
-14.688856,-144.57495
-14.637268,-145.6337
-14.508819,-144.5836
-14.425004,-143.53601
-14.753097,-144.55069
-14.468347,-145.71574
-14.514912,-143.83945
-14.50654,-143.12456
-14.520068,-145.88893
-14.585576,-145.64307
-14.627985,-144.24371
-14.757057,-144.05499
-14.696631,-144.65822
-14.558992,-143.42033
-14.928183,-142.69304
-14.505085,-143.06624
-14.598538,-144.31364
-14.54417,-144.66768
-14.732403,-145.42831
-14.839971,-143.71823
-14.620461,-145.13582
-14.791301,-143.68402
-14.508631,-144.98286
-14.819736,-142.30553
-14.778378,-143.74144
-14.676642,-143.34361
-14.62293,-142.48065
-14.813369,-145.23817
-14.604136,-143.32045
-14.718958,-141.87898
-14.74015,-145.11835
-14.380568,-143.99936
-14.522655,-145.13959
-14.737731,-145.76842
-14.522045,-144.83597
-14.642088,-142.98462
-14.482341,-143.89189
-14.542032,-144.69135
-14.583938,-143.72928
-14.590035,-144.83464
-14.67947,-144.93886
-14.838296,-142.97313
-14.593113,-144.63293
-14.455741,-143.2085
-14.638041,-144.31627
-14.906257,-144.13243
-14.617653,-145.91252
-14.61958,-144.36128
-14.450733,-143.35583
-14.59577,-144.1813
-14.726726,-144.26883
-14.82456,-144.36363
-14.578501,-143.96198
-14.752716,-144.70413
-14.450984,-144.14748
-14.750329,-145.10518
-14.481133,-144.36798
-14.743546,-144.47845
-14.91713,-144.49176
-14.545237,-144.3938
-14.685901,-145.04893
-14.664921,-144.56557
-14.508678,-143.95198
-14.787674,-145.03339
-14.502524,-144.45627
-14.721713,-142.7585
-14.727643,-144.32564
-14.771337,-144.13231
-14.696134,-143.7834
-14.654934,-143.30629
-14.640311,-144.22337
-14.581194,-142.34148
-14.537257,-144.53011
-14.52159,-146.27878
-14.485086,-144.69296
-14.528947,-143.67381
-14.870101,-144.03535
-14.862,-143.0941
-14.89043,-145.85759
-14.596191,-143.91141
-14.518289,-143.97276
-14.720921,-143.51567
-14.812551,-145.0535
-14.521539,-144.38107
-14.411612,-144.12335
-14.728078,-143.4908
-14.688683,-143.5815
-14.780922,-143.60844
-14.597953,-144.76292
-14.385158,-144.10616
-14.880165,-144.7272
-14.439299,-144.52312
-14.579065,-144.24652
-14.516644,-144.65752
-14.452454,-145.82028
-14.823467,-144.38341
-14.679122,-143.69759
-14.677632,-144.09793
-14.525458,-144.42366
-14.740335,-143.80971
-14.541667,-143.85913
-14.63952,-143.85535
-14.598555,-143.49605
-14.779411,-144.87401
-14.88035,-144.79724
-14.683139,-146.29164
-14.774667,-144.94295
-14.585306,-144.13254
-14.693745,-143.61055
-14.585022,-144.86955
-14.749174,-143.56548
-14.530197,-144.47623
-14.695357,-144.52669
-14.632291,-143.80835
-14.712613,-144.29362
-14.513333,-144.83469
-14.800268,-142.53271
-14.608156,-145.96506
-14.63654,-144.13193
-14.613738,-144.75824
-14.595591,-143.85349
-14.644278,-145.03835
-14.643129,-143.54318
-14.537655,-145.09714
-14.78016,-143.07091
-14.714808,-144.46132
-14.621712,-143.41106
-14.475408,-143.1196
-14.596167,-143.36389
-14.603049,-144.63054
-14.682649,-145.03004
-14.457254,-145.13074
-14.716366,-143.28471
-14.477218,-143.89102
-14.462979,-145.42177
-14.619706,-144.37881
-14.622302,-144.3492
-14.53175,-144.40633
-14.865444,-143.44298
-14.618058,-144.20134
-14.556547,-144.28291
-14.538093,-145.09769
-14.469738,-143.82637
-14.709492,-144.74828
-14.419096,-144.52361
-14.584077,-144.10744
-14.680984,-143.80507
-14.740459,-144.5865
-14.525187,-144.55515
-14.562227,-144.13785
-14.744266,-144.52151
-14.676765,-145.29504
-14.700133,-143.76077
-14.618113,-144.8716
-14.699079,-145.47368
-14.84821,-144.34442
-14.751067,-144.02104
-14.359235,-144.11719
-14.638064,-144.16197
-14.763664,-144.68274
-14.693404,-144.92599
-14.464768,-143.88028
-14.588426,-144.47391
-14.518879,-143.46396
-14.691629,-144.91472
-14.456111,-144.10661
-14.616746,-144.06447
-14.813182,-143.72145
-14.466702,-144.32991
-14.630511,-143.58908
-14.556729,-144.72632
-14.655903,-144.71977
-14.779506,-144.33449
-14.695777,-145.59979
-14.831164,-143.86952
-14.669366,-144.76846
-14.853203,-143.6304
-14.562466,-143.41278
-14.594211,-143.01256
-14.799579,-142.93124
-14.501661,-143.72305
-14.603989,-144.86345
-14.6358,-144.48407
-14.668277,-143.60471
