CITIFILE A.01.01
!Agilent Technologies,N5230C,MY48100142,A.08.04.10
!Agilent N5230C: A.08.04.10
!Format: LogMag/Angle
!Date: Tuesday, August 11, 2020 12:35:27
NAME CH1_DATA
VAR Power MAG 801
DATA S11 DBANGLE
DATA S21 DBANGLE
DATA S12 DBANGLE
DATA S22 DBANGLE
VAR_LIST_BEGIN
-40
-39.975
-39.95
-39.925
-39.9
-39.875
-39.85
-39.825
-39.8
-39.775
-39.75
-39.725
-39.7
-39.675
-39.65
-39.625
-39.6
-39.575
-39.55
-39.525
-39.5
-39.475
-39.45
-39.425
-39.4
-39.375
-39.35
-39.325
-39.3
-39.275
-39.25
-39.225
-39.2
-39.175
-39.15
-39.125
-39.1
-39.075
-39.05
-39.025
-39
-38.975
-38.95
-38.925
-38.9
-38.875
-38.85
-38.825
-38.8
-38.775
-38.75
-38.725
-38.7
-38.675
-38.65
-38.625
-38.6
-38.575
-38.55
-38.525
-38.5
-38.475
-38.45
-38.425
-38.4
-38.375
-38.35
-38.325
-38.3
-38.275
-38.25
-38.225
-38.2
-38.175
-38.15
-38.125
-38.1
-38.075
-38.05
-38.025
-38
-37.975
-37.95
-37.925
-37.9
-37.875
-37.85
-37.825
-37.8
-37.775
-37.75
-37.725
-37.7
-37.675
-37.65
-37.625
-37.6
-37.575
-37.55
-37.525
-37.5
-37.475
-37.45
-37.425
-37.4
-37.375
-37.35
-37.325
-37.3
-37.275
-37.25
-37.225
-37.2
-37.175
-37.15
-37.125
-37.1
-37.075
-37.05
-37.025
-37
-36.975
-36.95
-36.925
-36.9
-36.875
-36.85
-36.825
-36.8
-36.775
-36.75
-36.725
-36.7
-36.675
-36.65
-36.625
-36.6
-36.575
-36.55
-36.525
-36.5
-36.475
-36.45
-36.425
-36.4
-36.375
-36.35
-36.325
-36.3
-36.275
-36.25
-36.225
-36.2
-36.175
-36.15
-36.125
-36.1
-36.075
-36.05
-36.025
-36
-35.975
-35.95
-35.925
-35.9
-35.875
-35.85
-35.825
-35.8
-35.775
-35.75
-35.725
-35.7
-35.675
-35.65
-35.625
-35.6
-35.575
-35.55
-35.525
-35.5
-35.475
-35.45
-35.425
-35.4
-35.375
-35.35
-35.325
-35.3
-35.275
-35.25
-35.225
-35.2
-35.175
-35.15
-35.125
-35.1
-35.075
-35.05
-35.025
-35
-34.975
-34.95
-34.925
-34.9
-34.875
-34.85
-34.825
-34.8
-34.775
-34.75
-34.725
-34.7
-34.675
-34.65
-34.625
-34.6
-34.575
-34.55
-34.525
-34.5
-34.475
-34.45
-34.425
-34.4
-34.375
-34.35
-34.325
-34.3
-34.275
-34.25
-34.225
-34.2
-34.175
-34.15
-34.125
-34.1
-34.075
-34.05
-34.025
-34
-33.975
-33.95
-33.925
-33.9
-33.875
-33.85
-33.825
-33.8
-33.775
-33.75
-33.725
-33.7
-33.675
-33.65
-33.625
-33.6
-33.575
-33.55
-33.525
-33.5
-33.475
-33.45
-33.425
-33.4
-33.375
-33.35
-33.325
-33.3
-33.275
-33.25
-33.225
-33.2
-33.175
-33.15
-33.125
-33.1
-33.075
-33.05
-33.025
-33
-32.975
-32.95
-32.925
-32.9
-32.875
-32.85
-32.825
-32.8
-32.775
-32.75
-32.725
-32.7
-32.675
-32.65
-32.625
-32.6
-32.575
-32.55
-32.525
-32.5
-32.475
-32.45
-32.425
-32.4
-32.375
-32.35
-32.325
-32.3
-32.275
-32.25
-32.225
-32.2
-32.175
-32.15
-32.125
-32.1
-32.075
-32.05
-32.025
-32
-31.975
-31.95
-31.925
-31.9
-31.875
-31.85
-31.825
-31.8
-31.775
-31.75
-31.725
-31.7
-31.675
-31.65
-31.625
-31.6
-31.575
-31.55
-31.525
-31.5
-31.475
-31.45
-31.425
-31.4
-31.375
-31.35
-31.325
-31.3
-31.275
-31.25
-31.225
-31.2
-31.175
-31.15
-31.125
-31.1
-31.075
-31.05
-31.025
-31
-30.975
-30.95
-30.925
-30.9
-30.875
-30.85
-30.825
-30.8
-30.775
-30.75
-30.725
-30.7
-30.675
-30.65
-30.625
-30.6
-30.575
-30.55
-30.525
-30.5
-30.475
-30.45
-30.425
-30.4
-30.375
-30.35
-30.325
-30.3
-30.275
-30.25
-30.225
-30.2
-30.175
-30.15
-30.125
-30.1
-30.075
-30.05
-30.025
-30
-29.975
-29.95
-29.925
-29.9
-29.875
-29.85
-29.825
-29.8
-29.775
-29.75
-29.725
-29.7
-29.675
-29.65
-29.625
-29.6
-29.575
-29.55
-29.525
-29.5
-29.475
-29.45
-29.425
-29.4
-29.375
-29.35
-29.325
-29.3
-29.275
-29.25
-29.225
-29.2
-29.175
-29.15
-29.125
-29.1
-29.075
-29.05
-29.025
-29
-28.975
-28.95
-28.925
-28.9
-28.875
-28.85
-28.825
-28.8
-28.775
-28.75
-28.725
-28.7
-28.675
-28.65
-28.625
-28.6
-28.575
-28.55
-28.525
-28.5
-28.475
-28.45
-28.425
-28.4
-28.375
-28.35
-28.325
-28.3
-28.275
-28.25
-28.225
-28.2
-28.175
-28.15
-28.125
-28.1
-28.075
-28.05
-28.025
-28
-27.975
-27.95
-27.925
-27.9
-27.875
-27.85
-27.825
-27.8
-27.775
-27.75
-27.725
-27.7
-27.675
-27.65
-27.625
-27.6
-27.575
-27.55
-27.525
-27.5
-27.475
-27.45
-27.425
-27.4
-27.375
-27.35
-27.325
-27.3
-27.275
-27.25
-27.225
-27.2
-27.175
-27.15
-27.125
-27.1
-27.075
-27.05
-27.025
-27
-26.975
-26.95
-26.925
-26.9
-26.875
-26.85
-26.825
-26.8
-26.775
-26.75
-26.725
-26.7
-26.675
-26.65
-26.625
-26.6
-26.575
-26.55
-26.525
-26.5
-26.475
-26.45
-26.425
-26.4
-26.375
-26.35
-26.325
-26.3
-26.275
-26.25
-26.225
-26.2
-26.175
-26.15
-26.125
-26.1
-26.075
-26.05
-26.025
-26
-25.975
-25.95
-25.925
-25.9
-25.875
-25.85
-25.825
-25.8
-25.775
-25.75
-25.725
-25.7
-25.675
-25.65
-25.625
-25.6
-25.575
-25.55
-25.525
-25.5
-25.475
-25.45
-25.425
-25.4
-25.375
-25.35
-25.325
-25.3
-25.275
-25.25
-25.225
-25.2
-25.175
-25.15
-25.125
-25.1
-25.075
-25.05
-25.025
-25
-24.975
-24.95
-24.925
-24.9
-24.875
-24.85
-24.825
-24.8
-24.775
-24.75
-24.725
-24.7
-24.675
-24.65
-24.625
-24.6
-24.575
-24.55
-24.525
-24.5
-24.475
-24.45
-24.425
-24.4
-24.375
-24.35
-24.325
-24.3
-24.275
-24.25
-24.225
-24.2
-24.175
-24.15
-24.125
-24.1
-24.075
-24.05
-24.025
-24
-23.975
-23.95
-23.925
-23.9
-23.875
-23.85
-23.825
-23.8
-23.775
-23.75
-23.725
-23.7
-23.675
-23.65
-23.625
-23.6
-23.575
-23.55
-23.525
-23.5
-23.475
-23.45
-23.425
-23.4
-23.375
-23.35
-23.325
-23.3
-23.275
-23.25
-23.225
-23.2
-23.175
-23.15
-23.125
-23.1
-23.075
-23.05
-23.025
-23
-22.975
-22.95
-22.925
-22.9
-22.875
-22.85
-22.825
-22.8
-22.775
-22.75
-22.725
-22.7
-22.675
-22.65
-22.625
-22.6
-22.575
-22.55
-22.525
-22.5
-22.475
-22.45
-22.425
-22.4
-22.375
-22.35
-22.325
-22.3
-22.275
-22.25
-22.225
-22.2
-22.175
-22.15
-22.125
-22.1
-22.075
-22.05
-22.025
-22
-21.975
-21.95
-21.925
-21.9
-21.875
-21.85
-21.825
-21.8
-21.775
-21.75
-21.725
-21.7
-21.675
-21.65
-21.625
-21.6
-21.575
-21.55
-21.525
-21.5
-21.475
-21.45
-21.425
-21.4
-21.375
-21.35
-21.325
-21.3
-21.275
-21.25
-21.225
-21.2
-21.175
-21.15
-21.125
-21.1
-21.075
-21.05
-21.025
-21
-20.975
-20.95
-20.925
-20.9
-20.875
-20.85
-20.825
-20.8
-20.775
-20.75
-20.725
-20.7
-20.675
-20.65
-20.625
-20.6
-20.575
-20.55
-20.525
-20.5
-20.475
-20.45
-20.425
-20.4
-20.375
-20.35
-20.325
-20.3
-20.275
-20.25
-20.225
-20.2
-20.175
-20.15
-20.125
-20.1
-20.075
-20.05
-20.025
-20
VAR_LIST_END
BEGIN
-15.242206,-159.58211
-15.076134,-154.20334
-14.68567,-157.80443
-14.881028,-159.33524
-15.324702,-155.17703
-15.015089,-163.10246
-14.724471,-157.38234
-14.928892,-157.79268
-15.459733,-160.53767
-14.915906,-157.39297
-15.884783,-159.16827
-14.859971,-159.90997
-15.179523,-160.00716
-15.679286,-162.96332
-15.053837,-155.58014
-15.054688,-159.55028
-14.748727,-159.86765
-15.203862,-158.66136
-15.188666,-156.93733
-14.896701,-160.00894
-14.573683,-160.34991
-14.91631,-153.75661
-15.306068,-156.26573
-15.281313,-156.74341
-14.569712,-161.74408
-14.733363,-156.42363
-14.979074,-160.06703
-14.942009,-160.21716
-14.573752,-157.96552
-14.779747,-158.64865
-15.046535,-160.6996
-15.458472,-156.91714
-15.086871,-161.17258
-14.735947,-157.31438
-14.956069,-158.59401
-14.85606,-154.76341
-15.164233,-156.729
-15.040302,-155.89713
-14.773665,-160.81299
-15.268765,-157.82809
-15.217008,-162.11536
-15.029646,-158.2942
-14.933836,-157.67976
-15.099846,-159.33665
-14.959418,-159.85469
-14.988043,-159.40872
-15.658765,-156.93478
-14.953954,-158.13702
-14.773617,-158.85455
-15.050253,-159.20607
-15.047382,-158.04527
-14.980598,-156.3576
-15.385843,-159.25555
-14.949665,-161.07672
-14.502908,-158.76726
-15.199944,-155.07674
-14.940337,-161.66269
-14.870244,-158.40625
-14.997444,-155.69041
-14.878428,-159.44118
-15.34688,-157.25945
-15.24737,-154.10403
-14.862931,-159.65509
-15.24171,-156.98386
-14.612314,-159.754
-15.23656,-158.64551
-14.856491,-159.1684
-15.086761,-160.61678
-14.595078,-159.53477
-14.955503,-155.84482
-15.092273,-157.01614
-15.117146,-159.25076
-15.304824,-155.61028
-14.870643,-158.69687
-14.752625,-160.91672
-14.926965,-159.19414
-14.595975,-157.17143
-15.27839,-158.69649
-14.852464,-159.01633
-14.879953,-157.09271
-15.072474,-157.56052
-14.728995,-153.76962
-14.565454,-157.18806
-15.205783,-157.39285
-15.201982,-159.79828
-14.624053,-157.50592
-14.937243,-157.58838
-14.84184,-157.56317
-14.985618,-159.8877
-14.97145,-157.99969
-15.247087,-158.30299
-15.514366,-157.68391
-14.760729,-156.71703
-15.173794,-158.8752
-15.020766,-158.54965
-15.228689,-156.07254
-15.149971,-160.6828
-15.231829,-157.19681
-15.246777,-157.76547
-15.249443,-159.24843
-15.24003,-157.44662
-15.83654,-160.75954
-15.220194,-157.9146
-14.798503,-159.98184
-14.889656,-156.17574
-15.526586,-156.88438
-15.212288,-154.30382
-15.128243,-156.87462
-14.957351,-159.3488
-14.710789,-155.99596
-14.68492,-156.54324
-14.712702,-160.13971
-14.801742,-159.54623
-14.742178,-155.79694
-15.117279,-156.03537
-14.936046,-159.76427
-14.784439,-159.18404
-15.313628,-157.33913
-15.328395,-158.31857
-14.616349,-159.91603
-14.971829,-159.64832
-15.262845,-158.06874
-15.485879,-158.45157
-15.070621,-159.27499
-14.587852,-157.51016
-15.022883,-159.62463
-15.203133,-157.65854
-15.008519,-161.30788
-15.280792,-158.78143
-15.447775,-161.70496
-15.038693,-159.44472
-14.574227,-161.14491
-15.365476,-157.30716
-14.730399,-157.53961
-15.16116,-157.42926
-15.074183,-156.56648
-15.177037,-159.38699
-15.219872,-156.12486
-14.791445,-159.08179
-14.942749,-157.84744
-15.025738,-158.18825
-15.451546,-162.00713
-15.033213,-157.5403
-15.070441,-159.53569
-15.259084,-158.17085
-15.324574,-158.81963
-15.077809,-158.04474
-15.184994,-159.42755
-15.414305,-157.54169
-15.263342,-154.50876
-14.817392,-156.67291
-14.877674,-159.37216
-15.167739,-159.06091
-15.063796,-157.52272
-15.179276,-158.69832
-15.132187,-157.01135
-15.060558,-159.10063
-15.104824,-159.36658
-14.913694,-157.69875
-14.773157,-157.05008
-14.872084,-159.71979
-15.137542,-157.87498
-15.172181,-157.44228
-15.158442,-155.65021
-14.561346,-157.67101
-14.862553,-158.14828
-15.343975,-157.73412
-15.385167,-156.98984
-15.029544,-161.00937
-14.88554,-157.99248
-15.350446,-160.06734
-14.993032,-157.63708
-15.099749,-159.6861
-15.025646,-156.48322
-15.433902,-160.45901
-15.031241,-159.26866
-15.316481,-157.03059
-15.014462,-156.44272
-15.073373,-158.44
-15.235629,-161.64406
-14.880759,-161.37804
-15.052127,-157.91443
-15.032027,-158.00768
-15.313519,-158.81125
-14.992057,-161.95694
-14.90875,-156.97873
-14.889323,-159.60034
-15.23895,-158.21533
-14.69831,-156.60365
-15.054104,-158.93816
-14.93072,-156.09315
-15.316652,-158.11597
-15.131586,-157.71884
-14.882548,-162.34894
-14.824121,-161.00006
-15.389423,-156.32889
-15.111468,-161.03578
-15.321801,-159.74966
-15.006047,-159.41156
-15.155828,-159.3309
-15.031415,-158.00937
-14.775518,-158.106
-15.257987,-158.23938
-14.900617,-159.15686
-14.978775,-159.8378
-14.84969,-158.93321
-14.860713,-158.19873
-15.031923,-160.75169
-15.003119,-158.84497
-15.335083,-157.48196
-14.868607,-159.2002
-14.910665,-157.8938
-14.877376,-158.20154
-15.490647,-159.47755
-15.084654,-157.51863
-15.207421,-156.81895
-15.090448,-159.46466
-15.086969,-159.13434
-15.270729,-160.3288
-14.918426,-157.40698
-15.272499,-159.9996
-15.069031,-158.60245
-14.891569,-157.99641
-15.116938,-159.24483
-15.324542,-155.91895
-15.114006,-157.07532
-14.747252,-156.83641
-14.977345,-156.0266
-15.043144,-157.71873
-15.073868,-160.92117
-15.1821,-158.37326
-14.872052,-158.37701
-14.871396,-159.91811
-15.16898,-157.35287
-15.094893,-160.21953
-14.897182,-157.98303
-14.944538,-157.54453
-14.765361,-158.38705
-15.081841,-157.6866
-15.318493,-156.87465
-15.083247,-157.60397
-15.100993,-155.82056
-15.05512,-157.27872
-15.125019,-159.05318
-15.271007,-159.01265
-15.05498,-157.03056
-15.080418,-158.47621
-14.947961,-156.6001
-14.793358,-158.59695
-15.137268,-158.0533
-14.925768,-159.92447
-15.214168,-156.98357
-15.136451,-159.84377
-15.194908,-159.01157
-14.804307,-159.03511
-15.149185,-156.45912
-15.159212,-157.55136
-15.250292,-156.78941
-14.816987,-160.96556
-15.370598,-159.14142
-15.006327,-159.29906
-15.073362,-158.58568
-15.095676,-157.336
-14.977222,-157.63216
-15.035562,-157.46822
-15.011177,-158.11684
-15.055429,-158.19728
-15.090587,-159.13402
-15.114587,-160.47009
-15.087614,-158.95317
-15.272027,-159.97963
-15.421049,-159.56422
-15.176093,-157.34529
-14.623403,-158.77005
-14.977079,-157.86566
-14.879949,-157.76978
-15.147973,-159.16476
-15.091172,-157.33534
-14.909953,-157.83844
-15.07825,-156.01897
-14.98767,-158.68439
-14.840961,-158.64803
-15.402015,-158.54968
-15.025235,-161.2123
-15.255652,-159.30034
-14.942743,-161.41751
-15.119022,-157.97665
-14.905136,-158.24562
-15.103124,-159.37289
-15.043748,-158.42021
-15.142609,-158.67926
-14.910648,-158.72752
-15.218284,-158.38167
-14.761278,-158.9725
-14.999783,-159.11198
-15.124231,-159.95555
-15.018366,-157.80087
-14.912551,-158.61128
-15.043396,-159.65604
-15.255087,-157.75542
-14.73831,-158.98831
-15.124682,-157.5484
-14.928553,-158.31384
-15.163116,-159.41515
-14.747087,-159.37558
-15.193497,-158.39461
-14.948957,-157.82095
-15.087592,-157.94017
-15.137876,-158.91887
-14.93466,-159.11429
-15.236616,-158.85149
-14.878806,-159.29254
-15.077067,-158.52184
-14.941574,-157.06882
-14.942356,-157.5941
-15.099509,-157.70746
-14.866925,-158.89615
-15.094968,-157.66478
-15.171859,-158.1953
-15.172744,-159.23508
-14.947061,-157.77406
-15.030788,-158.34285
-14.862554,-159.20325
-15.035985,-160.06841
-15.15945,-157.8763
-14.686854,-158.70036
-14.929737,-159.50826
-15.08267,-159.11868
-15.091859,-159.68633
-15.16518,-158.28273
-15.183249,-158.40013
-15.340549,-158.7697
-15.200487,-159.21445
-15.192101,-158.87144
-15.275396,-160.4696
-14.946406,-159.48814
-14.911414,-158.49872
-15.401251,-157.43425
-15.068615,-158.96069
-15.056818,-157.23779
-15.158504,-158.15736
-14.945926,-159.84843
-15.094392,-158.40248
-15.00396,-159.44556
-15.03316,-158.51811
-15.108423,-157.45282
-14.981026,-157.40764
-14.94476,-158.17155
-15.031984,-158.76576
-15.017138,-158.55545
-15.095832,-158.24966
-15.117697,-158.64252
-14.872898,-158.42671
-15.018817,-156.68341
-14.795986,-156.53088
-15.145929,-158.70317
-15.082181,-157.39359
-14.883758,-159.98409
-15.165307,-159.60736
-15.016404,-159.14041
-15.050492,-158.58591
-15.132074,-158.44576
-15.063797,-158.91425
-14.966835,-158.4673
-15.073135,-158.67009
-15.097308,-158.92331
-15.097437,-158.15024
-15.084804,-157.17116
-14.913177,-158.46098
-14.886491,-157.78442
-15.082436,-159.30124
-14.87079,-158.46288
-14.949042,-159.02907
-14.956273,-157.97807
-15.293023,-157.90198
-15.085117,-156.85686
-15.089149,-158.93227
-14.873353,-159.23105
-14.759347,-157.82329
-14.973856,-158.7361
-15.128616,-157.74139
-15.074147,-159.99178
-15.198147,-159.25003
-15.124539,-159.09013
-15.136976,-157.90756
-15.145571,-156.97627
-14.966133,-159.12105
-15.182118,-157.69418
-14.983795,-158.88916
-14.986301,-158.60298
-15.271219,-158.33749
-14.9984,-158.4075
-15.073799,-158.3317
-15.082862,-157.7632
-15.000304,-157.20819
-15.165047,-158.76256
-15.109901,-158.8293
-14.996964,-158.08463
-14.775181,-158.32356
-15.117591,-159.70027
-15.280235,-157.94595
-15.000192,-158.75282
-15.091166,-157.84512
-14.962226,-157.54568
-15.112925,-157.8877
-15.080812,-158.60023
-14.960865,-157.75909
-15.10383,-156.95871
-15.0378,-158.13007
-15.010327,-157.92322
-15.235697,-157.8035
-14.931787,-157.99835
-15.113068,-158.74043
-14.99261,-159.79648
-14.959056,-158.93163
-15.038847,-158.81218
-15.115849,-159.59512
-15.108319,-159.06784
-15.00983,-157.82242
-15.003627,-158.83429
-15.158499,-158.3779
-15.045796,-159.15103
-15.1742,-157.45338
-14.913839,-159.55417
-15.028071,-160.16661
-15.140861,-158.43472
-15.150005,-158.37036
-15.095163,-160.25642
-15.285205,-159.75061
-14.935847,-159.07492
-15.04852,-159.5798
-15.170087,-158.41418
-15.049429,-157.75282
-15.106081,-159.15302
-14.949314,-158.34094
-14.972577,-158.43114
-15.102859,-158.27061
-14.804398,-158.7012
-15.166759,-158.18158
-14.934511,-158.03418
-15.127287,-157.81139
-15.10888,-159.15982
-14.829733,-158.84718
-14.994949,-158.90489
-15.17197,-157.72575
-14.956215,-158.03503
-15.124174,-158.26631
-15.09637,-158.86934
-15.027422,-159.22157
-14.979949,-158.23604
-14.795781,-158.86772
-15.071802,-158.16927
-14.851024,-158.64224
-14.867698,-157.49417
-15.031634,-158.43413
-15.0246,-157.77376
-15.11485,-158.35002
-15.179385,-157.8335
-15.190286,-158.75517
-14.955981,-160.39717
-15.03062,-158.76537
-15.100924,-159.01958
-15.156281,-159.52931
-15.20526,-158.47009
-14.930554,-157.83911
-14.997279,-158.51634
-15.200289,-158.60193
-15.230639,-158.87994
-14.985558,-159.49553
-15.084947,-158.98845
-15.129214,-159.27487
-14.976389,-158.59586
-15.011765,-158.76949
-15.069995,-158.38574
-15.069117,-157.54086
-14.96612,-158.60536
-15.058199,-158.03876
-15.177661,-158.24286
-15.053582,-158.34839
-15.005795,-158.86084
-15.069082,-159.88185
-15.226564,-158.3103
-15.091155,-158.39265
-15.206433,-158.48981
-14.924063,-159.10777
-15.108472,-159.22061
-15.127997,-159.27643
-15.058871,-158.37498
-14.955551,-157.49176
-14.95549,-158.25363
-15.104388,-158.57086
-14.898442,-158.40741
-15.086892,-158.0188
-15.044298,-158.28816
-14.920507,-158.81509
-14.973241,-158.15712
-15.010747,-157.78172
-15.05158,-158.86044
-15.056474,-157.54948
-15.037233,-158.15486
-15.085811,-158.84546
-14.980288,-158.62355
-15.077522,-159.04005
-15.061031,-158.59325
-15.026731,-157.58766
-15.112926,-158.54904
-14.93886,-158.22038
-15.265645,-158.53624
-15.179029,-158.40427
-15.057587,-158.95207
-14.94873,-158.82246
-15.070961,-157.1846
-15.156476,-159.01665
-14.932597,-157.99937
-15.008019,-157.82994
-15.053213,-157.50957
-15.064332,-158.08244
-15.023206,-159.41125
-15.078954,-158.03699
-15.128406,-159.24939
-15.153733,-157.94072
-15.009543,-159.31587
-15.097837,-159.58392
-15.039264,-159.31531
-15.15024,-158.73466
-15.021245,-158.11259
-15.181197,-158.98212
-14.852873,-159.02373
-15.046437,-158.20557
-15.018861,-158.72035
-14.952287,-157.48982
-15.083742,-158.36137
-15.004854,-158.54597
-14.845201,-158.36166
-14.93836,-158.65112
-14.966346,-158.30289
-15.185878,-158.72833
-15.127024,-158.43971
-15.129722,-157.856
-14.999546,-158.44279
-14.929169,-158.4252
-14.909044,-158.68413
-14.994641,-158.20409
-14.984619,-157.71295
-15.167876,-158.85167
-14.996566,-158.3278
-15.040227,-158.44675
-15.022826,-157.40964
-15.160514,-158.97902
-15.168254,-158.07718
-15.038503,-157.75313
-15.032434,-158.33958
-15.013478,-158.34781
-15.085519,-157.7738
-14.971513,-158.06828
-15.006373,-158.246
-15.016254,-158.96005
-15.003929,-158.62225
-15.1027,-158.05742
-15.108287,-158.30174
-15.109264,-158.4687
-15.026896,-158.55367
-15.116708,-159.09897
-15.034148,-159.35686
-14.980589,-159.17928
-14.931632,-158.23773
-14.989432,-158.61746
-15.04164,-158.5979
-14.964112,-159.20113
-15.049923,-158.20068
-15.05232,-158.19571
-15.084931,-158.68086
-15.032857,-158.46089
-14.991711,-157.79031
-15.016796,-158.89949
-14.989449,-159.11787
