CITIFILE A.01.01
!Agilent Technologies,N5230C,MY48100142,A.08.04.10
!Agilent N5230C: A.08.04.10
!Format: LogMag/Angle
!Date: Tuesday, August 11, 2020 12:40:51
NAME CH1_DATA
VAR Power MAG 801
DATA S11 DBANGLE
DATA S21 DBANGLE
DATA S12 DBANGLE
DATA S22 DBANGLE
VAR_LIST_BEGIN
-40
-39.975
-39.95
-39.925
-39.9
-39.875
-39.85
-39.825
-39.8
-39.775
-39.75
-39.725
-39.7
-39.675
-39.65
-39.625
-39.6
-39.575
-39.55
-39.525
-39.5
-39.475
-39.45
-39.425
-39.4
-39.375
-39.35
-39.325
-39.3
-39.275
-39.25
-39.225
-39.2
-39.175
-39.15
-39.125
-39.1
-39.075
-39.05
-39.025
-39
-38.975
-38.95
-38.925
-38.9
-38.875
-38.85
-38.825
-38.8
-38.775
-38.75
-38.725
-38.7
-38.675
-38.65
-38.625
-38.6
-38.575
-38.55
-38.525
-38.5
-38.475
-38.45
-38.425
-38.4
-38.375
-38.35
-38.325
-38.3
-38.275
-38.25
-38.225
-38.2
-38.175
-38.15
-38.125
-38.1
-38.075
-38.05
-38.025
-38
-37.975
-37.95
-37.925
-37.9
-37.875
-37.85
-37.825
-37.8
-37.775
-37.75
-37.725
-37.7
-37.675
-37.65
-37.625
-37.6
-37.575
-37.55
-37.525
-37.5
-37.475
-37.45
-37.425
-37.4
-37.375
-37.35
-37.325
-37.3
-37.275
-37.25
-37.225
-37.2
-37.175
-37.15
-37.125
-37.1
-37.075
-37.05
-37.025
-37
-36.975
-36.95
-36.925
-36.9
-36.875
-36.85
-36.825
-36.8
-36.775
-36.75
-36.725
-36.7
-36.675
-36.65
-36.625
-36.6
-36.575
-36.55
-36.525
-36.5
-36.475
-36.45
-36.425
-36.4
-36.375
-36.35
-36.325
-36.3
-36.275
-36.25
-36.225
-36.2
-36.175
-36.15
-36.125
-36.1
-36.075
-36.05
-36.025
-36
-35.975
-35.95
-35.925
-35.9
-35.875
-35.85
-35.825
-35.8
-35.775
-35.75
-35.725
-35.7
-35.675
-35.65
-35.625
-35.6
-35.575
-35.55
-35.525
-35.5
-35.475
-35.45
-35.425
-35.4
-35.375
-35.35
-35.325
-35.3
-35.275
-35.25
-35.225
-35.2
-35.175
-35.15
-35.125
-35.1
-35.075
-35.05
-35.025
-35
-34.975
-34.95
-34.925
-34.9
-34.875
-34.85
-34.825
-34.8
-34.775
-34.75
-34.725
-34.7
-34.675
-34.65
-34.625
-34.6
-34.575
-34.55
-34.525
-34.5
-34.475
-34.45
-34.425
-34.4
-34.375
-34.35
-34.325
-34.3
-34.275
-34.25
-34.225
-34.2
-34.175
-34.15
-34.125
-34.1
-34.075
-34.05
-34.025
-34
-33.975
-33.95
-33.925
-33.9
-33.875
-33.85
-33.825
-33.8
-33.775
-33.75
-33.725
-33.7
-33.675
-33.65
-33.625
-33.6
-33.575
-33.55
-33.525
-33.5
-33.475
-33.45
-33.425
-33.4
-33.375
-33.35
-33.325
-33.3
-33.275
-33.25
-33.225
-33.2
-33.175
-33.15
-33.125
-33.1
-33.075
-33.05
-33.025
-33
-32.975
-32.95
-32.925
-32.9
-32.875
-32.85
-32.825
-32.8
-32.775
-32.75
-32.725
-32.7
-32.675
-32.65
-32.625
-32.6
-32.575
-32.55
-32.525
-32.5
-32.475
-32.45
-32.425
-32.4
-32.375
-32.35
-32.325
-32.3
-32.275
-32.25
-32.225
-32.2
-32.175
-32.15
-32.125
-32.1
-32.075
-32.05
-32.025
-32
-31.975
-31.95
-31.925
-31.9
-31.875
-31.85
-31.825
-31.8
-31.775
-31.75
-31.725
-31.7
-31.675
-31.65
-31.625
-31.6
-31.575
-31.55
-31.525
-31.5
-31.475
-31.45
-31.425
-31.4
-31.375
-31.35
-31.325
-31.3
-31.275
-31.25
-31.225
-31.2
-31.175
-31.15
-31.125
-31.1
-31.075
-31.05
-31.025
-31
-30.975
-30.95
-30.925
-30.9
-30.875
-30.85
-30.825
-30.8
-30.775
-30.75
-30.725
-30.7
-30.675
-30.65
-30.625
-30.6
-30.575
-30.55
-30.525
-30.5
-30.475
-30.45
-30.425
-30.4
-30.375
-30.35
-30.325
-30.3
-30.275
-30.25
-30.225
-30.2
-30.175
-30.15
-30.125
-30.1
-30.075
-30.05
-30.025
-30
-29.975
-29.95
-29.925
-29.9
-29.875
-29.85
-29.825
-29.8
-29.775
-29.75
-29.725
-29.7
-29.675
-29.65
-29.625
-29.6
-29.575
-29.55
-29.525
-29.5
-29.475
-29.45
-29.425
-29.4
-29.375
-29.35
-29.325
-29.3
-29.275
-29.25
-29.225
-29.2
-29.175
-29.15
-29.125
-29.1
-29.075
-29.05
-29.025
-29
-28.975
-28.95
-28.925
-28.9
-28.875
-28.85
-28.825
-28.8
-28.775
-28.75
-28.725
-28.7
-28.675
-28.65
-28.625
-28.6
-28.575
-28.55
-28.525
-28.5
-28.475
-28.45
-28.425
-28.4
-28.375
-28.35
-28.325
-28.3
-28.275
-28.25
-28.225
-28.2
-28.175
-28.15
-28.125
-28.1
-28.075
-28.05
-28.025
-28
-27.975
-27.95
-27.925
-27.9
-27.875
-27.85
-27.825
-27.8
-27.775
-27.75
-27.725
-27.7
-27.675
-27.65
-27.625
-27.6
-27.575
-27.55
-27.525
-27.5
-27.475
-27.45
-27.425
-27.4
-27.375
-27.35
-27.325
-27.3
-27.275
-27.25
-27.225
-27.2
-27.175
-27.15
-27.125
-27.1
-27.075
-27.05
-27.025
-27
-26.975
-26.95
-26.925
-26.9
-26.875
-26.85
-26.825
-26.8
-26.775
-26.75
-26.725
-26.7
-26.675
-26.65
-26.625
-26.6
-26.575
-26.55
-26.525
-26.5
-26.475
-26.45
-26.425
-26.4
-26.375
-26.35
-26.325
-26.3
-26.275
-26.25
-26.225
-26.2
-26.175
-26.15
-26.125
-26.1
-26.075
-26.05
-26.025
-26
-25.975
-25.95
-25.925
-25.9
-25.875
-25.85
-25.825
-25.8
-25.775
-25.75
-25.725
-25.7
-25.675
-25.65
-25.625
-25.6
-25.575
-25.55
-25.525
-25.5
-25.475
-25.45
-25.425
-25.4
-25.375
-25.35
-25.325
-25.3
-25.275
-25.25
-25.225
-25.2
-25.175
-25.15
-25.125
-25.1
-25.075
-25.05
-25.025
-25
-24.975
-24.95
-24.925
-24.9
-24.875
-24.85
-24.825
-24.8
-24.775
-24.75
-24.725
-24.7
-24.675
-24.65
-24.625
-24.6
-24.575
-24.55
-24.525
-24.5
-24.475
-24.45
-24.425
-24.4
-24.375
-24.35
-24.325
-24.3
-24.275
-24.25
-24.225
-24.2
-24.175
-24.15
-24.125
-24.1
-24.075
-24.05
-24.025
-24
-23.975
-23.95
-23.925
-23.9
-23.875
-23.85
-23.825
-23.8
-23.775
-23.75
-23.725
-23.7
-23.675
-23.65
-23.625
-23.6
-23.575
-23.55
-23.525
-23.5
-23.475
-23.45
-23.425
-23.4
-23.375
-23.35
-23.325
-23.3
-23.275
-23.25
-23.225
-23.2
-23.175
-23.15
-23.125
-23.1
-23.075
-23.05
-23.025
-23
-22.975
-22.95
-22.925
-22.9
-22.875
-22.85
-22.825
-22.8
-22.775
-22.75
-22.725
-22.7
-22.675
-22.65
-22.625
-22.6
-22.575
-22.55
-22.525
-22.5
-22.475
-22.45
-22.425
-22.4
-22.375
-22.35
-22.325
-22.3
-22.275
-22.25
-22.225
-22.2
-22.175
-22.15
-22.125
-22.1
-22.075
-22.05
-22.025
-22
-21.975
-21.95
-21.925
-21.9
-21.875
-21.85
-21.825
-21.8
-21.775
-21.75
-21.725
-21.7
-21.675
-21.65
-21.625
-21.6
-21.575
-21.55
-21.525
-21.5
-21.475
-21.45
-21.425
-21.4
-21.375
-21.35
-21.325
-21.3
-21.275
-21.25
-21.225
-21.2
-21.175
-21.15
-21.125
-21.1
-21.075
-21.05
-21.025
-21
-20.975
-20.95
-20.925
-20.9
-20.875
-20.85
-20.825
-20.8
-20.775
-20.75
-20.725
-20.7
-20.675
-20.65
-20.625
-20.6
-20.575
-20.55
-20.525
-20.5
-20.475
-20.45
-20.425
-20.4
-20.375
-20.35
-20.325
-20.3
-20.275
-20.25
-20.225
-20.2
-20.175
-20.15
-20.125
-20.1
-20.075
-20.05
-20.025
-20
VAR_LIST_END
BEGIN
-15.008686,-162.43788
-14.46197,-160.91663
-15.198963,-162.82935
-15.349036,-154.34724
-15.537029,-151.37939
-14.486366,-155.39281
-14.41363,-164.57036
-16.448486,-164.07404
-14.81166,-157.76834
-14.265559,-158.29845
-14.011152,-155.96382
-15.487009,-157.33354
-14.718002,-159.45886
-15.471558,-163.79378
-15.162917,-159.806
-14.363996,-161.74699
-14.705081,-160.10797
-14.913217,-157.87122
-14.92164,-157.85689
-15.547855,-154.74417
-15.821708,-157.71967
-15.023144,-158.95683
-16.290804,-159.00085
-14.612399,-156.5699
-15.730755,-155.83698
-14.998267,-154.52541
-14.12795,-161.88434
-15.901174,-155.13028
-15.460244,-159.97644
-14.962114,-163.2749
-15.303402,-160.19414
-14.969498,-155.5943
-15.754807,-155.53795
-15.115907,-158.17656
-15.444795,-150.18269
-15.310252,-152.50375
-14.953192,-162.78366
-15.178068,-158.85368
-14.425333,-156.70496
-14.381832,-161.55096
-14.535001,-153.95865
-15.056144,-155.53859
-15.390269,-156.95024
-15.256169,-161.26439
-14.712909,-162.52841
-15.214856,-158.50902
-14.81881,-153.95267
-14.566094,-157.47861
-15.584021,-157.8308
-15.016821,-153.48601
-14.75613,-158.73811
-15.677831,-156.44832
-15.536845,-159.87889
-14.251157,-163.44344
-15.122289,-159.09297
-15.105387,-157.91234
-16.52813,-155.99135
-15.261169,-157.26608
-15.637236,-154.8239
-15.277799,-154.94148
-14.487374,-154.40346
-14.958165,-161.34775
-15.594261,-155.32889
-15.714816,-164.0432
-15.988806,-155.51115
-14.731134,-155.27986
-14.805345,-157.20773
-14.41222,-160.44193
-14.790419,-160.23001
-15.737842,-164.08719
-15.217245,-161.34981
-14.695502,-161.83211
-14.299173,-160.70828
-14.560546,-157.67575
-15.051397,-156.57008
-15.188853,-155.73645
-14.773249,-161.7655
-14.601723,-160.56393
-15.779457,-162.35921
-15.208132,-156.75038
-14.347901,-165.93491
-15.179229,-155.23126
-14.361626,-157.7769
-15.435036,-158.95844
-15.028544,-157.63937
-14.682752,-156.5188
-14.787125,-158.54668
-14.802732,-161.14368
-15.816407,-162.75285
-15.813046,-158.71367
-14.327974,-161.87193
-14.768329,-160.41209
-14.7025,-156.70471
-14.752544,-155.99477
-14.904731,-159.10516
-14.857474,-156.85394
-15.352827,-157.81697
-13.870053,-161.26271
-15.655802,-154.6216
-14.503907,-161.26221
-15.081999,-155.987
-14.890178,-162.93024
-15.08761,-161.74161
-14.799596,-156.96815
-15.196108,-156.21251
-14.512076,-162.21635
-15.140059,-157.56671
-16.337929,-155.71234
-15.412456,-161.05516
-15.589445,-157.39986
-14.930524,-158.13881
-14.864659,-157.22319
-14.750048,-152.62289
-14.5996,-162.50896
-14.690544,-159.97845
-15.040049,-161.4245
-14.750104,-157.51035
-15.275669,-154.73602
-14.55006,-157.07996
-14.658057,-163.57243
-14.342132,-159.42815
-15.533207,-160.06076
-15.034527,-156.62621
-15.305529,-160.90332
-14.818748,-157.13666
-15.371972,-163.62465
-15.365815,-158.40128
-15.107327,-152.27177
-14.609755,-154.80449
-14.518288,-155.64273
-14.253683,-160.85966
-14.938648,-158.70166
-15.786744,-161.29271
-14.518794,-157.28886
-15.51564,-157.22299
-15.246732,-160.95627
-15.26469,-156.64145
-15.500525,-156.43059
-15.215962,-159.63986
-14.85311,-160.26711
-14.907513,-157.297
-15.214837,-159.02962
-14.989838,-155.42924
-14.641009,-153.24556
-14.934813,-153.36592
-14.82165,-158.51794
-14.862441,-156.8188
-14.861176,-158.88963
-14.842769,-158.33548
-14.210854,-157.67401
-15.511034,-157.91158
-14.595765,-157.46773
-15.818802,-158.8651
-14.838516,-162.69072
-14.24577,-157.03052
-15.374744,-155.77316
-15.073791,-156.13272
-15.148334,-164.424
-15.505831,-157.55748
-15.226269,-157.11513
-15.095471,-156.51849
-15.346351,-159.23026
-15.008173,-160.98871
-14.686319,-162.20815
-14.979559,-161.19981
-16.053368,-165.35005
-15.248364,-152.22614
-14.657606,-153.71156
-15.170794,-156.48099
-15.136147,-162.77321
-16.0236,-157.99222
-15.589781,-156.4259
-15.269279,-160.89746
-14.750125,-160.1745
-15.060792,-164.40115
-15.456395,-162.06345
-14.956446,-158.97336
-14.845532,-161.58014
-15.365182,-157.56961
-14.902645,-158.84807
-15.005543,-160.68758
-14.359921,-157.09012
-15.318707,-155.46121
-15.065862,-163.67303
-15.56274,-156.8214
-14.762447,-157.114
-14.984115,-159.31322
-15.112677,-156.33769
-14.2957,-162.5197
-14.961047,-154.29247
-14.801897,-159.14758
-15.18096,-158.96951
-15.208771,-159.08107
-15.552152,-158.59445
-15.354215,-157.2533
-14.982087,-157.14647
-14.623272,-159.89867
-14.506221,-161.16396
-15.176918,-163.60144
-14.741285,-162.33536
-15.212605,-156.67308
-14.868111,-157.39888
-14.488285,-159.89505
-14.325334,-155.23436
-15.660808,-158.80002
-15.543228,-160.12053
-14.917579,-158.86121
-14.343049,-156.52228
-14.699508,-158.94713
-15.161364,-157.64932
-15.023674,-159.83263
-15.257979,-155.13274
-14.289944,-157.09406
-15.046973,-155.7377
-14.32058,-156.97853
-15.492776,-159.80885
-14.599332,-154.57382
-14.858884,-158.90578
-15.05674,-161.1434
-14.507705,-158.46352
-14.957196,-158.59901
-14.799566,-155.96851
-14.656113,-155.93344
-15.207968,-157.68555
-14.905787,-155.42621
-15.012287,-158.71556
-15.166727,-155.03793
-15.467835,-157.76146
-15.133012,-157.85631
-15.243856,-153.89398
-15.116774,-158.49556
-14.636978,-158.19287
-14.881942,-156.0116
-15.264689,-158.63771
-15.099798,-156.30809
-14.672327,-157.15131
-14.92856,-161.94655
-15.016286,-161.36584
-15.168505,-155.28252
-14.859034,-159.4915
-15.625191,-158.51802
-15.167578,-156.94775
-15.258131,-159.39174
-14.951106,-154.42197
-15.372467,-156.9312
-15.029532,-157.23251
-15.292087,-158.07634
-15.662888,-161.35701
-14.958005,-160.03172
-15.010534,-156.77892
-14.922388,-159.43994
-15.197558,-157.0634
-14.827548,-157.40771
-14.65211,-153.19615
-14.890517,-159.91698
-15.400309,-160.48914
-14.944493,-160.02512
-14.79855,-157.35095
-14.803171,-157.86304
-15.063596,-158.08501
-14.569332,-157.56287
-14.403222,-162.79697
-14.888471,-158.36981
-15.079954,-157.67975
-15.033826,-161.9028
-14.915961,-160.00926
-15.314863,-161.46631
-14.64461,-159.89049
-14.967505,-155.57547
-14.939604,-158.99767
-15.037047,-161.44623
-14.948265,-161.78294
-14.939854,-158.20851
-15.23093,-154.75711
-14.944406,-161.213
-15.309076,-158.47218
-15.323428,-158.81737
-14.500627,-156.36929
-15.187985,-158.73509
-15.444473,-155.76743
-15.722024,-158.89243
-15.070887,-156.8504
-15.222278,-158.50012
-15.162999,-157.27904
-14.844949,-157.5601
-14.826737,-156.59868
-15.037875,-158.92094
-14.477167,-161.18059
-14.534651,-158.37675
-15.454479,-158.11545
-14.939749,-157.73557
-15.216787,-156.98334
-14.807953,-157.14781
-14.515273,-156.19852
-15.06571,-156.99544
-15.093511,-159.34099
-15.200145,-159.17894
-15.427848,-160.98518
-15.283457,-160.58257
-14.559273,-158.6256
-15.231286,-159.05614
-15.359369,-155.45366
-14.973303,-158.08348
-15.270473,-158.95146
-14.900117,-162.28783
-15.228662,-158.7032
-15.035769,-158.35194
-15.229205,-157.69943
-14.937845,-159.78001
-14.958303,-158.62692
-15.259774,-157.07492
-15.437281,-159.80922
-14.648238,-160.75888
-15.098533,-157.46729
-14.647325,-159.22598
-15.264255,-157.14792
-15.399076,-157.77397
-14.673691,-156.6004
-14.517022,-156.5777
-14.803851,-157.33127
-15.155173,-158.97668
-15.247558,-158.57016
-15.344332,-157.84676
-14.62073,-158.63429
-15.446042,-154.08685
-15.010912,-160.90755
-15.230855,-160.4969
-14.792403,-155.42174
-14.925499,-157.88588
-15.020276,-157.93178
-15.310473,-156.86385
-15.117097,-160.59486
-14.554522,-156.30397
-15.024061,-158.05852
-14.887876,-156.47948
-14.970001,-159.96091
-15.19988,-156.22963
-15.16793,-160.96686
-15.264129,-160.01729
-14.8277,-158.60677
-15.336968,-158.68848
-14.917079,-159.91122
-15.22086,-158.29222
-15.337921,-157.82137
-15.151335,-157.80045
-15.065495,-160.48756
-14.884045,-158.45619
-15.218912,-156.84222
-14.929887,-160.28404
-15.021471,-160.06567
-15.206718,-157.97173
-14.717819,-158.41879
-14.916368,-155.02682
-14.783029,-155.62854
-14.936019,-158.5526
-15.398957,-160.31638
-14.617229,-160.01025
-15.192282,-156.7197
-14.710215,-157.70903
-15.128943,-156.42143
-14.851928,-157.94626
-14.910213,-156.48119
-14.901986,-159.37737
-15.460889,-157.98215
-15.652901,-158.56055
-15.207775,-157.03758
-14.808558,-156.13257
-15.15749,-161.0074
-15.378092,-160.31119
-15.229898,-157.53294
-15.17176,-157.9978
-15.194164,-156.81033
-15.477132,-161.61327
-15.292648,-156.44789
-15.037532,-156.02719
-15.062599,-157.33278
-15.156758,-159.12766
-15.137653,-158.26721
-15.402231,-158.9935
-14.518208,-156.77701
-14.874957,-157.39076
-15.421933,-159.26561
-14.941144,-157.36465
-14.824782,-157.88696
-14.731498,-158.62302
-15.276006,-158.60776
-14.983024,-156.73831
-14.928335,-158.90541
-15.39452,-161.31206
-14.810948,-158.34744
-15.072638,-159.56343
-15.169514,-156.53256
-15.192345,-156.23618
-14.623586,-159.68558
-14.977873,-157.31369
-15.275891,-158.3063
-15.384364,-156.96391
-14.965146,-161.4556
-15.031761,-158.74969
-15.127965,-158.04839
-14.910038,-160.02892
-15.184727,-156.80602
-15.164101,-157.75937
-15.11566,-160.20438
-15.213481,-156.55455
-15.002266,-159.79924
-15.14084,-159.23793
-15.070435,-156.23898
-15.02482,-160.46948
-15.095303,-158.96219
-14.729804,-158.47867
-15.21575,-159.29395
-15.109011,-159.72066
-14.91169,-158.12471
-15.020643,-158.16525
-15.330563,-157.31818
-15.240576,-161.44545
-15.022261,-157.58316
-14.586449,-159.7776
-15.024696,-157.04492
-15.266872,-158.24718
-15.062987,-157.02577
-15.356546,-160.14912
-14.734327,-158.74077
-14.910902,-159.50212
-14.876601,-159.46657
-14.924479,-157.39212
-14.882793,-157.41014
-14.796702,-157.91901
-15.063201,-157.49121
-14.780603,-157.99884
-14.803652,-159.25879
-15.347048,-157.9888
-15.165596,-156.90775
-15.022923,-156.76244
-15.046874,-159.46349
-15.162455,-155.95433
-14.783255,-159.39435
-14.932273,-160.21338
-15.293728,-158.04428
-14.945124,-156.40886
-15.32544,-160.21326
-15.105839,-158.47562
-14.777246,-157.61606
-15.07965,-155.87514
-15.392138,-158.03384
-14.969888,-161.05717
-14.859085,-157.5444
-14.849719,-157.60387
-14.97658,-159.26808
-15.161689,-159.42781
-15.086937,-155.42737
-15.013162,-159.34109
-15.167035,-158.00206
-15.128259,-158.33774
-14.963545,-158.75558
-14.976508,-158.97012
-15.213292,-158.41277
-14.639023,-160.14537
-15.09173,-160.12535
-14.938877,-157.45073
-15.117049,-159.00093
-14.984976,-158.32199
-14.650199,-158.93645
-15.10594,-158.3465
-15.018427,-159.42264
-15.19476,-157.62306
-15.202589,-160.11264
-15.41617,-158.27563
-15.216108,-158.23875
-15.15428,-159.51256
-14.837708,-157.49704
-14.944465,-160.3253
-15.006563,-158.72679
-15.200526,-158.64178
-15.485156,-158.53584
-14.804355,-158.94781
-14.849557,-157.99303
-15.194307,-159.48969
-15.144338,-157.84787
-15.25386,-157.50266
-15.020211,-156.73238
-15.151624,-158.07509
-14.714543,-158.8037
-15.016651,-159.81706
-14.98097,-159.1723
-14.962758,-159.21666
-15.223217,-159.32115
-14.962011,-159.52257
-15.001019,-158.4705
-14.944069,-158.22232
-15.160226,-159.41257
-15.13402,-158.4637
-15.288445,-156.52625
-14.999951,-159.19733
-15.338017,-156.94395
-15.136935,-156.82582
-14.973484,-158.18912
-15.192266,-160.45078
-15.225977,-157.99519
-15.023196,-157.12279
-15.061367,-160.25668
-14.825195,-159.29028
-14.940884,-157.78145
-14.914906,-159.29219
-14.876415,-157.73836
-15.272442,-158.77791
-15.004669,-157.2417
-14.770694,-159.18964
-15.151911,-157.86569
-14.982289,-157.51221
-15.038258,-159.26744
-15.037786,-156.52609
-15.209867,-156.81941
-15.055605,-158.27325
-15.136062,-159.16469
-15.140198,-157.91194
-15.412968,-158.44612
-14.856608,-157.01051
-15.058996,-158.3891
-15.022071,-158.41966
-15.239536,-160.16119
-15.012938,-158.93703
-15.006563,-158.59091
-14.962507,-157.37865
-15.144085,-158.58517
-15.106049,-159.51376
-14.838064,-160.14204
-15.204108,-158.98575
-14.752151,-159.39815
-14.868605,-158.40781
-14.923554,-159.68356
-14.967439,-159.48398
-14.884061,-158.1317
-14.97716,-159.36929
-14.805751,-157.62192
-14.959548,-157.06018
-14.848606,-158.97971
-14.949131,-158.41522
-15.53689,-158.20839
-15.128385,-158.33501
-14.98515,-157.77419
-15.334315,-158.67441
-15.140795,-158.68413
-15.039166,-157.15005
-15.136899,-158.14915
-15.159684,-158.03598
-15.125172,-159.32626
-14.865554,-158.25668
-15.23536,-157.72107
-15.192685,-157.8479
-15.076518,-158.18475
-14.830409,-160.77982
-15.053486,-158.84259
-14.977349,-159.37918
-14.959448,-158.96303
-15.166204,-157.72264
-14.863062,-158.92563
-15.155476,-158.7708
-14.921752,-158.63536
-14.770714,-158.09261
-15.05069,-158.70815
-15.006035,-158.752
-14.88905,-158.85547
-15.246948,-157.53604
-15.025582,-159.28584
-14.905929,-159.22517
-15.090161,-157.59299
-15.10484,-156.46538
-15.07782,-158.9671
-15.142159,-157.51273
-14.952097,-157.46272
-15.209528,-158.5083
-14.973536,-158.87782
-15.019219,-158.35205
-14.764105,-158.04427
