CITIFILE A.01.01
!Agilent Technologies,N5230C,MY48100142,A.08.04.10
!Agilent N5230C: A.08.04.10
!Date: Thursday, August 11, 2022 14:28:43
NAME CH1_DATA
VAR Power MAG 801
DATA S11 RI
DATA S21 RI
DATA S12 RI
DATA S22 RI
VAR_LIST_BEGIN
-40
-39.975
-39.95
-39.925
-39.9
-39.875
-39.85
-39.825
-39.8
-39.775
-39.75
-39.725
-39.7
-39.675
-39.65
-39.625
-39.6
-39.575
-39.55
-39.525
-39.5
-39.475
-39.45
-39.425
-39.4
-39.375
-39.35
-39.325
-39.3
-39.275
-39.25
-39.225
-39.2
-39.175
-39.15
-39.125
-39.1
-39.075
-39.05
-39.025
-39
-38.975
-38.95
-38.925
-38.9
-38.875
-38.85
-38.825
-38.8
-38.775
-38.75
-38.725
-38.7
-38.675
-38.65
-38.625
-38.6
-38.575
-38.55
-38.525
-38.5
-38.475
-38.45
-38.425
-38.4
-38.375
-38.35
-38.325
-38.3
-38.275
-38.25
-38.225
-38.2
-38.175
-38.15
-38.125
-38.1
-38.075
-38.05
-38.025
-38
-37.975
-37.95
-37.925
-37.9
-37.875
-37.85
-37.825
-37.8
-37.775
-37.75
-37.725
-37.7
-37.675
-37.65
-37.625
-37.6
-37.575
-37.55
-37.525
-37.5
-37.475
-37.45
-37.425
-37.4
-37.375
-37.35
-37.325
-37.3
-37.275
-37.25
-37.225
-37.2
-37.175
-37.15
-37.125
-37.1
-37.075
-37.05
-37.025
-37
-36.975
-36.95
-36.925
-36.9
-36.875
-36.85
-36.825
-36.8
-36.775
-36.75
-36.725
-36.7
-36.675
-36.65
-36.625
-36.6
-36.575
-36.55
-36.525
-36.5
-36.475
-36.45
-36.425
-36.4
-36.375
-36.35
-36.325
-36.3
-36.275
-36.25
-36.225
-36.2
-36.175
-36.15
-36.125
-36.1
-36.075
-36.05
-36.025
-36
-35.975
-35.95
-35.925
-35.9
-35.875
-35.85
-35.825
-35.8
-35.775
-35.75
-35.725
-35.7
-35.675
-35.65
-35.625
-35.6
-35.575
-35.55
-35.525
-35.5
-35.475
-35.45
-35.425
-35.4
-35.375
-35.35
-35.325
-35.3
-35.275
-35.25
-35.225
-35.2
-35.175
-35.15
-35.125
-35.1
-35.075
-35.05
-35.025
-35
-34.975
-34.95
-34.925
-34.9
-34.875
-34.85
-34.825
-34.8
-34.775
-34.75
-34.725
-34.7
-34.675
-34.65
-34.625
-34.6
-34.575
-34.55
-34.525
-34.5
-34.475
-34.45
-34.425
-34.4
-34.375
-34.35
-34.325
-34.3
-34.275
-34.25
-34.225
-34.2
-34.175
-34.15
-34.125
-34.1
-34.075
-34.05
-34.025
-34
-33.975
-33.95
-33.925
-33.9
-33.875
-33.85
-33.825
-33.8
-33.775
-33.75
-33.725
-33.7
-33.675
-33.65
-33.625
-33.6
-33.575
-33.55
-33.525
-33.5
-33.475
-33.45
-33.425
-33.4
-33.375
-33.35
-33.325
-33.3
-33.275
-33.25
-33.225
-33.2
-33.175
-33.15
-33.125
-33.1
-33.075
-33.05
-33.025
-33
-32.975
-32.95
-32.925
-32.9
-32.875
-32.85
-32.825
-32.8
-32.775
-32.75
-32.725
-32.7
-32.675
-32.65
-32.625
-32.6
-32.575
-32.55
-32.525
-32.5
-32.475
-32.45
-32.425
-32.4
-32.375
-32.35
-32.325
-32.3
-32.275
-32.25
-32.225
-32.2
-32.175
-32.15
-32.125
-32.1
-32.075
-32.05
-32.025
-32
-31.975
-31.95
-31.925
-31.9
-31.875
-31.85
-31.825
-31.8
-31.775
-31.75
-31.725
-31.7
-31.675
-31.65
-31.625
-31.6
-31.575
-31.55
-31.525
-31.5
-31.475
-31.45
-31.425
-31.4
-31.375
-31.35
-31.325
-31.3
-31.275
-31.25
-31.225
-31.2
-31.175
-31.15
-31.125
-31.1
-31.075
-31.05
-31.025
-31
-30.975
-30.95
-30.925
-30.9
-30.875
-30.85
-30.825
-30.8
-30.775
-30.75
-30.725
-30.7
-30.675
-30.65
-30.625
-30.6
-30.575
-30.55
-30.525
-30.5
-30.475
-30.45
-30.425
-30.4
-30.375
-30.35
-30.325
-30.3
-30.275
-30.25
-30.225
-30.2
-30.175
-30.15
-30.125
-30.1
-30.075
-30.05
-30.025
-30
-29.975
-29.95
-29.925
-29.9
-29.875
-29.85
-29.825
-29.8
-29.775
-29.75
-29.725
-29.7
-29.675
-29.65
-29.625
-29.6
-29.575
-29.55
-29.525
-29.5
-29.475
-29.45
-29.425
-29.4
-29.375
-29.35
-29.325
-29.3
-29.275
-29.25
-29.225
-29.2
-29.175
-29.15
-29.125
-29.1
-29.075
-29.05
-29.025
-29
-28.975
-28.95
-28.925
-28.9
-28.875
-28.85
-28.825
-28.8
-28.775
-28.75
-28.725
-28.7
-28.675
-28.65
-28.625
-28.6
-28.575
-28.55
-28.525
-28.5
-28.475
-28.45
-28.425
-28.4
-28.375
-28.35
-28.325
-28.3
-28.275
-28.25
-28.225
-28.2
-28.175
-28.15
-28.125
-28.1
-28.075
-28.05
-28.025
-28
-27.975
-27.95
-27.925
-27.9
-27.875
-27.85
-27.825
-27.8
-27.775
-27.75
-27.725
-27.7
-27.675
-27.65
-27.625
-27.6
-27.575
-27.55
-27.525
-27.5
-27.475
-27.45
-27.425
-27.4
-27.375
-27.35
-27.325
-27.3
-27.275
-27.25
-27.225
-27.2
-27.175
-27.15
-27.125
-27.1
-27.075
-27.05
-27.025
-27
-26.975
-26.95
-26.925
-26.9
-26.875
-26.85
-26.825
-26.8
-26.775
-26.75
-26.725
-26.7
-26.675
-26.65
-26.625
-26.6
-26.575
-26.55
-26.525
-26.5
-26.475
-26.45
-26.425
-26.4
-26.375
-26.35
-26.325
-26.3
-26.275
-26.25
-26.225
-26.2
-26.175
-26.15
-26.125
-26.1
-26.075
-26.05
-26.025
-26
-25.975
-25.95
-25.925
-25.9
-25.875
-25.85
-25.825
-25.8
-25.775
-25.75
-25.725
-25.7
-25.675
-25.65
-25.625
-25.6
-25.575
-25.55
-25.525
-25.5
-25.475
-25.45
-25.425
-25.4
-25.375
-25.35
-25.325
-25.3
-25.275
-25.25
-25.225
-25.2
-25.175
-25.15
-25.125
-25.1
-25.075
-25.05
-25.025
-25
-24.975
-24.95
-24.925
-24.9
-24.875
-24.85
-24.825
-24.8
-24.775
-24.75
-24.725
-24.7
-24.675
-24.65
-24.625
-24.6
-24.575
-24.55
-24.525
-24.5
-24.475
-24.45
-24.425
-24.4
-24.375
-24.35
-24.325
-24.3
-24.275
-24.25
-24.225
-24.2
-24.175
-24.15
-24.125
-24.1
-24.075
-24.05
-24.025
-24
-23.975
-23.95
-23.925
-23.9
-23.875
-23.85
-23.825
-23.8
-23.775
-23.75
-23.725
-23.7
-23.675
-23.65
-23.625
-23.6
-23.575
-23.55
-23.525
-23.5
-23.475
-23.45
-23.425
-23.4
-23.375
-23.35
-23.325
-23.3
-23.275
-23.25
-23.225
-23.2
-23.175
-23.15
-23.125
-23.1
-23.075
-23.05
-23.025
-23
-22.975
-22.95
-22.925
-22.9
-22.875
-22.85
-22.825
-22.8
-22.775
-22.75
-22.725
-22.7
-22.675
-22.65
-22.625
-22.6
-22.575
-22.55
-22.525
-22.5
-22.475
-22.45
-22.425
-22.4
-22.375
-22.35
-22.325
-22.3
-22.275
-22.25
-22.225
-22.2
-22.175
-22.15
-22.125
-22.1
-22.075
-22.05
-22.025
-22
-21.975
-21.95
-21.925
-21.9
-21.875
-21.85
-21.825
-21.8
-21.775
-21.75
-21.725
-21.7
-21.675
-21.65
-21.625
-21.6
-21.575
-21.55
-21.525
-21.5
-21.475
-21.45
-21.425
-21.4
-21.375
-21.35
-21.325
-21.3
-21.275
-21.25
-21.225
-21.2
-21.175
-21.15
-21.125
-21.1
-21.075
-21.05
-21.025
-21
-20.975
-20.95
-20.925
-20.9
-20.875
-20.85
-20.825
-20.8
-20.775
-20.75
-20.725
-20.7
-20.675
-20.65
-20.625
-20.6
-20.575
-20.55
-20.525
-20.5
-20.475
-20.45
-20.425
-20.4
-20.375
-20.35
-20.325
-20.3
-20.275
-20.25
-20.225
-20.2
-20.175
-20.15
-20.125
-20.1
-20.075
-20.05
-20.025
-20
VAR_LIST_END
BEGIN
-0.17206907,-0.077330783
-0.17340262,-0.096921377
-0.17885213,-0.079968981
-0.17613481,-0.076965734
-0.16607283,-0.090397641
-0.15998518,-0.076767102
-0.15638104,-0.09937422
-0.15957934,-0.077802889
-0.18133432,-0.087401159
-0.16983925,-0.083600245
-0.18025044,-0.064057879
-0.16764289,-0.087945804
-0.17750765,-0.095363863
-0.16906528,-0.087834872
-0.17921369,-0.089612566
-0.18014562,-0.06661161
-0.1733963,-0.093046322
-0.16823757,-0.094745308
-0.16968238,-0.10089142
-0.16816238,-0.066141032
-0.18222594,-0.10423854
-0.16382369,-0.071564801
-0.15408689,-0.086625002
-0.16854379,-0.082655214
-0.16941415,-0.079071149
-0.18655099,-0.081966631
-0.18681602,-0.079128437
-0.18074811,-0.081774525
-0.16318868,-0.088441245
-0.18573035,-0.072868265
-0.17962478,-0.079072066
-0.16962764,-0.089251623
-0.16229774,-0.086360827
-0.16888456,-0.084643781
-0.17463914,-0.07449872
-0.16219005,-0.077629916
-0.15969482,-0.081753843
-0.16659741,-0.099746853
-0.17615737,-0.074861944
-0.17520042,-0.088351667
-0.16715604,-0.0835329
-0.17995134,-0.086573526
-0.17370808,-0.084054425
-0.17606497,-0.074893296
-0.17644489,-0.085260645
-0.1752733,-0.07544063
-0.17152175,-0.087240726
-0.17323884,-0.079844192
-0.17560154,-0.090809546
-0.1890181,-0.091299504
-0.17140889,-0.08190795
-0.17146385,-0.10679565
-0.19105329,-0.092293285
-0.1777734,-0.086649507
-0.18270665,-0.062069863
-0.16925006,-0.067045555
-0.18428975,-0.096902512
-0.17461637,-0.084241904
-0.16700752,-0.08213301
-0.17162788,-0.065120175
-0.1829177,-0.074968383
-0.16072109,-0.11333004
-0.1712185,-0.085737541
-0.17333372,-0.072030254
-0.19085215,-0.08790078
-0.17792492,-0.10310704
-0.16325098,-0.06946785
-0.15764035,-0.07152722
-0.1716195,-0.08070185
-0.16754156,-0.091241904
-0.17293042,-0.086816698
-0.17300667,-0.092859097
-0.16761696,-0.066713057
-0.17593299,-0.089395232
-0.17751326,-0.084701814
-0.17661285,-0.078368962
-0.1830419,-0.081516892
-0.18152261,-0.070989206
-0.17612433,-0.079150274
-0.18074222,-0.084452711
-0.17366114,-0.095127255
-0.1781705,-0.077554576
-0.18702295,-0.08686839
-0.18074287,-0.080944441
-0.15369731,-0.083981901
-0.16428624,-0.076511264
-0.17651454,-0.095860772
-0.15906362,-0.08634489
-0.1684151,-0.073745452
-0.16980827,-0.098874249
-0.16326992,-0.076632805
-0.17653118,-0.088502973
-0.17397758,-0.087197885
-0.16942787,-0.092147499
-0.17599909,-0.091382384
-0.16615169,-0.093289688
-0.16601625,-0.087740742
-0.17276604,-0.08594501
-0.16076104,-0.079375483
-0.17494035,-0.091297008
-0.17618768,-0.077775337
-0.18073927,-0.097246028
-0.15068544,-0.094711855
-0.1630934,-0.088069811
-0.16123305,-0.079505242
-0.17704082,-0.068094105
-0.179839,-0.08101999
-0.18626668,-0.095399156
-0.18484241,-0.066970468
-0.17609814,-0.080604635
-0.19048929,-0.088663258
-0.16901094,-0.090685576
-0.17032143,-0.08596088
-0.17494501,-0.073645599
-0.17235668,-0.095965013
-0.17168081,-0.08598426
-0.17766498,-0.086422861
-0.17760615,-0.092262365
-0.17621408,-0.077714466
-0.17473306,-0.084056549
-0.18173908,-0.084307499
-0.18217689,-0.093882069
-0.17020039,-0.091549657
-0.18629922,-0.088478111
-0.16663644,-0.091293201
-0.16655275,-0.08020445
-0.16420028,-0.073228888
-0.18727571,-0.080868386
-0.17321399,-0.091028117
-0.18311204,-0.089167386
-0.16506851,-0.094305359
-0.18191327,-0.088968895
-0.17263229,-0.087899484
-0.18178877,-0.099099472
-0.17134705,-0.085476004
-0.1741375,-0.087453939
-0.17550419,-0.08262299
-0.18794963,-0.071553901
-0.17229626,-0.078465462
-0.17834306,-0.067518942
-0.17934673,-0.080441326
-0.16731821,-0.081851184
-0.17363484,-0.090059653
-0.17976956,-0.092433013
-0.18258747,-0.098277383
-0.17591389,-0.082368717
-0.17902423,-0.085022956
-0.17545018,-0.072915934
-0.18808028,-0.081867516
-0.17634764,-0.079109445
-0.17259294,-0.093188204
-0.16929363,-0.092109837
-0.17542085,-0.087075628
-0.17810723,-0.07899221
-0.16377836,-0.074119456
-0.1768606,-0.085730337
-0.1756983,-0.096764363
-0.178813,-0.083900809
-0.17789753,-0.076955877
-0.18215239,-0.074798293
-0.17302342,-0.078232385
-0.17896359,-0.082609273
-0.17199901,-0.082631379
-0.16759078,-0.078617953
-0.17702343,-0.086703181
-0.17391965,-0.091081835
-0.16691636,-0.081578687
-0.16529427,-0.081275873
-0.17519176,-0.096161522
-0.1751961,-0.07449618
-0.16255192,-0.072507843
-0.16891475,-0.079662375
-0.17225705,-0.075787865
-0.18303606,-0.081006013
-0.182181,-0.083066702
-0.17956369,-0.083811782
-0.16772746,-0.079240628
-0.17818511,-0.07485044
-0.17028268,-0.089801617
-0.17267941,-0.07435669
-0.1722216,-0.093315162
-0.17912436,-0.078024089
-0.16671652,-0.091834858
-0.18606016,-0.070396692
-0.16902126,-0.084568843
-0.1840124,-0.079011329
-0.1764906,-0.079427764
-0.17006554,-0.082695454
-0.15992215,-0.080715455
-0.17041668,-0.092374071
-0.18733174,-0.0874613
-0.18101138,-0.079335183
-0.18411528,-0.080028087
-0.17413123,-0.087058119
-0.18379821,-0.077310033
-0.18387985,-0.083903618
-0.1717734,-0.073600829
-0.17572539,-0.080095105
-0.17218272,-0.07790447
-0.16604804,-0.085886814
-0.17240193,-0.09396223
-0.18233086,-0.069840133
-0.17381576,-0.091865562
-0.1783115,-0.082675524
-0.17733592,-0.083906889
-0.17870541,-0.090577528
-0.16913232,-0.087542616
-0.16726047,-0.079490773
-0.16600217,-0.0844464
-0.17340311,-0.08912193
-0.18310758,-0.076595426
-0.18847375,-0.096009932
-0.16872841,-0.087141432
-0.17372116,-0.083127975
-0.18616205,-0.091399319
-0.176213,-0.075690053
-0.18306644,-0.081462175
-0.17857504,-0.092587106
-0.17648037,-0.081882179
-0.17321992,-0.085064553
-0.17604515,-0.091393009
-0.17500426,-0.080290489
-0.18005228,-0.081453495
-0.16879418,-0.083617553
-0.17989986,-0.09625797
-0.16148165,-0.081055127
-0.1821724,-0.087154999
-0.17726654,-0.091995679
-0.18599546,-0.082177274
-0.16565403,-0.08028619
-0.1738627,-0.086396024
-0.15962507,-0.090874515
-0.17495543,-0.089913398
-0.16705734,-0.086641073
-0.16219078,-0.07611867
-0.17577106,-0.083592504
-0.17404725,-0.080985799
-0.17056116,-0.086587444
-0.17744833,-0.080256678
-0.17189829,-0.079584539
-0.17445652,-0.077441677
-0.18357518,-0.082862198
-0.1804781,-0.08048784
-0.17814712,-0.082629248
-0.17428622,-0.080408938
-0.17219113,-0.081433043
-0.17366838,-0.082681127
-0.16810761,-0.077516943
-0.16937913,-0.084724799
-0.17167439,-0.093320087
-0.1797079,-0.077589273
-0.17743389,-0.082386695
-0.17307378,-0.081880063
-0.17646198,-0.086308971
-0.17221263,-0.091888443
-0.17298348,-0.083629638
-0.17125578,-0.080819637
-0.16354874,-0.093252145
-0.18109746,-0.087411724
-0.17590629,-0.076120801
-0.17751268,-0.091077596
-0.18145829,-0.077635296
-0.17370458,-0.091720179
-0.17546949,-0.085300788
-0.17438979,-0.089016713
-0.17485179,-0.085231945
-0.16991284,-0.088182718
-0.18193421,-0.082014039
-0.1736528,-0.084850423
-0.19098036,-0.088236727
-0.16696945,-0.081658445
-0.15368672,-0.091659464
-0.17152415,-0.086580612
-0.16821472,-0.093860544
-0.18024135,-0.087573864
-0.17488134,-0.082912892
-0.17027323,-0.083597817
-0.17357542,-0.080552131
-0.17236845,-0.089493714
-0.16834664,-0.085733719
-0.1789768,-0.081039466
-0.18119062,-0.084038801
-0.18008299,-0.081955664
-0.17240302,-0.089462727
-0.17544731,-0.089362659
-0.17314883,-0.086801201
-0.17307438,-0.084307931
-0.17553641,-0.084849767
-0.17845644,-0.091417134
-0.17793418,-0.081708655
-0.16929077,-0.084001213
-0.17609143,-0.081677489
-0.17407474,-0.077623427
-0.17507868,-0.085515752
-0.17528675,-0.085671902
-0.17428899,-0.086517848
-0.16313206,-0.074819371
-0.17501856,-0.076924704
-0.1742876,-0.077348165
-0.17431296,-0.091135874
-0.17814079,-0.087249406
-0.17906815,-0.091814645
-0.17767963,-0.081910662
-0.17436118,-0.081712328
-0.16677198,-0.081502557
-0.17624202,-0.0827621
-0.17410754,-0.089641131
-0.17096962,-0.09494219
-0.17578661,-0.083897427
-0.17368543,-0.078430042
-0.1743166,-0.088142641
-0.17220061,-0.080743968
-0.17363961,-0.085795216
-0.17688337,-0.087318711
-0.18196544,-0.091229409
-0.1750074,-0.082343049
-0.17749365,-0.084245235
-0.17728895,-0.071501113
-0.17923026,-0.08562158
-0.17318377,-0.083683252
-0.17802042,-0.078019604
-0.17393732,-0.085073657
-0.17765567,-0.078356199
-0.16960745,-0.072363965
-0.17772707,-0.083667606
-0.17503113,-0.078071125
-0.175395,-0.084528252
-0.17526042,-0.088403106
-0.17425698,-0.083266251
-0.17005241,-0.085899152
-0.17655168,-0.075787857
-0.18060686,-0.08551088
-0.16734672,-0.078056395
-0.17351367,-0.087792672
-0.16352729,-0.090409592
-0.1762666,-0.082135767
-0.18012136,-0.079762667
-0.1736317,-0.080955081
-0.17359781,-0.090584055
-0.18116829,-0.091826364
-0.16750194,-0.083503626
-0.17638516,-0.08465714
-0.17223476,-0.084155403
-0.17950471,-0.09107545
-0.17427047,-0.078312337
-0.17577681,-0.078869171
-0.1729562,-0.078990012
-0.17356442,-0.08707983
-0.17072733,-0.080904335
-0.17666173,-0.084065832
-0.17234124,-0.082453556
-0.16767438,-0.079419211
-0.17631526,-0.079511374
-0.17208642,-0.084973991
-0.17338479,-0.083875097
-0.17599641,-0.085095331
-0.16783869,-0.084807292
-0.17036602,-0.080573454
-0.17534381,-0.082465664
-0.17647082,-0.083651878
-0.17194413,-0.090515815
-0.17580049,-0.079707772
-0.17760113,-0.085496984
-0.17975558,-0.079346105
-0.17099501,-0.082608551
-0.16619018,-0.086187072
-0.17577425,-0.079886205
-0.17059009,-0.081696272
-0.17214003,-0.085094869
-0.17516734,-0.087511033
-0.17713244,-0.089447439
-0.18240921,-0.083810844
-0.17328998,-0.08678697
-0.1736816,-0.085471272
-0.17776623,-0.087055698
-0.17577666,-0.077503286
-0.1710529,-0.083047539
-0.17690496,-0.08658991
-0.17599256,-0.083056301
-0.17756358,-0.086733565
-0.17568132,-0.080276541
-0.16894031,-0.088202007
-0.17159405,-0.080734573
-0.17109419,-0.080758728
-0.17689715,-0.085138924
-0.17343281,-0.077210501
-0.17939112,-0.090010427
-0.17618638,-0.082488939
-0.17983653,-0.086273454
-0.17916733,-0.082381532
-0.1683123,-0.082143813
-0.17279646,-0.08230485
-0.17566486,-0.081101358
-0.17576702,-0.081811905
-0.17716075,-0.090412796
-0.18016909,-0.082617693
-0.17240769,-0.088839121
-0.16999885,-0.078098454
-0.17335424,-0.083367974
-0.17309049,-0.084625967
-0.17399077,-0.087566338
-0.17855357,-0.083882742
-0.16602717,-0.085438162
-0.17324993,-0.078592859
-0.17465617,-0.087717541
-0.17751938,-0.085802503
-0.17363131,-0.089649722
-0.17676754,-0.085917912
-0.17321357,-0.082210638
-0.18008339,-0.076764002
-0.17675009,-0.083169639
-0.17266709,-0.082296923
-0.17143212,-0.091586076
-0.1767218,-0.085057586
-0.1764448,-0.078922123
-0.17055428,-0.087023541
-0.17423478,-0.080957711
-0.17089948,-0.079279386
-0.17865907,-0.084967032
-0.17705972,-0.091108412
-0.16971914,-0.087853253
-0.17461438,-0.086046517
-0.17373288,-0.078937545
-0.16644645,-0.082646362
-0.17606133,-0.083223067
-0.17200629,-0.084352672
-0.17214572,-0.081288159
-0.16728091,-0.087961204
-0.17228934,-0.083890721
-0.17558599,-0.082777739
-0.17535335,-0.086266272
-0.17446858,-0.085697867
-0.17472963,-0.08648178
-0.17497359,-0.085238516
-0.1728791,-0.079452395
-0.17339084,-0.083534561
-0.17205139,-0.083223127
-0.17382431,-0.082500629
-0.17543027,-0.07962919
-0.17647292,-0.086339623
-0.17866856,-0.076420724
-0.17149639,-0.081985973
-0.17372948,-0.085653573
-0.17036113,-0.082238525
-0.17320649,-0.086333424
-0.17344002,-0.082653902
-0.17754048,-0.08049757
-0.17215122,-0.083521135
-0.17417629,-0.081207111
-0.17814921,-0.086286433
-0.17595418,-0.080582187
-0.17661081,-0.086773857
-0.17027141,-0.083516449
-0.17348127,-0.086466894
-0.17397112,-0.085976169
-0.18154643,-0.080870785
-0.17023639,-0.087440439
-0.17223355,-0.086941898
-0.17551537,-0.083270282
-0.17562436,-0.081227079
-0.17212148,-0.085380264
-0.17023025,-0.083333082
-0.17694467,-0.082979031
-0.17034808,-0.088832416
-0.17770419,-0.082901314
-0.17665157,-0.078683309
-0.17001872,-0.079939842
-0.17464083,-0.079371534
-0.17523828,-0.08365304
-0.17413904,-0.084271833
-0.17400573,-0.088930525
-0.17024308,-0.087180056
-0.17292781,-0.084031194
-0.17634614,-0.083464615
-0.17628014,-0.079988934
-0.17279865,-0.085791722
-0.1731429,-0.085864887
-0.17263076,-0.086025059
-0.17262062,-0.08297459
-0.17402829,-0.082562141
-0.17878604,-0.080931418
-0.17055735,-0.081669852
-0.17548682,-0.085591301
-0.17618908,-0.080905311
-0.17844968,-0.084429637
-0.17892608,-0.079698339
-0.17272569,-0.079221614
-0.17501979,-0.086751215
-0.17459993,-0.088874988
-0.17493078,-0.083529234
-0.17830464,-0.081572659
-0.17461272,-0.085737363
-0.17554131,-0.08320269
-0.18090224,-0.085240602
-0.17578152,-0.086077727
-0.17151973,-0.083936967
-0.17749836,-0.081980132
-0.17472075,-0.08305829
-0.17434193,-0.078882165
-0.17106512,-0.087348349
-0.17484289,-0.08265207
-0.17597969,-0.086075447
-0.17860329,-0.08334244
-0.17383304,-0.088656701
-0.17633243,-0.080378883
-0.17175621,-0.083224751
-0.18178181,-0.085809387
-0.16832228,-0.079976842
-0.17690285,-0.084793963
-0.17296112,-0.084913574
