CITIFILE A.01.01
!Agilent Technologies,N5230C,MY48100142,A.08.04.10
!Agilent N5230C: A.08.04.10
!Format: LogMag/Angle
!Date: Thursday, August 06, 2020 18:07:56
NAME CH1_DATA
VAR Power MAG 801
DATA S11 DBANGLE
DATA S21 DBANGLE
DATA S12 DBANGLE
DATA S22 DBANGLE
VAR_LIST_BEGIN
-40
-39.975
-39.95
-39.925
-39.9
-39.875
-39.85
-39.825
-39.8
-39.775
-39.75
-39.725
-39.7
-39.675
-39.65
-39.625
-39.6
-39.575
-39.55
-39.525
-39.5
-39.475
-39.45
-39.425
-39.4
-39.375
-39.35
-39.325
-39.3
-39.275
-39.25
-39.225
-39.2
-39.175
-39.15
-39.125
-39.1
-39.075
-39.05
-39.025
-39
-38.975
-38.95
-38.925
-38.9
-38.875
-38.85
-38.825
-38.8
-38.775
-38.75
-38.725
-38.7
-38.675
-38.65
-38.625
-38.6
-38.575
-38.55
-38.525
-38.5
-38.475
-38.45
-38.425
-38.4
-38.375
-38.35
-38.325
-38.3
-38.275
-38.25
-38.225
-38.2
-38.175
-38.15
-38.125
-38.1
-38.075
-38.05
-38.025
-38
-37.975
-37.95
-37.925
-37.9
-37.875
-37.85
-37.825
-37.8
-37.775
-37.75
-37.725
-37.7
-37.675
-37.65
-37.625
-37.6
-37.575
-37.55
-37.525
-37.5
-37.475
-37.45
-37.425
-37.4
-37.375
-37.35
-37.325
-37.3
-37.275
-37.25
-37.225
-37.2
-37.175
-37.15
-37.125
-37.1
-37.075
-37.05
-37.025
-37
-36.975
-36.95
-36.925
-36.9
-36.875
-36.85
-36.825
-36.8
-36.775
-36.75
-36.725
-36.7
-36.675
-36.65
-36.625
-36.6
-36.575
-36.55
-36.525
-36.5
-36.475
-36.45
-36.425
-36.4
-36.375
-36.35
-36.325
-36.3
-36.275
-36.25
-36.225
-36.2
-36.175
-36.15
-36.125
-36.1
-36.075
-36.05
-36.025
-36
-35.975
-35.95
-35.925
-35.9
-35.875
-35.85
-35.825
-35.8
-35.775
-35.75
-35.725
-35.7
-35.675
-35.65
-35.625
-35.6
-35.575
-35.55
-35.525
-35.5
-35.475
-35.45
-35.425
-35.4
-35.375
-35.35
-35.325
-35.3
-35.275
-35.25
-35.225
-35.2
-35.175
-35.15
-35.125
-35.1
-35.075
-35.05
-35.025
-35
-34.975
-34.95
-34.925
-34.9
-34.875
-34.85
-34.825
-34.8
-34.775
-34.75
-34.725
-34.7
-34.675
-34.65
-34.625
-34.6
-34.575
-34.55
-34.525
-34.5
-34.475
-34.45
-34.425
-34.4
-34.375
-34.35
-34.325
-34.3
-34.275
-34.25
-34.225
-34.2
-34.175
-34.15
-34.125
-34.1
-34.075
-34.05
-34.025
-34
-33.975
-33.95
-33.925
-33.9
-33.875
-33.85
-33.825
-33.8
-33.775
-33.75
-33.725
-33.7
-33.675
-33.65
-33.625
-33.6
-33.575
-33.55
-33.525
-33.5
-33.475
-33.45
-33.425
-33.4
-33.375
-33.35
-33.325
-33.3
-33.275
-33.25
-33.225
-33.2
-33.175
-33.15
-33.125
-33.1
-33.075
-33.05
-33.025
-33
-32.975
-32.95
-32.925
-32.9
-32.875
-32.85
-32.825
-32.8
-32.775
-32.75
-32.725
-32.7
-32.675
-32.65
-32.625
-32.6
-32.575
-32.55
-32.525
-32.5
-32.475
-32.45
-32.425
-32.4
-32.375
-32.35
-32.325
-32.3
-32.275
-32.25
-32.225
-32.2
-32.175
-32.15
-32.125
-32.1
-32.075
-32.05
-32.025
-32
-31.975
-31.95
-31.925
-31.9
-31.875
-31.85
-31.825
-31.8
-31.775
-31.75
-31.725
-31.7
-31.675
-31.65
-31.625
-31.6
-31.575
-31.55
-31.525
-31.5
-31.475
-31.45
-31.425
-31.4
-31.375
-31.35
-31.325
-31.3
-31.275
-31.25
-31.225
-31.2
-31.175
-31.15
-31.125
-31.1
-31.075
-31.05
-31.025
-31
-30.975
-30.95
-30.925
-30.9
-30.875
-30.85
-30.825
-30.8
-30.775
-30.75
-30.725
-30.7
-30.675
-30.65
-30.625
-30.6
-30.575
-30.55
-30.525
-30.5
-30.475
-30.45
-30.425
-30.4
-30.375
-30.35
-30.325
-30.3
-30.275
-30.25
-30.225
-30.2
-30.175
-30.15
-30.125
-30.1
-30.075
-30.05
-30.025
-30
-29.975
-29.95
-29.925
-29.9
-29.875
-29.85
-29.825
-29.8
-29.775
-29.75
-29.725
-29.7
-29.675
-29.65
-29.625
-29.6
-29.575
-29.55
-29.525
-29.5
-29.475
-29.45
-29.425
-29.4
-29.375
-29.35
-29.325
-29.3
-29.275
-29.25
-29.225
-29.2
-29.175
-29.15
-29.125
-29.1
-29.075
-29.05
-29.025
-29
-28.975
-28.95
-28.925
-28.9
-28.875
-28.85
-28.825
-28.8
-28.775
-28.75
-28.725
-28.7
-28.675
-28.65
-28.625
-28.6
-28.575
-28.55
-28.525
-28.5
-28.475
-28.45
-28.425
-28.4
-28.375
-28.35
-28.325
-28.3
-28.275
-28.25
-28.225
-28.2
-28.175
-28.15
-28.125
-28.1
-28.075
-28.05
-28.025
-28
-27.975
-27.95
-27.925
-27.9
-27.875
-27.85
-27.825
-27.8
-27.775
-27.75
-27.725
-27.7
-27.675
-27.65
-27.625
-27.6
-27.575
-27.55
-27.525
-27.5
-27.475
-27.45
-27.425
-27.4
-27.375
-27.35
-27.325
-27.3
-27.275
-27.25
-27.225
-27.2
-27.175
-27.15
-27.125
-27.1
-27.075
-27.05
-27.025
-27
-26.975
-26.95
-26.925
-26.9
-26.875
-26.85
-26.825
-26.8
-26.775
-26.75
-26.725
-26.7
-26.675
-26.65
-26.625
-26.6
-26.575
-26.55
-26.525
-26.5
-26.475
-26.45
-26.425
-26.4
-26.375
-26.35
-26.325
-26.3
-26.275
-26.25
-26.225
-26.2
-26.175
-26.15
-26.125
-26.1
-26.075
-26.05
-26.025
-26
-25.975
-25.95
-25.925
-25.9
-25.875
-25.85
-25.825
-25.8
-25.775
-25.75
-25.725
-25.7
-25.675
-25.65
-25.625
-25.6
-25.575
-25.55
-25.525
-25.5
-25.475
-25.45
-25.425
-25.4
-25.375
-25.35
-25.325
-25.3
-25.275
-25.25
-25.225
-25.2
-25.175
-25.15
-25.125
-25.1
-25.075
-25.05
-25.025
-25
-24.975
-24.95
-24.925
-24.9
-24.875
-24.85
-24.825
-24.8
-24.775
-24.75
-24.725
-24.7
-24.675
-24.65
-24.625
-24.6
-24.575
-24.55
-24.525
-24.5
-24.475
-24.45
-24.425
-24.4
-24.375
-24.35
-24.325
-24.3
-24.275
-24.25
-24.225
-24.2
-24.175
-24.15
-24.125
-24.1
-24.075
-24.05
-24.025
-24
-23.975
-23.95
-23.925
-23.9
-23.875
-23.85
-23.825
-23.8
-23.775
-23.75
-23.725
-23.7
-23.675
-23.65
-23.625
-23.6
-23.575
-23.55
-23.525
-23.5
-23.475
-23.45
-23.425
-23.4
-23.375
-23.35
-23.325
-23.3
-23.275
-23.25
-23.225
-23.2
-23.175
-23.15
-23.125
-23.1
-23.075
-23.05
-23.025
-23
-22.975
-22.95
-22.925
-22.9
-22.875
-22.85
-22.825
-22.8
-22.775
-22.75
-22.725
-22.7
-22.675
-22.65
-22.625
-22.6
-22.575
-22.55
-22.525
-22.5
-22.475
-22.45
-22.425
-22.4
-22.375
-22.35
-22.325
-22.3
-22.275
-22.25
-22.225
-22.2
-22.175
-22.15
-22.125
-22.1
-22.075
-22.05
-22.025
-22
-21.975
-21.95
-21.925
-21.9
-21.875
-21.85
-21.825
-21.8
-21.775
-21.75
-21.725
-21.7
-21.675
-21.65
-21.625
-21.6
-21.575
-21.55
-21.525
-21.5
-21.475
-21.45
-21.425
-21.4
-21.375
-21.35
-21.325
-21.3
-21.275
-21.25
-21.225
-21.2
-21.175
-21.15
-21.125
-21.1
-21.075
-21.05
-21.025
-21
-20.975
-20.95
-20.925
-20.9
-20.875
-20.85
-20.825
-20.8
-20.775
-20.75
-20.725
-20.7
-20.675
-20.65
-20.625
-20.6
-20.575
-20.55
-20.525
-20.5
-20.475
-20.45
-20.425
-20.4
-20.375
-20.35
-20.325
-20.3
-20.275
-20.25
-20.225
-20.2
-20.175
-20.15
-20.125
-20.1
-20.075
-20.05
-20.025
-20
VAR_LIST_END
BEGIN
-16.00058,-160.4451
-14.917718,-151.787
-14.955946,-140.55016
-15.370478,-162.63521
-15.217108,-159.34251
-15.24037,-161.1991
-15.278124,-151.36665
-14.498887,-168.45186
-15.548676,-156.13733
-15.282891,-165.53659
-15.891517,-157.54576
-15.044845,-155.7229
-14.841653,-168.6422
-16.197132,-164.45302
-15.823459,-158.92709
-15.976519,-150.18832
-16.422106,-162.81932
-17.135792,-163.25632
-15.673345,-171.62004
-14.43171,-150.66246
-15.168415,-159.55557
-14.073098,-156.41048
-15.823988,-156.29129
-13.149563,-156.57899
-15.600945,-149.05737
-14.891926,-172.73825
-14.201125,-160.91162
-15.310984,-163.5715
-14.89067,-158.79692
-14.451004,-165.71658
-15.192224,-157.92125
-15.471435,-169.91399
-14.597563,-162.63741
-16.670979,-158.17354
-14.98079,-164.56166
-15.398764,-167.40091
-14.25229,-146.70949
-13.65092,-161.59613
-15.74138,-156.85837
-15.222698,-160.09906
-14.285191,-160.80348
-14.890553,-152.22441
-14.795732,-152.12363
-15.113248,-164.93999
-14.078547,-167.81499
-14.274302,-153.33583
-14.930683,-149.382
-14.737193,-157.81718
-14.45661,-165.5463
-14.9137,-144.42915
-14.35199,-156.59113
-13.868669,-162.48326
-16.534611,-149.3974
-13.274446,-160.20476
-14.891475,-154.65646
-14.295947,-166.83229
-15.836192,-163.09987
-14.759825,-160.94157
-14.493302,-154.83876
-14.298052,-151.59033
-15.985542,-160.24338
-15.165102,-165.8821
-15.035323,-152.11591
-15.365219,-154.64978
-16.196047,-152.21458
-15.615988,-159.08859
-14.83883,-161.02736
-16.013494,-161.0554
-14.631899,-158.76517
-14.802813,-162.1633
-15.797335,-159.76532
-15.22559,-150.73903
-16.230703,-159.70355
-14.073469,-161.93593
-15.397363,-160.02925
-14.612623,-157.55858
-14.587959,-160.74669
-14.251737,-157.42232
-14.966945,-159.83521
-15.845142,-164.78226
-14.793589,-168.77063
-14.599185,-152.92638
-15.060936,-155.30539
-16.517662,-159.62535
-14.559999,-160.74982
-15.212643,-158.3389
-14.991552,-156.10945
-14.587167,-166.3884
-16.050768,-163.99312
-16.171167,-151.42889
-15.508618,-168.42194
-15.592237,-160.52972
-15.226509,-161.526
-13.759777,-155.75844
-14.792221,-157.03572
-15.634663,-161.0827
-14.812807,-156.71454
-14.297873,-164.14314
-14.494116,-157.58925
-15.096215,-165.31854
-15.229559,-159.48143
-14.510625,-154.46866
-13.82299,-153.82208
-15.133772,-162.84737
-15.545379,-156.13763
-14.469647,-152.53117
-15.259635,-157.46744
-15.027547,-153.46878
-14.561186,-156.66858
-16.593685,-153.05275
-16.103683,-165.43756
-15.48865,-152.59822
-14.385578,-163.74025
-14.896905,-162.85036
-13.756207,-159.75826
-15.094433,-174.62195
-14.901826,-161.16013
-15.267532,-159.44505
-14.626508,-147.49077
-15.000895,-156.68634
-15.559434,-162.0687
-14.716264,-159.36516
-15.347447,-156.29694
-14.954129,-160.3486
-15.219869,-166.60201
-14.634641,-149.87445
-14.540089,-161.64005
-13.576408,-156.88426
-15.390183,-154.03606
-14.083338,-163.55295
-15.329633,-156.26884
-14.846592,-156.92572
-15.008985,-163.72029
-15.849817,-162.37595
-14.51447,-156.28044
-14.172006,-148.44029
-14.370974,-155.5428
-15.245148,-160.87294
-15.546877,-152.53084
-15.813888,-149.63779
-14.748932,-160.38895
-13.398907,-160.3792
-15.557549,-155.68669
-15.200284,-157.18335
-15.283005,-157.42773
-14.460498,-160.00394
-15.187593,-154.40697
-15.003512,-157.7394
-15.258535,-153.7104
-14.739222,-165.01671
-16.594458,-156.24449
-14.938226,-162.11548
-15.184714,-148.50989
-14.110643,-150.68071
-15.303919,-156.46217
-14.688656,-152.09468
-15.347903,-165.03789
-14.628467,-151.02568
-14.712214,-162.05347
-14.886983,-164.1095
-15.707343,-155.92853
-15.278633,-160.46465
-15.381232,-163.90802
-14.198468,-156.92665
-16.162693,-162.33864
-14.787858,-159.50259
-14.791266,-169.57738
-15.287819,-156.24602
-14.355737,-162.28488
-15.727291,-165.17839
-15.335048,-162.30847
-14.475489,-156.97758
-14.313416,-161.59824
-14.522958,-152.31598
-15.00038,-161.06403
-15.224479,-158.07339
-15.64786,-161.32198
-15.097771,-155.37469
-14.983627,-161.55157
-14.80169,-157.70006
-14.849662,-155.39835
-14.812401,-156.27008
-14.922296,-155.60493
-14.093983,-162.03543
-15.135971,-157.30522
-15.672521,-157.56732
-16.075466,-161.77571
-15.075747,-144.89864
-14.444943,-161.73918
-15.178433,-160.94656
-15.255089,-158.65514
-14.841381,-166.83279
-15.300529,-162.74794
-14.140035,-152.9774
-13.990261,-153.39333
-16.378548,-156.9563
-14.205734,-157.12248
-14.176454,-157.79648
-15.540012,-156.31366
-15.804741,-159.78186
-15.36751,-162.86076
-15.142259,-159.81044
-14.502236,-158.07686
-15.448892,-157.4846
-16.146795,-160.56776
-15.299968,-152.5134
-15.344865,-153.79601
-15.351014,-161.65903
-14.672611,-159.27539
-14.800027,-153.84619
-14.594374,-155.55765
-15.064255,-154.34436
-14.82268,-162.99007
-14.654792,-159.44345
-13.832046,-161.5981
-15.263049,-162.02939
-15.402323,-154.68019
-14.360145,-152.61499
-14.976396,-154.08595
-14.332703,-158.40973
-14.678431,-163.58264
-14.243526,-158.35474
-15.151742,-146.59978
-15.508098,-162.89348
-14.464803,-160.14023
-15.954568,-156.57875
-14.939016,-157.56306
-15.838362,-155.24059
-15.939098,-155.63225
-14.426851,-158.70941
-14.749488,-150.24847
-14.303967,-164.53609
-15.321957,-156.85184
-15.437014,-159.56474
-14.535149,-152.6911
-14.422925,-164.40097
-15.077714,-155.39523
-15.886684,-150.34981
-14.413832,-154.5567
-15.977224,-157.41676
-15.331828,-162.00705
-14.41862,-155.0134
-15.567134,-157.21779
-14.843925,-157.86253
-15.01336,-157.84483
-15.036108,-156.15303
-16.05714,-157.76176
-15.110649,-161.62428
-14.61619,-160.36388
-14.729319,-156.60916
-15.396152,-157.89702
-15.394698,-154.14864
-14.889169,-151.05801
-15.168571,-161.1774
-14.514381,-159.44534
-15.177503,-156.39647
-14.671529,-154.42366
-15.290612,-159.04628
-15.415074,-156.51881
-15.241441,-159.06139
-14.982375,-151.20638
-14.80782,-158.73682
-14.611004,-157.35783
-15.460195,-155.11986
-15.214649,-161.36899
-15.322518,-158.22292
-14.640302,-154.88237
-15.247222,-154.19646
-14.396734,-158.76575
-14.902055,-157.87491
-14.369719,-152.64923
-15.140307,-160.06805
-15.026637,-157.91025
-14.861311,-166.11383
-14.280256,-159.48381
-14.862916,-160.93475
-14.088237,-154.11836
-15.023713,-156.9032
-14.95197,-158.02002
-15.354375,-156.20354
-15.380178,-160.63527
-14.725167,-157.90533
-15.599967,-162.22449
-15.99017,-155.62689
-15.747033,-158.95717
-15.842852,-160.44283
-15.394324,-158.40953
-15.153196,-159.00179
-15.363197,-152.86299
-15.619821,-157.42305
-15.005801,-154.24153
-14.363902,-162.27129
-15.199022,-163.66452
-15.657594,-161.73416
-14.459002,-161.94382
-14.184273,-156.16754
-15.36549,-155.75847
-14.465502,-156.98474
-15.100315,-161.27628
-15.224384,-152.02487
-15.078466,-158.31732
-15.53559,-164.84612
-15.55729,-160.13394
-15.305493,-156.64594
-14.923446,-160.2289
-15.617517,-166.40933
-14.918859,-161.00771
-14.165372,-159.98068
-15.022186,-157.81889
-15.578549,-157.6998
-14.838866,-155.20602
-15.806266,-160.6268
-14.830193,-161.14456
-14.065781,-160.10757
-15.581532,-157.76697
-14.561127,-157.34019
-14.35588,-161.51288
-14.905951,-162.8354
-15.075018,-155.87102
-15.022156,-158.92088
-15.049094,-159.72154
-15.142007,-160.13921
-14.667005,-156.53496
-15.360575,-157.88019
-15.100533,-162.20885
-14.591976,-157.5011
-14.941536,-159.58583
-14.92684,-159.86398
-15.078372,-160.69527
-15.264531,-158.77214
-14.945755,-158.59151
-15.069622,-160.6142
-15.232885,-158.01131
-15.100992,-157.43265
-15.381221,-156.2363
-14.908089,-162.00002
-15.344817,-158.26901
-15.805839,-158.61722
-15.449321,-159.63568
-15.191353,-159.97304
-15.542824,-158.82149
-14.594672,-160.89941
-15.484312,-158.31357
-14.810572,-155.42422
-15.597925,-156.78955
-15.10892,-153.51476
-15.398993,-159.97295
-14.723542,-156.69937
-15.173483,-164.10457
-14.699959,-164.08528
-14.148624,-156.44748
-15.571008,-158.59732
-14.930312,-155.27992
-14.968287,-157.07564
-15.707485,-157.00217
-15.743855,-153.95685
-15.054808,-160.11803
-14.832179,-160.07957
-15.211404,-162.12668
-15.215755,-158.18175
-15.037918,-157.35745
-14.616987,-158.19431
-15.182463,-153.86421
-15.011856,-154.81863
-15.24388,-159.63177
-14.974998,-161.1192
-14.510059,-158.74879
-14.438231,-159.31177
-15.100068,-158.77806
-15.12222,-158.04085
-15.544449,-157.39806
-15.412109,-157.36127
-15.086386,-158.02647
-15.390866,-160.30595
-14.812854,-155.60562
-15.536384,-155.6765
-15.185717,-159.18768
-14.895519,-156.55878
-14.625637,-159.15286
-14.295541,-158.13841
-14.854548,-158.0374
-15.067978,-151.72012
-15.246301,-160.03322
-15.505191,-157.02211
-14.836149,-158.99422
-15.264525,-163.8119
-14.775467,-158.48917
-14.910634,-162.59822
-15.185685,-157.17665
-15.322371,-161.25026
-15.058028,-158.89433
-14.621157,-157.05627
-15.156731,-153.19095
-14.687598,-159.88416
-14.707062,-162.21829
-14.625414,-162.32613
-15.584678,-158.54233
-15.477791,-159.22514
-15.07023,-162.51909
-14.942052,-156.1494
-14.751919,-160.50533
-14.614716,-158.82281
-15.278239,-158.64754
-14.769989,-155.92479
-14.365182,-158.56494
-14.907313,-153.08575
-15.283132,-160.44237
-14.732879,-158.6817
-14.898083,-158.37053
-14.783961,-156.815
-15.389025,-160.39297
-14.454745,-161.34319
-14.546218,-154.57936
-14.715536,-161.36688
-15.173364,-158.64728
-15.741712,-158.88832
-14.395342,-155.21899
-15.08564,-160.36441
-15.236722,-156.16974
-15.21749,-155.77603
-14.617559,-157.01421
-14.825216,-159.05585
-14.856161,-157.33638
-14.824255,-152.60815
-15.055067,-160.1344
-15.350419,-157.4174
-14.419153,-161.2076
-14.713821,-157.92387
-15.108247,-158.71831
-15.326066,-155.02859
-14.472215,-157.67317
-14.544101,-159.68954
-15.180882,-162.87984
-14.735524,-158.65491
-14.76607,-161.65224
-14.770386,-160.21834
-15.319069,-156.10817
-14.640514,-158.41138
-14.895463,-159.91162
-15.378388,-159.50699
-14.960072,-157.95059
-15.303371,-156.91557
-15.068133,-158.72691
-15.611982,-158.42064
-15.327448,-156.44589
-15.230958,-156.76389
-14.930866,-160.66757
-15.336629,-155.64398
-14.857246,-160.84683
-14.454229,-158.84103
-15.042589,-161.16948
-14.886075,-161.57768
-14.442144,-159.11328
-15.233948,-161.15509
-15.324738,-160.68178
-14.847174,-157.72922
-14.96679,-158.69905
-15.119314,-157.78954
-15.533715,-158.11996
-14.84427,-155.41718
-15.242605,-160.84663
-14.769607,-161.25113
-15.140269,-158.96291
-15.064921,-158.54988
-15.051699,-157.76164
-14.944699,-156.77922
-15.231017,-158.51694
-14.910212,-160.26344
-15.029561,-159.58931
-15.090262,-160.54485
-15.207534,-157.82184
-14.839778,-155.23732
-15.061173,-158.62227
-15.076327,-158.23344
-15.290838,-156.94594
-15.717318,-158.94867
-14.897117,-157.60677
-14.780902,-158.19868
-14.580025,-159.10219
-14.941542,-157.07388
-15.208103,-157.80411
-15.033352,-158.40999
-15.357928,-161.33807
-14.920089,-160.60619
-14.892247,-159.33237
-14.972789,-157.99173
-15.478409,-158.90376
-14.342797,-159.86571
-15.496634,-155.0067
-15.307674,-158.44835
-14.994591,-155.78722
-14.424535,-160.61192
-14.649008,-161.24698
-14.452026,-155.7973
-15.462652,-159.42317
-14.982099,-157.43872
-14.964989,-159.15038
-15.145116,-159.02043
-14.955581,-156.65491
-15.147427,-158.86304
-15.068519,-160.42702
-14.840424,-156.42857
-14.539474,-160.52899
-14.901175,-159.8726
-15.035102,-156.83781
-15.130961,-156.99759
-14.797979,-159.40161
-15.216023,-156.90981
-14.789395,-160.089
-14.867631,-158.09714
-15.210261,-156.48981
-14.944414,-158.868
-14.86482,-156.74239
-14.686707,-157.87288
-15.197676,-156.52943
-14.75811,-160.33125
-15.128642,-156.99937
-15.321758,-155.9514
-15.266891,-158.51256
-14.862209,-158.55074
-14.820587,-157.74011
-15.342722,-159.43958
-15.268896,-157.20781
-14.769979,-160.33823
-15.269504,-157.05913
-15.075985,-159.41957
-15.693988,-158.02336
-14.908482,-156.63849
-14.727377,-156.36919
-14.825586,-159.84892
-14.954271,-158.11606
-15.290672,-158.13264
-15.240027,-161.85542
-14.740501,-158.91704
-15.040173,-161.31296
-15.00984,-161.07202
-14.798436,-157.69246
-14.899111,-159.70705
-14.7401,-156.18855
-14.953284,-160.01648
-14.871401,-158.0634
-15.112147,-159.05473
-15.358212,-156.01991
-15.327408,-158.08768
-15.067065,-159.68222
-15.121625,-159.07582
-15.084682,-159.89638
-15.027227,-159.55864
-15.085352,-160.24413
-14.870155,-158.17993
-15.059494,-157.9962
-15.189502,-155.87401
-15.243376,-157.60178
-14.928927,-155.84937
-15.129171,-157.51564
-15.167467,-157.6431
-15.338779,-158.63692
-14.606722,-160.48892
-15.104533,-157.09795
-14.996658,-157.94199
-15.456845,-157.0759
-15.051208,-157.6248
-15.088398,-160.30226
-15.022888,-158.17737
-14.939617,-159.40315
-14.900215,-160.04779
-14.831217,-160.43475
-14.741144,-157.95659
-14.91361,-158.75389
-15.146628,-156.4633
-15.221155,-156.78149
-14.829738,-160.25734
-15.063293,-157.97597
-14.78222,-158.783
-15.419445,-160.07315
