CITIFILE A.01.01
!Agilent Technologies,N5230C,MY48100142,A.08.04.10
!Agilent N5230C: A.08.04.10
!Format: LogMag/Angle
!Date: Friday, August 21, 2020 18:52:35
NAME CH1_DATA
VAR Power MAG 801
DATA S11 DBANGLE
DATA S21 DBANGLE
DATA S12 DBANGLE
DATA S22 DBANGLE
VAR_LIST_BEGIN
-40
-39.975
-39.95
-39.925
-39.9
-39.875
-39.85
-39.825
-39.8
-39.775
-39.75
-39.725
-39.7
-39.675
-39.65
-39.625
-39.6
-39.575
-39.55
-39.525
-39.5
-39.475
-39.45
-39.425
-39.4
-39.375
-39.35
-39.325
-39.3
-39.275
-39.25
-39.225
-39.2
-39.175
-39.15
-39.125
-39.1
-39.075
-39.05
-39.025
-39
-38.975
-38.95
-38.925
-38.9
-38.875
-38.85
-38.825
-38.8
-38.775
-38.75
-38.725
-38.7
-38.675
-38.65
-38.625
-38.6
-38.575
-38.55
-38.525
-38.5
-38.475
-38.45
-38.425
-38.4
-38.375
-38.35
-38.325
-38.3
-38.275
-38.25
-38.225
-38.2
-38.175
-38.15
-38.125
-38.1
-38.075
-38.05
-38.025
-38
-37.975
-37.95
-37.925
-37.9
-37.875
-37.85
-37.825
-37.8
-37.775
-37.75
-37.725
-37.7
-37.675
-37.65
-37.625
-37.6
-37.575
-37.55
-37.525
-37.5
-37.475
-37.45
-37.425
-37.4
-37.375
-37.35
-37.325
-37.3
-37.275
-37.25
-37.225
-37.2
-37.175
-37.15
-37.125
-37.1
-37.075
-37.05
-37.025
-37
-36.975
-36.95
-36.925
-36.9
-36.875
-36.85
-36.825
-36.8
-36.775
-36.75
-36.725
-36.7
-36.675
-36.65
-36.625
-36.6
-36.575
-36.55
-36.525
-36.5
-36.475
-36.45
-36.425
-36.4
-36.375
-36.35
-36.325
-36.3
-36.275
-36.25
-36.225
-36.2
-36.175
-36.15
-36.125
-36.1
-36.075
-36.05
-36.025
-36
-35.975
-35.95
-35.925
-35.9
-35.875
-35.85
-35.825
-35.8
-35.775
-35.75
-35.725
-35.7
-35.675
-35.65
-35.625
-35.6
-35.575
-35.55
-35.525
-35.5
-35.475
-35.45
-35.425
-35.4
-35.375
-35.35
-35.325
-35.3
-35.275
-35.25
-35.225
-35.2
-35.175
-35.15
-35.125
-35.1
-35.075
-35.05
-35.025
-35
-34.975
-34.95
-34.925
-34.9
-34.875
-34.85
-34.825
-34.8
-34.775
-34.75
-34.725
-34.7
-34.675
-34.65
-34.625
-34.6
-34.575
-34.55
-34.525
-34.5
-34.475
-34.45
-34.425
-34.4
-34.375
-34.35
-34.325
-34.3
-34.275
-34.25
-34.225
-34.2
-34.175
-34.15
-34.125
-34.1
-34.075
-34.05
-34.025
-34
-33.975
-33.95
-33.925
-33.9
-33.875
-33.85
-33.825
-33.8
-33.775
-33.75
-33.725
-33.7
-33.675
-33.65
-33.625
-33.6
-33.575
-33.55
-33.525
-33.5
-33.475
-33.45
-33.425
-33.4
-33.375
-33.35
-33.325
-33.3
-33.275
-33.25
-33.225
-33.2
-33.175
-33.15
-33.125
-33.1
-33.075
-33.05
-33.025
-33
-32.975
-32.95
-32.925
-32.9
-32.875
-32.85
-32.825
-32.8
-32.775
-32.75
-32.725
-32.7
-32.675
-32.65
-32.625
-32.6
-32.575
-32.55
-32.525
-32.5
-32.475
-32.45
-32.425
-32.4
-32.375
-32.35
-32.325
-32.3
-32.275
-32.25
-32.225
-32.2
-32.175
-32.15
-32.125
-32.1
-32.075
-32.05
-32.025
-32
-31.975
-31.95
-31.925
-31.9
-31.875
-31.85
-31.825
-31.8
-31.775
-31.75
-31.725
-31.7
-31.675
-31.65
-31.625
-31.6
-31.575
-31.55
-31.525
-31.5
-31.475
-31.45
-31.425
-31.4
-31.375
-31.35
-31.325
-31.3
-31.275
-31.25
-31.225
-31.2
-31.175
-31.15
-31.125
-31.1
-31.075
-31.05
-31.025
-31
-30.975
-30.95
-30.925
-30.9
-30.875
-30.85
-30.825
-30.8
-30.775
-30.75
-30.725
-30.7
-30.675
-30.65
-30.625
-30.6
-30.575
-30.55
-30.525
-30.5
-30.475
-30.45
-30.425
-30.4
-30.375
-30.35
-30.325
-30.3
-30.275
-30.25
-30.225
-30.2
-30.175
-30.15
-30.125
-30.1
-30.075
-30.05
-30.025
-30
-29.975
-29.95
-29.925
-29.9
-29.875
-29.85
-29.825
-29.8
-29.775
-29.75
-29.725
-29.7
-29.675
-29.65
-29.625
-29.6
-29.575
-29.55
-29.525
-29.5
-29.475
-29.45
-29.425
-29.4
-29.375
-29.35
-29.325
-29.3
-29.275
-29.25
-29.225
-29.2
-29.175
-29.15
-29.125
-29.1
-29.075
-29.05
-29.025
-29
-28.975
-28.95
-28.925
-28.9
-28.875
-28.85
-28.825
-28.8
-28.775
-28.75
-28.725
-28.7
-28.675
-28.65
-28.625
-28.6
-28.575
-28.55
-28.525
-28.5
-28.475
-28.45
-28.425
-28.4
-28.375
-28.35
-28.325
-28.3
-28.275
-28.25
-28.225
-28.2
-28.175
-28.15
-28.125
-28.1
-28.075
-28.05
-28.025
-28
-27.975
-27.95
-27.925
-27.9
-27.875
-27.85
-27.825
-27.8
-27.775
-27.75
-27.725
-27.7
-27.675
-27.65
-27.625
-27.6
-27.575
-27.55
-27.525
-27.5
-27.475
-27.45
-27.425
-27.4
-27.375
-27.35
-27.325
-27.3
-27.275
-27.25
-27.225
-27.2
-27.175
-27.15
-27.125
-27.1
-27.075
-27.05
-27.025
-27
-26.975
-26.95
-26.925
-26.9
-26.875
-26.85
-26.825
-26.8
-26.775
-26.75
-26.725
-26.7
-26.675
-26.65
-26.625
-26.6
-26.575
-26.55
-26.525
-26.5
-26.475
-26.45
-26.425
-26.4
-26.375
-26.35
-26.325
-26.3
-26.275
-26.25
-26.225
-26.2
-26.175
-26.15
-26.125
-26.1
-26.075
-26.05
-26.025
-26
-25.975
-25.95
-25.925
-25.9
-25.875
-25.85
-25.825
-25.8
-25.775
-25.75
-25.725
-25.7
-25.675
-25.65
-25.625
-25.6
-25.575
-25.55
-25.525
-25.5
-25.475
-25.45
-25.425
-25.4
-25.375
-25.35
-25.325
-25.3
-25.275
-25.25
-25.225
-25.2
-25.175
-25.15
-25.125
-25.1
-25.075
-25.05
-25.025
-25
-24.975
-24.95
-24.925
-24.9
-24.875
-24.85
-24.825
-24.8
-24.775
-24.75
-24.725
-24.7
-24.675
-24.65
-24.625
-24.6
-24.575
-24.55
-24.525
-24.5
-24.475
-24.45
-24.425
-24.4
-24.375
-24.35
-24.325
-24.3
-24.275
-24.25
-24.225
-24.2
-24.175
-24.15
-24.125
-24.1
-24.075
-24.05
-24.025
-24
-23.975
-23.95
-23.925
-23.9
-23.875
-23.85
-23.825
-23.8
-23.775
-23.75
-23.725
-23.7
-23.675
-23.65
-23.625
-23.6
-23.575
-23.55
-23.525
-23.5
-23.475
-23.45
-23.425
-23.4
-23.375
-23.35
-23.325
-23.3
-23.275
-23.25
-23.225
-23.2
-23.175
-23.15
-23.125
-23.1
-23.075
-23.05
-23.025
-23
-22.975
-22.95
-22.925
-22.9
-22.875
-22.85
-22.825
-22.8
-22.775
-22.75
-22.725
-22.7
-22.675
-22.65
-22.625
-22.6
-22.575
-22.55
-22.525
-22.5
-22.475
-22.45
-22.425
-22.4
-22.375
-22.35
-22.325
-22.3
-22.275
-22.25
-22.225
-22.2
-22.175
-22.15
-22.125
-22.1
-22.075
-22.05
-22.025
-22
-21.975
-21.95
-21.925
-21.9
-21.875
-21.85
-21.825
-21.8
-21.775
-21.75
-21.725
-21.7
-21.675
-21.65
-21.625
-21.6
-21.575
-21.55
-21.525
-21.5
-21.475
-21.45
-21.425
-21.4
-21.375
-21.35
-21.325
-21.3
-21.275
-21.25
-21.225
-21.2
-21.175
-21.15
-21.125
-21.1
-21.075
-21.05
-21.025
-21
-20.975
-20.95
-20.925
-20.9
-20.875
-20.85
-20.825
-20.8
-20.775
-20.75
-20.725
-20.7
-20.675
-20.65
-20.625
-20.6
-20.575
-20.55
-20.525
-20.5
-20.475
-20.45
-20.425
-20.4
-20.375
-20.35
-20.325
-20.3
-20.275
-20.25
-20.225
-20.2
-20.175
-20.15
-20.125
-20.1
-20.075
-20.05
-20.025
-20
VAR_LIST_END
BEGIN
-15.413316,-155.9297
-14.86441,-159.84047
-15.114326,-160.35658
-15.005492,-159.02357
-15.273617,-157.12767
-15.212499,-157.69646
-15.108193,-160.26367
-15.220826,-157.68253
-15.462798,-158.71587
-15.162049,-153.05249
-15.257547,-162.29359
-14.986176,-158.59787
-14.691389,-160.03476
-14.79828,-161.32664
-14.825353,-158.07648
-14.898056,-158.03679
-14.408788,-160.72195
-15.584695,-156.37866
-14.951485,-160.09523
-15.130794,-158.79744
-15.041036,-160.9964
-14.397101,-160.90048
-14.819593,-159.39908
-15.429702,-157.75145
-15.141621,-156.67415
-14.908607,-158.86446
-15.333821,-158.87436
-14.881121,-158.95946
-14.558633,-157.58142
-14.888919,-161.38303
-15.087531,-158.43272
-15.1073,-162.06892
-15.078444,-160.81931
-15.172731,-159.36426
-14.406324,-157.75508
-15.308065,-158.60503
-15.457169,-158.76033
-14.782038,-157.666
-15.233061,-163.76666
-14.816583,-155.3239
-14.511467,-161.39911
-15.14994,-158.57755
-15.11747,-158.66743
-14.857185,-158.50865
-15.05389,-159.72131
-14.929593,-157.33701
-14.974133,-157.45251
-15.233486,-156.35692
-14.957619,-158.94528
-15.296885,-158.3195
-14.793595,-158.57813
-15.252527,-160.1161
-15.298955,-158.8866
-15.324746,-159.73557
-14.789717,-156.32362
-14.652628,-157.64799
-15.188329,-156.40117
-15.382946,-160.0676
-14.805567,-163.32054
-15.124216,-158.90897
-15.446682,-160.10388
-15.149532,-158.15352
-14.936311,-156.81839
-15.069765,-158.14151
-15.152737,-159.39099
-14.930535,-159.12283
-14.59532,-155.22643
-14.94407,-156.42177
-14.929371,-160.83092
-15.14565,-158.11732
-15.3838,-159.63712
-14.943295,-158.2794
-15.084883,-157.39847
-15.024861,-157.55344
-14.773373,-158.51529
-15.014467,-160.6073
-15.253946,-158.44136
-15.049038,-155.95688
-15.050408,-162.3945
-14.849422,-158.19992
-15.420607,-159.85063
-15.127658,-159.51665
-14.409153,-156.37773
-15.243329,-161.1709
-15.108498,-156.90443
-14.858173,-160.01958
-15.387876,-160.95959
-14.941051,-156.4698
-14.999174,-158.07555
-15.07767,-158.612
-15.116271,-159.03859
-14.89108,-159.30836
-15.062928,-157.78409
-14.911995,-159.83318
-14.93392,-158.41609
-14.836408,-158.23267
-15.262651,-158.98131
-14.955517,-159.62463
-15.175229,-161.33281
-14.880765,-160.04657
-15.073637,-157.00468
-15.100398,-156.69753
-14.471011,-157.69611
-15.300035,-158.78676
-15.230373,-161.10236
-14.827374,-159.23657
-15.228758,-157.31454
-15.192289,-156.21672
-14.897403,-158.41121
-15.119111,-158.53981
-15.144187,-159.55661
-14.947215,-157.40462
-15.277395,-157.29556
-14.929066,-158.13501
-15.166664,-158.27986
-14.606572,-157.39595
-14.93201,-158.38589
-15.291899,-158.96222
-14.489985,-160.6205
-15.332483,-160.00462
-15.274428,-158.44977
-15.164118,-157.96606
-14.63239,-158.78093
-15.14239,-159.68834
-14.934596,-160.13118
-14.879277,-159.55138
-15.15447,-159.94989
-15.004047,-158.19905
-14.958076,-160.46268
-15.384329,-158.16002
-15.094842,-158.3512
-14.99583,-161.68176
-15.139952,-159.24638
-15.035696,-161.93153
-15.249545,-160.55309
-14.854058,-156.98685
-14.934182,-158.41533
-14.729376,-158.76837
-15.224886,-157.96169
-14.978782,-157.66246
-14.859591,-157.5294
-15.191481,-159.81558
-14.744465,-158.76411
-14.958574,-158.37003
-15.04298,-157.30382
-14.73993,-157.94566
-14.848478,-158.92876
-15.030915,-161.83693
-14.769177,-158.57816
-15.457089,-157.91034
-14.86854,-158.72049
-15.164533,-159.80469
-15.092121,-157.18358
-14.981002,-157.35829
-14.848149,-160.82549
-15.480258,-157.64792
-15.088108,-160.04813
-14.942804,-161.76938
-15.123538,-159.56891
-15.335175,-158.51445
-15.17529,-159.75414
-14.674142,-158.98744
-15.627122,-155.95831
-15.356258,-159.87035
-15.010058,-158.76237
-14.728765,-160.98808
-14.935833,-157.97212
-15.305967,-156.12202
-15.059371,-158.2476
-15.05573,-156.75014
-14.777649,-157.45273
-14.804976,-159.3741
-14.935244,-159.8264
-15.2223,-158.44458
-15.089194,-159.60085
-14.90859,-157.62265
-15.184293,-158.63799
-14.867105,-159.51923
-14.929714,-156.59741
-15.208392,-158.99759
-15.105929,-161.37463
-15.089435,-158.74046
-15.141059,-159.40915
-15.096646,-157.49365
-15.106346,-158.86214
-14.966277,-159.43079
-15.082855,-159.1335
-14.791871,-157.06764
-15.224251,-156.52603
-15.045564,-158.47049
-15.13938,-158.95369
-15.123033,-158.72125
-15.062426,-157.64021
-14.735456,-158.15953
-14.991529,-158.20226
-15.290072,-158.87111
-15.026098,-158.46602
-14.868199,-157.96143
-15.250867,-156.87645
-14.888883,-161.79794
-15.283195,-158.43004
-14.575172,-159.80486
-14.908313,-159.7627
-14.989772,-159.99747
-15.320133,-158.98328
-15.1154,-161.20776
-15.260756,-159.42003
-15.153328,-159.16168
-14.950826,-158.01141
-15.044164,-157.69092
-15.020624,-159.67577
-15.186093,-157.07417
-14.88718,-160.78087
-15.118886,-158.87643
-15.044502,-158.83408
-14.929523,-156.8736
-15.018764,-156.60078
-15.091249,-159.32442
-14.645014,-159.3076
-15.101026,-158.92484
-14.572633,-158.18765
-14.928344,-160.59398
-14.928611,-160.16414
-14.928833,-157.21379
-14.984822,-161.04515
-15.052636,-158.71814
-15.239326,-157.467
-15.096601,-157.95154
-15.348305,-158.2171
-15.23443,-157.69237
-15.040257,-160.5605
-14.904745,-160.08011
-15.130769,-158.65784
-15.165697,-159.6506
-14.674556,-158.10345
-14.96596,-158.39142
-15.085025,-158.4044
-15.23329,-159.97707
-15.124053,-160.23427
-14.941034,-160.18848
-15.019077,-159.85561
-15.08724,-159.5649
-14.928392,-157.35825
-15.080733,-158.05804
-15.213182,-159.61192
-14.965949,-157.24944
-14.892005,-159.09412
-14.826584,-158.45425
-14.937844,-158.67659
-14.650576,-156.88815
-15.032907,-158.86142
-14.888725,-159.83517
-14.836975,-158.34845
-15.003593,-159.2424
-15.165822,-159.80093
-14.942071,-158.49252
-15.01953,-159.96979
-14.89438,-159.96672
-14.85815,-159.92297
-15.294766,-158.91809
-15.072284,-158.34021
-14.884957,-157.29343
-15.049238,-158.30843
-15.013467,-159.66655
-14.694889,-157.674
-14.940454,-155.77599
-15.111624,-158.68832
-15.102245,-158.05048
-15.032533,-157.11938
-14.967102,-157.81352
-15.265484,-160.57141
-15.199559,-156.81436
-15.183655,-159.23749
-15.137598,-158.78117
-14.950768,-159.10034
-15.114206,-159.32704
-15.023706,-158.90048
-15.127834,-157.96474
-14.951305,-160.16592
-15.020906,-158.47968
-15.036244,-157.34138
-15.062092,-159.23315
-15.056494,-159.11813
-14.932624,-158.54309
-15.054617,-158.85559
-14.960093,-158.61311
-15.262814,-158.95421
-14.73587,-159.21104
-15.274137,-157.89598
-14.959487,-157.16931
-15.032242,-158.44565
-15.085647,-159.36757
-14.882605,-158.44884
-15.228989,-157.13377
-15.129789,-159.73116
-14.968904,-159.72507
-15.054044,-158.00591
-15.262358,-160.25159
-15.234016,-160.06668
-15.028028,-159.85295
-15.14838,-158.67017
-15.188769,-159.28804
-15.246425,-157.55229
-15.23604,-159.40642
-15.086584,-159.35184
-14.913358,-160.02588
-15.073392,-159.22247
-14.868828,-159.72641
-14.927779,-158.89493
-15.221645,-158.51656
-14.947186,-158.25002
-14.930132,-158.7076
-14.946521,-157.09438
-15.015504,-159.25081
-14.998159,-158.32384
-14.916552,-159.8221
-15.035336,-157.69792
-15.134127,-157.18181
-14.96238,-159.25175
-14.979471,-158.90179
-15.211065,-157.91469
-15.09648,-157.84686
-15.065028,-159.39923
-15.075883,-157.76012
-14.970383,-159.06895
-14.948974,-159.32298
-14.998061,-158.6091
-14.903168,-159.08929
-14.913453,-159.95518
-15.203852,-158.38968
-14.933964,-159.51137
-15.032274,-158.77037
-15.028403,-159.44595
-14.902969,-159.44177
-15.113099,-157.79018
-14.962774,-159.21812
-15.236579,-159.40689
-15.171797,-159.63487
-14.883224,-159.638
-15.02016,-159.14975
-14.847058,-158.4886
-15.00204,-160.16521
-15.126883,-158.27618
-15.038086,-158.48904
-15.230401,-159.05559
-14.872603,-158.88214
-15.225034,-158.96384
-15.308561,-159.46375
-15.042412,-158.07114
-15.231998,-158.08002
-14.863473,-159.77876
-15.119853,-159.34789
-15.127456,-158.5692
-14.883883,-158.57524
-15.094993,-159.28543
-15.252061,-159.79019
-15.417604,-158.79271
-14.882723,-158.44945
-14.980233,-158.67017
-15.106146,-158.86685
-15.016345,-159.87956
-15.172052,-157.55467
-14.94602,-157.10013
-15.156935,-158.5211
-15.147341,-158.94257
-15.12547,-158.96223
-15.081871,-159.16068
-15.101988,-157.46977
-14.940671,-158.95012
-15.046662,-159.16336
-14.978563,-159.48686
-15.112017,-158.70335
-15.061509,-159.01167
-15.106921,-160.55473
-15.074446,-157.78067
-15.189058,-157.91014
-15.260531,-158.74718
-14.931039,-159.58774
-14.921496,-158.448
-14.960328,-159.36812
-15.238639,-159.61432
-15.115195,-158.64799
-15.181901,-158.59076
-15.132766,-159.40015
-15.081817,-159.3338
-14.987786,-158.44925
-15.277661,-158.20724
-15.148166,-159.18341
-14.795019,-159.0519
-15.225461,-159.19986
-15.237693,-157.95653
-14.918863,-158.37486
-15.061801,-159.20952
-15.171045,-159.85922
-14.925212,-158.43144
-15.029095,-158.08478
-14.924035,-157.88403
-15.198359,-159.11052
-15.026586,-157.7634
-15.221047,-159.56995
-15.048415,-158.9407
-15.1516,-159.08466
-15.018221,-158.98756
-15.044646,-158.9427
-15.194468,-159.9245
-15.362844,-159.98048
-15.141516,-159.35641
-15.01815,-159.22849
-14.970128,-158.78056
-15.196811,-158.1642
-14.935566,-159.31821
-14.905442,-158.16492
-15.151453,-158.01256
-14.946719,-159.4025
-15.036612,-158.37227
-15.300885,-159.10786
-14.774386,-159.29285
-15.03815,-158.93372
-14.992085,-158.89037
-15.087996,-157.51204
-15.169853,-158.60687
-15.108705,-158.99367
-15.034737,-158.3354
-15.114814,-158.19926
-15.090904,-158.24174
-14.879718,-158.80882
-15.061741,-159.31662
-15.011817,-158.86407
-14.973744,-158.26837
-15.04882,-160.04726
-14.865897,-158.63812
-15.002275,-159.20848
-15.029603,-157.86198
-15.092861,-158.29224
-15.020425,-159.17792
-15.222156,-159.04291
-14.96244,-159.42084
-15.186657,-159.2785
-14.927097,-159.11496
-14.917383,-159.12698
-14.876991,-158.46689
-15.029111,-159.97458
-15.028746,-158.63573
-15.047565,-159.43633
-15.256382,-159.04474
-15.002682,-159.01851
-15.077901,-158.91754
-14.987755,-158.5873
-15.02772,-158.92996
-14.935614,-159.04234
-15.048852,-158.7814
-15.024594,-158.64763
-14.938767,-159.1201
-15.071197,-158.84515
-15.029179,-159.05251
-15.099531,-159.0663
-14.985008,-157.87672
-15.123454,-158.90793
-15.092237,-158.80341
-15.051894,-159.57217
-15.156964,-159.21404
-14.95948,-158.64221
-15.086508,-159.84351
-14.882051,-158.24883
-15.096966,-158.79095
-15.126138,-158.08946
-15.094929,-159.73654
-15.145848,-158.89278
-14.953719,-158.76877
-15.017756,-159.81883
-14.939203,-158.50069
-15.073052,-158.88048
-15.12142,-159.0705
-15.108028,-158.10526
-14.907833,-157.84468
-15.109513,-159.05254
-15.048069,-158.52196
-15.011417,-158.76523
-15.122718,-158.29817
-15.042531,-159.37741
-15.065343,-158.60992
-15.021117,-158.91321
-15.065651,-158.31813
-15.147506,-158.56532
-15.061318,-160.33156
-14.990004,-158.28096
-14.8862,-158.0818
-14.923789,-159.45464
-15.086374,-158.39136
-14.917149,-158.65018
-15.072396,-159.11433
-14.898661,-160.03375
-15.037824,-159.24562
-15.028322,-157.80423
-15.085762,-158.81209
-15.131201,-159.42503
-15.011901,-159.41422
-15.039761,-158.82431
-15.133027,-158.24988
-15.056962,-158.30795
-15.077247,-159.03049
-15.026104,-158.80917
-15.150733,-158.52066
-15.034601,-157.77043
-15.149754,-158.43814
-15.003093,-159.22661
-15.067974,-158.52992
-15.065983,-158.95148
-14.983183,-159.08037
-15.054075,-158.67026
-15.102837,-159.26242
-15.135858,-158.80878
-15.08958,-158.31343
-15.088913,-159.54984
-15.122355,-158.59642
-15.003571,-158.76343
-15.120399,-158.8777
-14.998605,-159.23964
-15.167171,-158.39131
-14.963729,-158.31378
-14.99785,-158.53523
-15.029325,-159.31961
-15.000564,-158.98528
-15.001809,-159.00255
-14.923325,-160.27817
-15.010477,-158.67114
-14.860537,-158.11676
-14.998207,-158.06107
-15.126628,-159.10739
-14.969835,-158.77382
-15.145056,-159.31935
-15.19797,-159.00041
-14.995312,-159.17584
-14.922273,-159.29759
-15.058348,-159.3692
-15.068533,-158.38393
-14.9657,-159.19571
-15.033566,-159.16081
-15.118807,-159.28857
-15.142821,-158.06049
-15.043788,-158.42499
-15.014164,-157.81618
-15.152782,-158.48991
-15.108907,-158.25214
-15.001641,-158.5899
-15.066297,-158.85493
-14.974329,-158.26915
-15.033461,-158.32806
-15.138524,-159.01102
-15.041534,-158.541
-15.086942,-158.9317
-15.049566,-158.85248
-15.038088,-158.5533
-14.979835,-158.37637
-15.030586,-159.00816
-15.005983,-158.54312
-15.199154,-159.12137
-14.945743,-158.90025
-14.999107,-158.52692
-15.058933,-159.63603
-15.005116,-159.54971
-14.994525,-158.60355
-15.091041,-158.53885
-15.039634,-159.18431
-15.039956,-159.0092
-15.080169,-158.84465
-15.136244,-158.48329
-15.008964,-158.03601
-14.998336,-158.4478
-15.039743,-158.29884
-14.917633,-157.62735
-15.01048,-158.6904
-15.050666,-159.00922
-15.007314,-159.35103
-14.99167,-159.23695
-14.960109,-159.05977
