CITIFILE A.01.01
!Agilent Technologies,N5230C,MY48100142,A.08.04.10
!Agilent N5230C: A.08.04.10
!Date: Monday, March 31, 2025 16:37:16
NAME CH1_DATA
VAR Freq MAG 201
DATA S11 RI
DATA S21 RI
DATA S12 RI
DATA S22 RI
VAR_LIST_BEGIN
10000000
109950000
209900000
309850000
409800000
509750000
609700000
709650000
809600000
909550000
1009500000
1109450000
1209400000
1309350000
1409300000
1509250000
1609200000
1709150000
1809100000
1909050000
2009000000
2108950000
2208900000
2308850000
2408800000
2508750000
2608700000
2708650000
2808600000
2908550000
3008500000
3108450000
3208400000
3308350000
3408300000
3508250000
3608200000
3708150000
3808100000
3908050000
4008000000
4107950000
4207900000
4307850000
4407800000
4507750000
4607700000
4707650000
4807600000
4907550000
5007500000
5107450000
5207400000
5307350000
5407300000
5507250000
5607200000
5707150000
5807100000
5907050000
6007000000
6106950000
6206900000
6306850000
6406800000
6506750000
6606700000
6706650000
6806600000
6906550000
7006500000
7106450000
7206400000
7306350000
7406300000
7506250000
7606200000
7706150000
7806100000
7906050000
8006000000
8105950000
8205900000
8305850000
8405800000
8505750000
8605700000
8705650000
8805600000
8905550000
9005500000
9105450000
9205400000
9305350000
9405300000
9505250000
9605200000
9705150000
9805100000
9905050000
10005000000
10104950000
10204900000
10304850000
10404800000
10504750000
10604700000
10704650000
10804600000
10904550000
11004500000
11104450000
11204400000
11304350000
11404300000
11504250000
11604200000
11704150000
11804100000
11904050000
12004000000
12103950000
12203900000
12303850000
12403800000
12503750000
12603700000
12703650000
12803600000
12903550000
13003500000
13103450000
13203400000
13303350000
13403300000
13503250000
13603200000
13703150000
13803100000
13903050000
14003000000
14102950000
14202900000
14302850000
14402800000
14502750000
14602700000
14702650000
14802600000
14902550000
15002500000
15102450000
15202400000
15302350000
15402300000
15502250000
15602200000
15702150000
15802100000
15902050000
16002000000
16101950000
16201900000
16301850000
16401800000
16501750000
16601700000
16701650000
16801600000
16901550000
17001500000
17101450000
17201400000
17301350000
17401300000
17501250000
17601200000
17701150000
17801100000
17901050000
18001000000
18100950000
18200900000
18300850000
18400800000
18500750000
18600700000
18700650000
18800600000
18900550000
19000500000
19100450000
19200400000
19300350000
19400300000
19500250000
19600200000
19700150000
19800100000
19900050000
20000000000
VAR_LIST_END
BEGIN
-0.019780103,-0.078557983
0.13933903,-0.08247336
0.13385539,-0.053862736
0.16702706,-0.041066833
0.15802851,-0.00020594534
0.14613259,0.0053360946
0.16183715,0.034459107
0.126366,0.03820309
0.14643304,0.040265266
0.14524217,0.069040939
0.096768714,0.021323429
0.13874838,0.047086842
0.1024249,0.031068398
0.10594618,0.015871886
0.10749277,0.042262096
0.074557588,-0.0047165565
0.10475116,0.021176534
0.077372536,0.027834022
0.070234224,0.014662777
0.077757724,0.021207565
0.093093522,0.014785375
0.097323902,0.02826635
0.074043766,0.015075004
0.099597126,-0.0060358103
0.12616675,0.0065950286
0.1176028,0.023538863
0.13147852,-0.018527392
0.17565298,-0.0056974515
0.1946657,0.025844723
0.20034008,0.023015929
0.19913705,0.039018452
0.257256,0.033968192
0.26547846,0.081073038
0.24184453,0.098761253
0.26912597,0.080228969
0.25978571,0.13185447
0.24066798,0.14614059
0.20444079,0.15053761
0.18592365,0.14403498
0.18268295,0.17136809
0.12141846,0.18910421
0.087905668,0.15032315
0.072074533,0.15624076
0.056780532,0.16627383
0.0066956794,0.1713824
-0.012360464,0.14321803
0.0012703894,0.1363645
-0.025171233,0.15158056
-0.046724129,0.1407862
-0.049083594,0.10248908
-0.025855642,0.10796249
-0.046699136,0.11524332
-0.061091073,0.084437594
-0.04858714,0.065904021
-0.032784823,0.057313234
-0.04429793,0.058712203
-0.057421584,0.01933717
-0.0036834741,-0.01165395
-0.0018772618,-0.0075560496
0.0068798312,-0.018537952
0.0129464,-0.051659606
0.034481458,-0.060267612
0.067351721,-0.048721395
0.047476534,-0.050022535
0.067685694,-0.052354183
0.082746185,-0.052632108
0.072331071,-0.019593619
0.05657712,0.0050634453
0.036509629,-0.011755177
0.036409881,0.028298978
0.010416688,0.067690834
-0.033329796,0.069715731
-0.059909716,0.073112249
-0.06202491,0.07976041
-0.10986741,0.094778955
-0.1589888,0.084750891
-0.15498513,0.051609982
-0.18098958,0.064397112
-0.20334718,0.050392658
-0.22860368,0.0062641217
-0.23414996,-0.023934595
-0.21497896,-0.037385259
-0.24401562,-0.066924132
-0.23117062,-0.10229829
-0.20658945,-0.13364996
-0.19350369,-0.14742555
-0.18337397,-0.1698197
-0.1499794,-0.21441083
-0.10435575,-0.22493362
-0.074078292,-0.22852018
-0.057495184,-0.24018541
-0.017431526,-0.25690785
0.028702015,-0.24054432
0.048527364,-0.22311008
0.062587008,-0.23080891
0.10293849,-0.20618655
0.13842845,-0.17749505
0.11948974,-0.13905191
0.13252689,-0.12369505
0.15354165,-0.10972037
0.14130305,-0.048834026
0.12766685,-0.039404057
0.1044959,-0.020792665
0.10218733,0.0035006055
0.07514824,0.017841611
0.026386542,0.02283317
0.023800913,0.005771752
0.0012039241,0.0054332102
-0.034007888,0.02121559
-0.071092688,-0.0081304116
-0.082625762,-0.028815499
-0.087356538,-0.023547959
-0.10424162,-0.038902231
-0.13099222,-0.064090759
-0.11040184,-0.086631097
-0.10376331,-0.082509577
-0.12851213,-0.096777759
-0.10864129,-0.11829967
-0.08358784,-0.13009939
-0.080731347,-0.12825206
-0.066433765,-0.12299497
-0.048746187,-0.12879041
-0.028689045,-0.11605541
-0.015427223,-0.10071741
-0.014373114,-0.094203345
0.019819796,-0.08793781
0.036470044,-0.081200749
0.037805334,-0.044536076
0.056854505,-0.027651055
0.048592675,-0.02896974
0.086173996,0.017658656
0.084262058,0.040057737
0.066798285,0.043797817
0.097476646,0.07021343
0.082509056,0.07445129
0.061777767,0.11514109
0.031888045,0.11969209
0.051163338,0.11997775
0.019626111,0.14130934
-0.018929083,0.14264856
-0.018814756,0.14407152
-0.044621088,0.12944826
-0.045789592,0.13150065
-0.091804348,0.11318138
-0.10376175,0.086660869
-0.098214202,0.065901496
-0.11217605,0.052604407
-0.12870088,0.02759362
-0.13567758,-0.0046295519
-0.1085043,-0.022066681
-0.11829178,-0.034677669
-0.12601735,-0.037721328
-0.081201792,-0.066782378
-0.064664945,-0.072938502
-0.072621465,-0.038669135
-0.057170764,-0.064757988
-0.03308982,-0.05764417
-0.014994348,-0.0372109
-0.020207318,-0.024626952
-0.010434543,-0.028906591
0.012133841,-0.016491301
0.012414342,0.0076434519
-0.0041998494,0.009558606
0.0049921982,0.0035590495
0.035615381,0.0052740988
0.01363252,0.01893818
0.029115709,0.024675541
0.029865332,0.0004220714
0.054706801,0.016043827
0.066746645,0.026162213
0.055105962,0.0069430545
0.084968001,0.0029619138
0.10123122,0.017779855
0.095223531,0.041603494
0.093153991,0.042548493
0.097688258,0.052669685
0.1163802,0.078574821
0.098899081,0.084863067
0.089492254,0.10011673
0.073844455,0.12466712
0.052230254,0.14569342
0.017834153,0.15166581
-0.0069456566,0.1633952
-0.016260562,0.16697522
-0.050797079,0.1668558
-0.080491148,0.16999596
-0.11157018,0.14609411
-0.11058865,0.13270654
-0.1262026,0.12423591
-0.1675144,0.10171835
-0.16810431,0.076258644
-0.14959472,0.055004526
-0.15369347,0.046193663
-0.17199184,0.0051564611
-0.15629797,0.0022486262
-0.12623493,-0.017260768
-0.13486603,-0.036504351
-0.12339412,-0.042915236
-0.084426977,-0.047581464
-0.057865202,-0.053076118
-0.053728886,-0.055243082
END
BEGIN
0.76220459,-0.058923393
0.79153973,-0.1355399
0.75498015,-0.24280883
0.71705616,-0.34855571
0.65612489,-0.43914151
0.57752991,-0.53145987
0.51207882,-0.60619622
0.40448549,-0.66552317
0.30908889,-0.72453326
0.21524696,-0.75681257
0.083152138,-0.77587748
-0.013608914,-0.79506671
-0.13659248,-0.7675305
-0.25234386,-0.74202508
-0.34410861,-0.70565772
-0.44162589,-0.6339739
-0.53681052,-0.57574898
-0.60676765,-0.49083716
-0.67144918,-0.39624894
-0.72130704,-0.29937676
-0.75589049,-0.18586454
-0.7796759,-0.074164502
-0.77863097,0.031825669
-0.75682187,0.14823914
-0.7243048,0.26025701
-0.68428379,0.36425602
-0.61554646,0.44357529
-0.53632975,0.52877015
-0.45133001,0.59878379
-0.3557044,0.65443212
-0.26591742,0.69954467
-0.16097929,0.69799471
-0.029118439,0.71847486
0.057075001,0.72804356
0.14525054,0.67833507
0.25092378,0.66670686
0.33728459,0.59875882
0.42260855,0.56978756
0.48044187,0.51762772
0.53650874,0.41811255
0.61712641,0.35507345
0.64359939,0.27244014
0.67890233,0.18820679
0.68983442,0.086162679
0.69638389,-0.015722714
0.69566214,-0.10378101
0.65638155,-0.18986164
0.62466311,-0.28882542
0.57504219,-0.37225345
0.52865672,-0.44280982
0.44925621,-0.50796843
0.37379378,-0.57193553
0.29096371,-0.62366378
0.20121764,-0.65692651
0.11011066,-0.67339939
0.0050578383,-0.68527901
-0.088679984,-0.69272536
-0.17189206,-0.66117966
-0.27256238,-0.62836879
-0.3583656,-0.58495635
-0.43588606,-0.53523588
-0.49823692,-0.46347731
-0.55934161,-0.37978074
-0.61442977,-0.3021332
-0.64817822,-0.21320145
-0.66736597,-0.12127186
-0.67840332,-0.017773602
-0.67693228,0.086200714
-0.66585499,0.17535841
-0.62397557,0.27109334
-0.57352173,0.3634479
-0.5145542,0.44760519
-0.4401966,0.51413774
-0.35790548,0.5687167
-0.26889628,0.60657769
-0.16764066,0.63025993
-0.072479866,0.65040237
0.017453687,0.63896841
0.10471177,0.62186509
0.18937379,0.58409166
0.27560627,0.54515606
0.33856961,0.51217109
0.38631499,0.45045128
0.4332369,0.38814807
0.49571976,0.31957909
0.52297747,0.26245666
0.5572359,0.21029204
0.55431306,0.10745544
0.58312935,0.035859361
0.59796304,-0.05947065
0.55509901,-0.098674707
0.53622502,-0.19574477
0.49248952,-0.27549499
0.48145178,-0.32710493
0.41885179,-0.38167909
0.36141482,-0.42097822
0.29487914,-0.49807742
0.25038385,-0.52505034
0.17362358,-0.54855555
0.082588799,-0.56110126
0.0068327612,-0.58984822
-0.073666066,-0.57865155
-0.14271943,-0.5616169
-0.2433275,-0.53147531
-0.31071344,-0.49149826
-0.37247491,-0.44926319
-0.43094599,-0.3705948
-0.48345327,-0.30653599
-0.52420914,-0.24640842
-0.53836721,-0.16397786
-0.55667084,-0.083135694
-0.57666528,-0.00448609
-0.56342059,0.067637905
-0.54043472,0.13373615
-0.51420975,0.22582269
-0.49148867,0.28468212
-0.45206124,0.33520922
-0.38448054,0.39003989
-0.32875565,0.44958431
-0.27648732,0.48856112
-0.21291022,0.51970094
-0.12391718,0.51898259
-0.052389607,0.5523144
0.02574924,0.56696397
0.064459793,0.53414023
0.17771968,0.54124188
0.26038024,0.50029892
0.32216823,0.48916572
0.3937546,0.42363858
0.43716976,0.34527811
0.51292461,0.29419154
0.54282129,0.22164658
0.56358159,0.14148116
0.58442956,0.049330611
0.58059281,-0.033214554
0.57385081,-0.10491654
0.53923947,-0.1924933
0.51492381,-0.27405176
0.46937722,-0.32478812
0.40553468,-0.39884493
0.33828774,-0.45495373
0.27536818,-0.49603125
0.21638152,-0.53805232
0.10784284,-0.53622437
0.044462342,-0.56604773
-0.038374379,-0.57752317
-0.10161142,-0.53584009
-0.18740283,-0.53227931
-0.28125706,-0.49125218
-0.32211497,-0.46790847
-0.38288891,-0.41263017
-0.44013554,-0.32889625
-0.5012874,-0.29084408
-0.53605312,-0.21927479
-0.5354864,-0.1333607
-0.56473118,-0.048523493
-0.57761365,0.03897123
-0.55826527,0.10172886
-0.5291059,0.18762557
-0.49530768,0.2806071
-0.45476973,0.34732121
-0.40679967,0.3922765
-0.32052255,0.45394391
-0.25119829,0.49763727
-0.19493367,0.54114527
-0.097817048,0.53577971
-0.02052477,0.54472071
0.075356729,0.55231333
0.13739441,0.52830118
0.21038778,0.48979041
0.3025656,0.44186416
0.34561324,0.41183639
0.40209189,0.34585753
0.43741629,0.26993182
0.47312525,0.19726256
0.5174042,0.12990931
0.49500138,0.067939632
0.48642889,-0.030338909
0.49046364,-0.09949369
0.46840248,-0.14815998
0.42937541,-0.20018888
0.38381281,-0.25624871
0.34983331,-0.32409883
0.32917613,-0.34723505
0.25746316,-0.38185227
0.19179633,-0.40973124
0.14986576,-0.44658196
0.097674184,-0.46692669
0.032394703,-0.45207208
-0.050339293,-0.4615705
-0.10228927,-0.46010938
-0.16432816,-0.4495005
-0.21524692,-0.40169537
-0.29218498,-0.36346063
-0.34110156,-0.3331964
-0.37679192,-0.29043549
-0.4175956,-0.21219985
-0.45079955,-0.1394738
-0.48063865,-0.075999975
-0.4737716,-0.018014845
-0.46108344,0.064066261
END
BEGIN
0.76372856,-0.061335329
0.79034227,-0.13589272
0.75589842,-0.24307711
0.71751451,-0.34811884
0.65637183,-0.43903941
0.57757068,-0.53192759
0.5119797,-0.60698748
0.40302306,-0.66632438
0.30790997,-0.72478938
0.2141811,-0.75751966
0.082624488,-0.77680218
-0.013279852,-0.7952531
-0.1374011,-0.76715803
-0.25351518,-0.74258035
-0.34501061,-0.70525122
-0.44266492,-0.63371915
-0.53700936,-0.57431984
-0.60702711,-0.48963508
-0.6717211,-0.39648032
-0.72082645,-0.29910359
-0.7557894,-0.18457648
-0.77893746,-0.073416889
-0.78015131,0.03335312
-0.75762385,0.14960174
-0.7237913,0.26143757
-0.68288022,0.3635661
-0.61511362,0.44413939
-0.53547788,0.53103435
-0.4513213,0.60047507
-0.35629788,0.65232491
-0.26282045,0.69969434
-0.15833865,0.69913602
-0.030902794,0.71912545
0.053473413,0.72450757
0.15005343,0.67514908
0.25515157,0.6661548
0.33423519,0.60249561
0.42010584,0.56856495
0.48111603,0.51397991
0.53922802,0.41719452
0.6178996,0.35842729
0.641563,0.27298397
0.67708027,0.18509473
0.69141525,0.083548166
0.69627196,-0.013453468
0.69297224,-0.10326852
0.65524155,-0.19031279
0.62527096,-0.28874162
0.57375062,-0.3706429
0.52565652,-0.44190398
0.44838735,-0.51103729
0.37410906,-0.57174653
0.29255325,-0.61856198
0.19832736,-0.65680528
0.10936262,-0.67865008
0.0066402126,-0.68612432
-0.087774619,-0.68779248
-0.17989701,-0.65998405
-0.27349189,-0.63369566
-0.35294533,-0.58384806
-0.43270373,-0.52808976
-0.50361621,-0.4633927
-0.55927116,-0.38595366
-0.60638821,-0.30294806
-0.64427036,-0.20726156
-0.67232156,-0.11581507
-0.68384379,-0.020825583
-0.67199892,0.078312591
-0.65893382,0.17988104
-0.62809199,0.27858403
-0.57796806,0.36056501
-0.51373869,0.44187921
-0.43512982,0.51482499
-0.35579312,0.57302094
-0.26763538,0.60478383
-0.16707675,0.62569618
-0.0741603,0.64793837
0.016742505,0.63806295
0.1072612,0.62326223
0.19049221,0.58792543
0.27540618,0.54925847
0.33611372,0.50918031
0.38781047,0.44466919
0.43956831,0.38619924
0.49812067,0.32431355
0.51218593,0.26186299
0.55501854,0.19758399
0.56244832,0.10153947
0.58523381,0.047842041
0.58307517,-0.051893633
0.547508,-0.10827088
0.5450713,-0.20762855
0.5014841,-0.26530617
0.47276095,-0.31785953
0.40597504,-0.38833657
0.36284435,-0.4319731
0.30558178,-0.49626634
0.24628034,-0.51480389
0.16301279,-0.5480029
0.083291188,-0.57156515
0.01478308,-0.58678293
-0.074682564,-0.57018393
-0.15183638,-0.55665344
-0.23875625,-0.53260773
-0.30025247,-0.48922506
-0.37104031,-0.44546285
-0.43347213,-0.37785822
-0.47593814,-0.31359076
-0.52043599,-0.24522732
-0.5471034,-0.15827784
-0.56084102,-0.088963099
-0.56575614,-0.0099004544
-0.55471849,0.0764715
-0.54807955,0.1402211
-0.52233207,0.21193108
-0.4823845,0.27386886
-0.44250843,0.34220392
-0.39519235,0.40338916
-0.34092435,0.4410021
-0.2705282,0.47031978
-0.19995381,0.52103209
-0.12831298,0.53779185
-0.071768455,0.54690832
0.028017376,0.55036378
0.085606396,0.53479981
0.18241006,0.55034137
0.23544405,0.49569455
0.31400329,0.46792683
0.40582392,0.41894335
0.4378227,0.36179116
0.50071448,0.30326134
0.53791153,0.21508294
0.56801242,0.13622762
0.59090602,0.05906463
0.57105845,-0.031994093
0.56828946,-0.11232161
0.55212891,-0.19298373
0.51318967,-0.26450512
0.45516458,-0.32605237
0.40913284,-0.40878603
0.35461277,-0.44689518
0.27269077,-0.47811806
0.20434369,-0.53235382
0.11661876,-0.54763663
0.065439902,-0.56433767
-0.038733076,-0.56141704
-0.11658303,-0.54276347
-0.19048275,-0.55150932
-0.26105008,-0.49254394
-0.31691378,-0.44446698
-0.40130669,-0.40362161
-0.4402681,-0.34696075
-0.47300458,-0.29975536
-0.51934361,-0.20334128
-0.54952699,-0.12747397
-0.57194722,-0.066510417
-0.56082922,0.019957045
-0.54680282,0.1125877
-0.54495579,0.19805205
-0.51074821,0.26081401
-0.43992931,0.33331367
-0.39661279,0.40680841
-0.3298074,0.46364799
-0.26132387,0.49163333
-0.18567199,0.52854532
-0.08538539,0.53681183
-0.034939472,0.549254
0.062135313,0.54317063
0.14493077,0.51825678
0.21409078,0.50335777
0.28883126,0.45938483
0.33727214,0.39099133
0.40961111,0.3311995
0.45584536,0.28386956
0.46001723,0.21293846
0.49329031,0.12132616
0.50218201,0.051160052
0.50855339,-0.021988694
0.48383752,-0.072105959
0.44453451,-0.15137139
0.43421981,-0.22783364
0.40878341,-0.25319126
0.35026056,-0.29818276
0.30384326,-0.3424693
0.25647792,-0.40420496
0.22105385,-0.40866953
0.1613595,-0.42614233
0.079989545,-0.45385692
0.025879653,-0.47366938
-0.026885426,-0.47423679
-0.089734688,-0.43588051
-0.18033634,-0.43304631
-0.23139146,-0.42229506
-0.27226663,-0.38187373
-0.32888532,-0.32022372
-0.38231996,-0.27279219
-0.43097585,-0.22576924
-0.4365952,-0.16424564
-0.45989153,-0.077119716
-0.48020139,-0.0014405973
-0.47947875,0.056333564
END
BEGIN
-0.0078870235,-0.079586163
0.14874151,-0.083520554
0.15226462,-0.043895602
0.16282882,-0.027902264
0.17354652,0.010364813
0.14956701,0.028301623
0.16951233,0.056367692
0.13030794,0.05687274
0.14952929,0.054594234
0.14332895,0.096431091
0.09546753,0.051832154
0.13854721,0.074853308
0.094202667,0.05593821
0.10134884,0.052738685
0.083739012,0.073127218
0.069672897,0.019882126
0.095160708,0.075645164
0.050573144,0.069125451
0.064724274,0.061634194
0.062338348,0.074543469
0.080281407,0.077053085
0.067386553,0.089519806
0.059305754,0.073598921
0.095806748,0.073227875
0.1052691,0.10226419
0.10166726,0.10829338
0.12136526,0.06866698
0.16585666,0.10359363
0.15951961,0.11203601
0.16381796,0.11321156
0.17287564,0.13023467
0.20841508,0.1363194
0.19562207,0.18899381
0.1773874,0.15580671
0.20493187,0.17513207
0.16515984,0.20363909
0.14267121,0.20722213
0.10053382,0.19698577
0.09291333,0.1894808
0.070472114,0.22297402
-0.014259347,0.18406503
-0.012830844,0.17581904
-0.037088636,0.16049403
-0.08458899,0.16761118
-0.11224174,0.13800454
-0.1275855,0.099215835
-0.12128358,0.11017936
-0.15718697,0.088775314
-0.16665,0.058025181
-0.14591825,0.023884637
-0.15647562,0.029666528
-0.16837628,0.0028069289
-0.16286813,-0.032411981
-0.1301524,-0.037367322
-0.1174654,-0.050892882
-0.11975525,-0.06341406
-0.086802758,-0.11563284
-0.046469122,-0.11215833
-0.034773491,-0.11266132
-0.016505156,-0.14020593
0.025063682,-0.14759576
0.064313903,-0.15106626
0.060387019,-0.12407911
0.073999889,-0.14868417
0.1063403,-0.14711298
0.10549049,-0.11432087
0.095158502,-0.10355663
0.08138115,-0.098641448
0.096103854,-0.10655332
0.065965086,-0.056972813
0.036066167,-0.072809018
0.022363661,-0.083495378
0.010644509,-0.057310257
-0.0042928075,-0.069278806
-0.056398332,-0.060641117
-0.042226531,-0.090745032
-0.04396797,-0.088005334
-0.068367742,-0.089905426
-0.069808461,-0.12137815
-0.065723144,-0.14631651
-0.046089698,-0.13676529
-0.054038536,-0.14579056
-0.045705803,-0.18589939
-0.01641999,-0.19438398
0.011445299,-0.18332443
-0.0057006911,-0.204863
0.034353167,-0.21549864
0.075700685,-0.2198711
0.070096575,-0.19696178
0.10029786,-0.20491487
0.12437087,-0.23389353
0.16943061,-0.18372169
0.15992296,-0.18147418
0.16469051,-0.1681885
0.21247777,-0.14433329
0.20733723,-0.1078743
0.19743547,-0.057981867
0.21102908,-0.052506153
0.22209525,-0.001899199
0.20149544,0.054557353
