CITIFILE A.01.01
!Agilent Technologies,N5230C,MY48100142,A.08.04.10
!Agilent N5230C: A.08.04.10
!Format: LogMag/Angle
!Date: Monday, August 31, 2020 15:35:29
NAME CH1_DATA
VAR Power MAG 801
DATA S11 DBANGLE
DATA S21 DBANGLE
DATA S12 DBANGLE
DATA S22 DBANGLE
VAR_LIST_BEGIN
-40
-39.975
-39.95
-39.925
-39.9
-39.875
-39.85
-39.825
-39.8
-39.775
-39.75
-39.725
-39.7
-39.675
-39.65
-39.625
-39.6
-39.575
-39.55
-39.525
-39.5
-39.475
-39.45
-39.425
-39.4
-39.375
-39.35
-39.325
-39.3
-39.275
-39.25
-39.225
-39.2
-39.175
-39.15
-39.125
-39.1
-39.075
-39.05
-39.025
-39
-38.975
-38.95
-38.925
-38.9
-38.875
-38.85
-38.825
-38.8
-38.775
-38.75
-38.725
-38.7
-38.675
-38.65
-38.625
-38.6
-38.575
-38.55
-38.525
-38.5
-38.475
-38.45
-38.425
-38.4
-38.375
-38.35
-38.325
-38.3
-38.275
-38.25
-38.225
-38.2
-38.175
-38.15
-38.125
-38.1
-38.075
-38.05
-38.025
-38
-37.975
-37.95
-37.925
-37.9
-37.875
-37.85
-37.825
-37.8
-37.775
-37.75
-37.725
-37.7
-37.675
-37.65
-37.625
-37.6
-37.575
-37.55
-37.525
-37.5
-37.475
-37.45
-37.425
-37.4
-37.375
-37.35
-37.325
-37.3
-37.275
-37.25
-37.225
-37.2
-37.175
-37.15
-37.125
-37.1
-37.075
-37.05
-37.025
-37
-36.975
-36.95
-36.925
-36.9
-36.875
-36.85
-36.825
-36.8
-36.775
-36.75
-36.725
-36.7
-36.675
-36.65
-36.625
-36.6
-36.575
-36.55
-36.525
-36.5
-36.475
-36.45
-36.425
-36.4
-36.375
-36.35
-36.325
-36.3
-36.275
-36.25
-36.225
-36.2
-36.175
-36.15
-36.125
-36.1
-36.075
-36.05
-36.025
-36
-35.975
-35.95
-35.925
-35.9
-35.875
-35.85
-35.825
-35.8
-35.775
-35.75
-35.725
-35.7
-35.675
-35.65
-35.625
-35.6
-35.575
-35.55
-35.525
-35.5
-35.475
-35.45
-35.425
-35.4
-35.375
-35.35
-35.325
-35.3
-35.275
-35.25
-35.225
-35.2
-35.175
-35.15
-35.125
-35.1
-35.075
-35.05
-35.025
-35
-34.975
-34.95
-34.925
-34.9
-34.875
-34.85
-34.825
-34.8
-34.775
-34.75
-34.725
-34.7
-34.675
-34.65
-34.625
-34.6
-34.575
-34.55
-34.525
-34.5
-34.475
-34.45
-34.425
-34.4
-34.375
-34.35
-34.325
-34.3
-34.275
-34.25
-34.225
-34.2
-34.175
-34.15
-34.125
-34.1
-34.075
-34.05
-34.025
-34
-33.975
-33.95
-33.925
-33.9
-33.875
-33.85
-33.825
-33.8
-33.775
-33.75
-33.725
-33.7
-33.675
-33.65
-33.625
-33.6
-33.575
-33.55
-33.525
-33.5
-33.475
-33.45
-33.425
-33.4
-33.375
-33.35
-33.325
-33.3
-33.275
-33.25
-33.225
-33.2
-33.175
-33.15
-33.125
-33.1
-33.075
-33.05
-33.025
-33
-32.975
-32.95
-32.925
-32.9
-32.875
-32.85
-32.825
-32.8
-32.775
-32.75
-32.725
-32.7
-32.675
-32.65
-32.625
-32.6
-32.575
-32.55
-32.525
-32.5
-32.475
-32.45
-32.425
-32.4
-32.375
-32.35
-32.325
-32.3
-32.275
-32.25
-32.225
-32.2
-32.175
-32.15
-32.125
-32.1
-32.075
-32.05
-32.025
-32
-31.975
-31.95
-31.925
-31.9
-31.875
-31.85
-31.825
-31.8
-31.775
-31.75
-31.725
-31.7
-31.675
-31.65
-31.625
-31.6
-31.575
-31.55
-31.525
-31.5
-31.475
-31.45
-31.425
-31.4
-31.375
-31.35
-31.325
-31.3
-31.275
-31.25
-31.225
-31.2
-31.175
-31.15
-31.125
-31.1
-31.075
-31.05
-31.025
-31
-30.975
-30.95
-30.925
-30.9
-30.875
-30.85
-30.825
-30.8
-30.775
-30.75
-30.725
-30.7
-30.675
-30.65
-30.625
-30.6
-30.575
-30.55
-30.525
-30.5
-30.475
-30.45
-30.425
-30.4
-30.375
-30.35
-30.325
-30.3
-30.275
-30.25
-30.225
-30.2
-30.175
-30.15
-30.125
-30.1
-30.075
-30.05
-30.025
-30
-29.975
-29.95
-29.925
-29.9
-29.875
-29.85
-29.825
-29.8
-29.775
-29.75
-29.725
-29.7
-29.675
-29.65
-29.625
-29.6
-29.575
-29.55
-29.525
-29.5
-29.475
-29.45
-29.425
-29.4
-29.375
-29.35
-29.325
-29.3
-29.275
-29.25
-29.225
-29.2
-29.175
-29.15
-29.125
-29.1
-29.075
-29.05
-29.025
-29
-28.975
-28.95
-28.925
-28.9
-28.875
-28.85
-28.825
-28.8
-28.775
-28.75
-28.725
-28.7
-28.675
-28.65
-28.625
-28.6
-28.575
-28.55
-28.525
-28.5
-28.475
-28.45
-28.425
-28.4
-28.375
-28.35
-28.325
-28.3
-28.275
-28.25
-28.225
-28.2
-28.175
-28.15
-28.125
-28.1
-28.075
-28.05
-28.025
-28
-27.975
-27.95
-27.925
-27.9
-27.875
-27.85
-27.825
-27.8
-27.775
-27.75
-27.725
-27.7
-27.675
-27.65
-27.625
-27.6
-27.575
-27.55
-27.525
-27.5
-27.475
-27.45
-27.425
-27.4
-27.375
-27.35
-27.325
-27.3
-27.275
-27.25
-27.225
-27.2
-27.175
-27.15
-27.125
-27.1
-27.075
-27.05
-27.025
-27
-26.975
-26.95
-26.925
-26.9
-26.875
-26.85
-26.825
-26.8
-26.775
-26.75
-26.725
-26.7
-26.675
-26.65
-26.625
-26.6
-26.575
-26.55
-26.525
-26.5
-26.475
-26.45
-26.425
-26.4
-26.375
-26.35
-26.325
-26.3
-26.275
-26.25
-26.225
-26.2
-26.175
-26.15
-26.125
-26.1
-26.075
-26.05
-26.025
-26
-25.975
-25.95
-25.925
-25.9
-25.875
-25.85
-25.825
-25.8
-25.775
-25.75
-25.725
-25.7
-25.675
-25.65
-25.625
-25.6
-25.575
-25.55
-25.525
-25.5
-25.475
-25.45
-25.425
-25.4
-25.375
-25.35
-25.325
-25.3
-25.275
-25.25
-25.225
-25.2
-25.175
-25.15
-25.125
-25.1
-25.075
-25.05
-25.025
-25
-24.975
-24.95
-24.925
-24.9
-24.875
-24.85
-24.825
-24.8
-24.775
-24.75
-24.725
-24.7
-24.675
-24.65
-24.625
-24.6
-24.575
-24.55
-24.525
-24.5
-24.475
-24.45
-24.425
-24.4
-24.375
-24.35
-24.325
-24.3
-24.275
-24.25
-24.225
-24.2
-24.175
-24.15
-24.125
-24.1
-24.075
-24.05
-24.025
-24
-23.975
-23.95
-23.925
-23.9
-23.875
-23.85
-23.825
-23.8
-23.775
-23.75
-23.725
-23.7
-23.675
-23.65
-23.625
-23.6
-23.575
-23.55
-23.525
-23.5
-23.475
-23.45
-23.425
-23.4
-23.375
-23.35
-23.325
-23.3
-23.275
-23.25
-23.225
-23.2
-23.175
-23.15
-23.125
-23.1
-23.075
-23.05
-23.025
-23
-22.975
-22.95
-22.925
-22.9
-22.875
-22.85
-22.825
-22.8
-22.775
-22.75
-22.725
-22.7
-22.675
-22.65
-22.625
-22.6
-22.575
-22.55
-22.525
-22.5
-22.475
-22.45
-22.425
-22.4
-22.375
-22.35
-22.325
-22.3
-22.275
-22.25
-22.225
-22.2
-22.175
-22.15
-22.125
-22.1
-22.075
-22.05
-22.025
-22
-21.975
-21.95
-21.925
-21.9
-21.875
-21.85
-21.825
-21.8
-21.775
-21.75
-21.725
-21.7
-21.675
-21.65
-21.625
-21.6
-21.575
-21.55
-21.525
-21.5
-21.475
-21.45
-21.425
-21.4
-21.375
-21.35
-21.325
-21.3
-21.275
-21.25
-21.225
-21.2
-21.175
-21.15
-21.125
-21.1
-21.075
-21.05
-21.025
-21
-20.975
-20.95
-20.925
-20.9
-20.875
-20.85
-20.825
-20.8
-20.775
-20.75
-20.725
-20.7
-20.675
-20.65
-20.625
-20.6
-20.575
-20.55
-20.525
-20.5
-20.475
-20.45
-20.425
-20.4
-20.375
-20.35
-20.325
-20.3
-20.275
-20.25
-20.225
-20.2
-20.175
-20.15
-20.125
-20.1
-20.075
-20.05
-20.025
-20
VAR_LIST_END
BEGIN
-15.241138,-158.71423
-15.05996,-160.16713
-15.379313,-153.77789
-14.621556,-162.56972
-14.664115,-158.57079
-15.230517,-159.61475
-15.213207,-161.14687
-14.962461,-158.8533
-14.515262,-158.96156
-15.006891,-159.48286
-14.483968,-156.93346
-15.200596,-159.07782
-15.1166,-155.97983
-15.412945,-160.51892
-14.992169,-158.15385
-15.061868,-155.84895
-14.771643,-161.97145
-15.678624,-159.38467
-15.405693,-158.68349
-15.166068,-156.63251
-14.936305,-158.74825
-15.014267,-157.56277
-14.522396,-159.64873
-15.375816,-161.8797
-15.359875,-161.14108
-14.946906,-157.94539
-15.064404,-160.20148
-14.997472,-161.33232
-14.964114,-154.13083
-15.227982,-156.76248
-15.245365,-160.86327
-15.12627,-159.55991
-14.982019,-158.75801
-14.953944,-160.33325
-14.59612,-158.87054
-14.361276,-160.59505
-14.950598,-154.89729
-15.516733,-159.44089
-14.972639,-157.9189
-15.250203,-154.45091
-15.29583,-158.45387
-15.375819,-157.87344
-15.551586,-162.33673
-14.988575,-160.29204
-15.208311,-155.20094
-15.053525,-156.49869
-14.882459,-159.71967
-15.21842,-156.75035
-15.073919,-160.41469
-15.339773,-160.8087
-14.99735,-158.14946
-15.002994,-161.924
-14.72029,-156.03488
-14.885831,-161.45345
-15.599703,-158.22867
-14.743489,-161.45805
-15.158159,-157.8206
-14.731897,-157.48773
-15.395366,-158.68629
-14.803888,-159.41103
-15.176595,-158.2702
-14.917925,-158.4164
-15.136738,-157.84239
-15.180415,-158.77342
-14.937701,-158.75328
-14.366345,-158.96515
-15.193432,-160.1777
-15.086374,-159.38596
-14.924399,-157.83612
-14.900126,-156.05461
-15.114021,-157.89574
-15.019158,-160.44052
-14.540792,-160.95609
-14.892673,-160.64105
-14.681706,-157.39758
-15.577676,-161.96608
-15.089314,-161.06703
-15.058155,-160.36087
-15.084207,-156.27545
-15.548904,-159.42999
-14.649191,-161.10439
-15.343067,-157.96753
-14.973073,-159.02692
-15.592044,-160.49266
-15.428108,-154.75966
-14.837961,-158.91821
-15.097085,-157.65309
-14.742102,-156.76573
-14.405599,-159.16733
-15.117047,-157.47023
-15.055685,-156.8949
-14.955465,-157.34802
-14.974003,-157.70082
-14.681077,-157.42543
-14.872002,-158.34901
-15.121734,-158.48799
-15.136298,-159.79295
-14.737711,-160.0977
-14.787771,-156.1993
-15.400851,-161.22598
-14.964835,-158.30769
-15.598429,-159.75464
-15.256595,-155.13884
-15.561927,-158.12712
-15.107327,-160.89467
-14.736365,-156.96571
-15.163157,-160.35782
-14.909491,-158.15906
-14.617408,-156.44823
-14.685656,-160.79645
-14.619945,-158.53418
-14.783188,-159.88016
-14.392167,-158.71207
-15.194262,-155.91058
-15.07959,-156.02541
-15.525501,-156.89633
-14.946263,-157.64958
-14.905686,-158.42642
-15.032751,-159.67799
-15.143225,-158.00185
-14.942022,-159.35426
-15.430113,-156.29692
-14.850722,-157.8819
-14.917021,-157
-15.292679,-157.66484
-15.279402,-155.79752
-14.983769,-158.24086
-15.14802,-156.69585
-15.138697,-158.57268
-14.970735,-160.92865
-14.923101,-158.49512
-15.119094,-156.97842
-15.084555,-158.12372
-15.268854,-160.41533
-15.113415,-158.94846
-15.024857,-159.21786
-14.92679,-157.18962
-14.977972,-156.98737
-15.054921,-160.24057
-14.756092,-157.94876
-14.99896,-159.8716
-14.890547,-157.651
-15.407547,-158.76306
-15.131835,-159.45671
-15.257929,-159.37308
-15.114782,-161.03897
-15.20523,-161.81892
-14.752663,-159.02803
-15.062843,-161.04222
-14.85333,-161.34375
-14.8759,-159.41893
-14.792104,-159.29781
-15.054283,-157.85843
-15.117379,-155.86697
-14.780871,-159.03725
-15.101345,-157.48854
-15.097175,-159.08365
-15.313807,-158.5482
-14.830729,-159.57819
-14.984495,-161.23944
-15.134393,-158.14719
-14.745759,-159.13562
-15.172502,-160.84714
-15.170125,-160.69183
-14.87876,-162.13808
-15.008501,-159.10603
-15.201454,-158.54643
-14.882816,-158.56544
-14.743544,-158.15871
-15.582368,-160.14127
-15.177213,-158.15193
-14.812799,-160.62373
-14.51262,-159.62955
-14.955279,-158.59497
-15.444033,-160.05687
-14.675542,-159.38852
-14.902792,-158.55292
-15.079838,-157.2962
-15.047606,-159.23878
-14.903517,-158.53819
-15.086429,-157.97527
-14.535239,-159.71979
-15.035346,-158.89003
-14.98965,-159.42545
-14.984333,-156.40256
-14.834684,-161.26605
-15.030859,-157.63821
-15.26505,-161.311
-15.031882,-159.74957
-15.269035,-157.21024
-14.716667,-161.06201
-14.902398,-159.29199
-14.974967,-158.48148
-14.836513,-159.64409
-14.876656,-159.41795
-15.045321,-160.18527
-15.040266,-160.46736
-15.085221,-158.07149
-14.972266,-159.31932
-14.92501,-158.80275
-15.083463,-157.71613
-14.990849,-157.31384
-14.820337,-158.99135
-15.229553,-160.88118
-15.320267,-160.85672
-14.887531,-156.95287
-14.871966,-159.16393
-15.36723,-159.192
-14.961162,-157.90318
-15.225233,-160.46361
-15.182594,-159.39969
-14.601748,-158.69478
-15.326427,-159.84691
-15.022597,-159.69577
-15.486214,-159.96053
-14.899123,-159.51236
-14.799624,-159.71925
-15.40387,-157.78467
-15.321126,-160.57895
-14.88205,-158.22806
-15.199994,-156.44609
-14.759541,-157.63721
-15.198459,-158.11563
-15.281515,-159.63315
-15.042911,-157.77464
-14.668206,-159.46709
-15.071921,-157.38461
-15.043831,-159.53226
-14.982733,-158.10384
-14.827757,-160.65324
-15.176143,-158.41721
-14.982289,-161.56932
-15.022645,-157.76842
-14.934963,-157.0576
-15.163603,-157.69559
-14.790989,-160.23846
-14.874818,-160.59929
-15.469234,-158.07057
-14.941051,-158.26842
-15.255295,-158.15019
-14.860962,-160.74736
-14.833023,-159.74927
-15.37353,-158.83849
-15.21066,-159.0885
-14.471016,-157.27907
-14.962697,-159.73563
-15.224236,-158.6389
-14.994056,-159.86794
-15.345406,-157.82936
-15.111715,-157.73137
-15.154787,-158.74013
-14.925388,-158.80064
-15.220688,-159.93445
-15.190016,-158.66144
-15.296197,-160.53392
-15.17409,-158.52415
-15.194838,-158.23119
-15.061328,-158.66196
-14.897288,-158.75922
-14.999852,-159.85591
-15.087202,-159.22092
-14.958448,-157.04364
-15.181641,-158.55527
-14.986827,-159.14983
-15.223203,-159.97105
-15.067,-157.82175
-15.0509,-158.29462
-15.067428,-158.95171
-15.048075,-158.98854
-14.901408,-159.88821
-15.072923,-159.86667
-14.846553,-158.09317
-15.058998,-157.6217
-14.937992,-158.88252
-14.946218,-158.02965
-14.948924,-160.60016
-15.289835,-159.72565
-14.943568,-158.01953
-15.367964,-159.7578
-14.989033,-159.96573
-14.893053,-157.06212
-15.151676,-158.63661
-15.099863,-157.35011
-14.743629,-159.25162
-14.856253,-158.67961
-15.006657,-158.14958
-14.894852,-159.14113
-14.977359,-158.50241
-14.814249,-159.76062
-14.886959,-158.78822
-15.04817,-159.45583
-14.852551,-160.56053
-14.892538,-160.90454
-14.803863,-159.36389
-15.208976,-159.88957
-14.936212,-159.24539
-15.103247,-158.83908
-14.901087,-161.12605
-15.162615,-158.95258
-15.157275,-160.24327
-15.200253,-159.60637
-14.835858,-158.15044
-15.144516,-158.62927
-15.067157,-158.65479
-15.405002,-159.75749
-15.154956,-156.05937
-15.106173,-159.59016
-15.229779,-158.45905
-15.21343,-158.00687
-14.698645,-158.39822
-15.128655,-157.19522
-14.898579,-158.50699
-14.727863,-159.0135
-15.131676,-158.75156
-15.04805,-158.1165
-15.202722,-158.44125
-14.979919,-158.33958
-15.180446,-158.98682
-15.248484,-158.8817
-14.833437,-157.88676
-15.121179,-155.93257
-15.118758,-159.41786
-15.06727,-159.69716
-15.032769,-158.06342
-15.07707,-158.94235
-15.053712,-159.91093
-15.002203,-159.65616
-15.091257,-159.72141
-15.170489,-159.08345
-14.901885,-158.67191
-14.878605,-159.12482
-14.882147,-159.90915
-14.817719,-158.83572
-14.991858,-158.85562
-15.259029,-158.30179
-14.983177,-158.38887
-15.114098,-157.00641
-15.067571,-158.57481
-15.02213,-159.94202
-14.859968,-158.98169
-14.810602,-159.51753
-15.091382,-159.66525
-14.972274,-159.20981
-14.779268,-160.14937
-14.912769,-158.9628
-15.170906,-159.80017
-14.872071,-159.47543
-14.940174,-158.71001
-14.988873,-157.98102
-15.049075,-158.75134
-14.881109,-159.38008
-15.071247,-159.98055
-14.908683,-159.60188
-15.070223,-159.24037
-15.112478,-158.48869
-15.285859,-159.31914
-15.061937,-161.11769
-14.957532,-157.81715
-15.036363,-158.15279
-15.112236,-158.06621
-15.212135,-157.86026
-15.02696,-160.58902
-14.999211,-158.87787
-14.978442,-159.25581
-15.035244,-159.53416
-15.042363,-157.3821
-14.974948,-159.11069
-14.991753,-158.19885
-15.227098,-157.10892
-15.069583,-159.2314
-15.099609,-158.63808
-14.87613,-160.15489
-14.8983,-159.78644
-15.073897,-159.87598
-14.862694,-157.7094
-14.919502,-158.05083
-14.996878,-161.34149
-14.991435,-157.87645
-15.318274,-160.32266
-15.099878,-157.74507
-14.956835,-159.61426
-15.013666,-158.47386
-14.942935,-157.48621
-14.999369,-159.49843
-15.029965,-159.80122
-15.148882,-158.76498
-15.096093,-158.2451
-15.016706,-157.80734
-15.070295,-158.94972
-14.955587,-158.36244
-15.008307,-157.67075
-15.109962,-158.63506
-15.111504,-158.5553
-15.067272,-160.25008
-15.188674,-158.89563
-15.099779,-158.91376
-15.108747,-160.07489
-15.066162,-157.35432
-14.914022,-158.15289
-14.908241,-159.33354
-14.86319,-158.93611
-15.163728,-159.4977
-14.838652,-159.31715
-15.066795,-159.64728
-14.989761,-158.38345
-14.866788,-158.89526
-14.816748,-158.72418
-14.894459,-158.66679
-15.096566,-158.57353
-15.176003,-158.07372
-15.149182,-159.37283
-14.899225,-159.14644
-15.09512,-158.70522
-15.074127,-159.15967
-14.781342,-158.68091
-14.970345,-159.69646
-15.059093,-159.40845
-15.060207,-158.97261
-15.102612,-159.67365
-15.006663,-157.87958
-15.070201,-158.35156
-14.997597,-157.46793
-14.933845,-158.9826
-15.121975,-158.95291
-15.265732,-160.12506
-15.155613,-158.39423
-15.231191,-159.30836
-15.074282,-159.86559
-15.033475,-158.23438
-14.948286,-160.0257
-14.903386,-158.48695
-15.08159,-158.34311
-15.064425,-157.64368
-15.084301,-158.9483
-15.008553,-160.00371
-15.092429,-159.52519
-14.83053,-159.31694
-14.995824,-160.08011
-14.999558,-157.77107
-15.085937,-158.7449
-15.156569,-158.04471
-15.183694,-158.38933
-15.078425,-159.08652
-14.983005,-158.83072
-14.995301,-158.39745
-15.102958,-157.82965
-15.127381,-159.35333
-15.029777,-158.696
-15.080182,-158.43822
-15.139021,-158.12349
-15.042241,-159.07832
-14.813288,-157.53275
-14.723371,-158.94858
-15.2007,-157.60742
-15.140241,-158.76373
-15.120962,-159.34866
-15.084038,-158.90627
-15.159908,-159.64183
-15.2312,-158.63356
-14.916375,-159.31985
-15.118545,-159.49382
-15.090077,-157.83801
-15.09124,-158.8127
-15.032464,-158.59512
-15.077295,-158.32857
-14.892479,-159.02919
-15.003792,-159.47311
-15.000535,-158.74207
-14.89301,-158.63567
-15.099264,-158.47202
-15.111882,-160.03419
-15.062613,-158.96927
-15.013867,-159.54454
-15.03562,-159.78001
-14.962827,-159.72748
-15.100692,-159.38478
-15.074944,-159.01419
-14.970956,-158.15501
-15.173836,-159.1922
-14.967969,-159.11572
-14.994864,-158.71722
-15.132599,-159.79117
-14.936271,-159.48949
-15.004745,-158.32483
-14.977715,-159.07037
-15.129874,-157.70486
-14.824921,-159.09056
-15.008314,-158.22844
-15.064394,-158.91968
-14.963701,-159.44031
-14.984781,-159.22864
-15.157367,-159.24855
-15.067799,-158.06735
-14.802443,-158.18834
-15.161083,-160.09399
-15.109395,-159.27562
-15.030996,-159.65562
-15.021049,-159.2572
-15.009773,-158.87953
-14.97605,-158.90375
-14.972937,-158.46713
-14.882551,-159.0293
-14.969153,-159.46577
-15.091894,-159.5128
-15.007411,-159.25574
-14.797616,-158.14319
-15.107129,-158.70438
-15.183345,-158.96085
-15.037012,-158.01402
-15.160515,-159.58636
-15.098664,-158.72304
-14.929965,-158.60255
-15.119472,-158.53127
-15.09506,-159.27902
-15.080365,-159.17493
-15.049628,-159.9137
-15.036478,-158.91214
-15.02564,-158.48535
-15.075307,-158.23779
-15.095823,-158.50601
-15.164569,-158.98082
-15.047674,-158.87213
-15.1115,-158.85979
-15.005398,-158.32777
-15.060987,-159.4538
-15.040965,-159.79825
-15.037619,-158.60913
-15.011157,-158.60202
-14.976487,-158.63498
-15.03365,-158.47404
-15.11899,-159.31932
-14.938189,-160.20561
-14.969508,-159.02052
-14.937851,-159.58595
-14.957552,-158.56389
-14.968131,-159.51006
-14.999258,-159.18898
-15.087699,-158.564
-14.876238,-159.67371
-15.079764,-159.06607
-15.068883,-158.6613
-15.197806,-157.99709
-15.068183,-158.71217
-14.936794,-158.78021
-14.977768,-158.75615
-15.036295,-158.81686
-14.992977,-159.20744
-14.989679,-159.33113
-14.944877,-158.87941
-15.146575,-156.93237
-15.086129,-159.50789
-15.052441,-158.05356
-14.967429,-158.14595
-15.103926,-158.63988
-15.0108,-158.97502
-14.999553,-158.05667
-15.015839,-158.64499
-15.02189,-159.38832
-15.105137,-158.28706
-15.188821,-158.5246
-15.026021,-159.29781
-14.981259,-158.53525
-15.043804,-158.91443
-14.972933,-158.64783
-14.980979,-158.08795
-14.969596,-158.22627
-14.960379,-158.85257
-15.071986,-158.44238
-14.915648,-158.56148
-15.052188,-158.8694
-14.984283,-159.44629
-15.174209,-159.49269
-14.967047,-159.12453
-15.138389,-158.35912
-15.011335,-158.82047
-14.985113,-159.64519
