CITIFILE A.01.01
!Agilent Technologies,N5230C,MY48100142,A.08.04.10
!Agilent N5230C: A.08.04.10
!Date: Tuesday, August 30, 2022 11:45:24
NAME CH1_DATA
VAR Power MAG 801
DATA S11 RI
DATA S21 RI
DATA S12 RI
DATA S22 RI
VAR_LIST_BEGIN
-40
-39.975
-39.95
-39.925
-39.9
-39.875
-39.85
-39.825
-39.8
-39.775
-39.75
-39.725
-39.7
-39.675
-39.65
-39.625
-39.6
-39.575
-39.55
-39.525
-39.5
-39.475
-39.45
-39.425
-39.4
-39.375
-39.35
-39.325
-39.3
-39.275
-39.25
-39.225
-39.2
-39.175
-39.15
-39.125
-39.1
-39.075
-39.05
-39.025
-39
-38.975
-38.95
-38.925
-38.9
-38.875
-38.85
-38.825
-38.8
-38.775
-38.75
-38.725
-38.7
-38.675
-38.65
-38.625
-38.6
-38.575
-38.55
-38.525
-38.5
-38.475
-38.45
-38.425
-38.4
-38.375
-38.35
-38.325
-38.3
-38.275
-38.25
-38.225
-38.2
-38.175
-38.15
-38.125
-38.1
-38.075
-38.05
-38.025
-38
-37.975
-37.95
-37.925
-37.9
-37.875
-37.85
-37.825
-37.8
-37.775
-37.75
-37.725
-37.7
-37.675
-37.65
-37.625
-37.6
-37.575
-37.55
-37.525
-37.5
-37.475
-37.45
-37.425
-37.4
-37.375
-37.35
-37.325
-37.3
-37.275
-37.25
-37.225
-37.2
-37.175
-37.15
-37.125
-37.1
-37.075
-37.05
-37.025
-37
-36.975
-36.95
-36.925
-36.9
-36.875
-36.85
-36.825
-36.8
-36.775
-36.75
-36.725
-36.7
-36.675
-36.65
-36.625
-36.6
-36.575
-36.55
-36.525
-36.5
-36.475
-36.45
-36.425
-36.4
-36.375
-36.35
-36.325
-36.3
-36.275
-36.25
-36.225
-36.2
-36.175
-36.15
-36.125
-36.1
-36.075
-36.05
-36.025
-36
-35.975
-35.95
-35.925
-35.9
-35.875
-35.85
-35.825
-35.8
-35.775
-35.75
-35.725
-35.7
-35.675
-35.65
-35.625
-35.6
-35.575
-35.55
-35.525
-35.5
-35.475
-35.45
-35.425
-35.4
-35.375
-35.35
-35.325
-35.3
-35.275
-35.25
-35.225
-35.2
-35.175
-35.15
-35.125
-35.1
-35.075
-35.05
-35.025
-35
-34.975
-34.95
-34.925
-34.9
-34.875
-34.85
-34.825
-34.8
-34.775
-34.75
-34.725
-34.7
-34.675
-34.65
-34.625
-34.6
-34.575
-34.55
-34.525
-34.5
-34.475
-34.45
-34.425
-34.4
-34.375
-34.35
-34.325
-34.3
-34.275
-34.25
-34.225
-34.2
-34.175
-34.15
-34.125
-34.1
-34.075
-34.05
-34.025
-34
-33.975
-33.95
-33.925
-33.9
-33.875
-33.85
-33.825
-33.8
-33.775
-33.75
-33.725
-33.7
-33.675
-33.65
-33.625
-33.6
-33.575
-33.55
-33.525
-33.5
-33.475
-33.45
-33.425
-33.4
-33.375
-33.35
-33.325
-33.3
-33.275
-33.25
-33.225
-33.2
-33.175
-33.15
-33.125
-33.1
-33.075
-33.05
-33.025
-33
-32.975
-32.95
-32.925
-32.9
-32.875
-32.85
-32.825
-32.8
-32.775
-32.75
-32.725
-32.7
-32.675
-32.65
-32.625
-32.6
-32.575
-32.55
-32.525
-32.5
-32.475
-32.45
-32.425
-32.4
-32.375
-32.35
-32.325
-32.3
-32.275
-32.25
-32.225
-32.2
-32.175
-32.15
-32.125
-32.1
-32.075
-32.05
-32.025
-32
-31.975
-31.95
-31.925
-31.9
-31.875
-31.85
-31.825
-31.8
-31.775
-31.75
-31.725
-31.7
-31.675
-31.65
-31.625
-31.6
-31.575
-31.55
-31.525
-31.5
-31.475
-31.45
-31.425
-31.4
-31.375
-31.35
-31.325
-31.3
-31.275
-31.25
-31.225
-31.2
-31.175
-31.15
-31.125
-31.1
-31.075
-31.05
-31.025
-31
-30.975
-30.95
-30.925
-30.9
-30.875
-30.85
-30.825
-30.8
-30.775
-30.75
-30.725
-30.7
-30.675
-30.65
-30.625
-30.6
-30.575
-30.55
-30.525
-30.5
-30.475
-30.45
-30.425
-30.4
-30.375
-30.35
-30.325
-30.3
-30.275
-30.25
-30.225
-30.2
-30.175
-30.15
-30.125
-30.1
-30.075
-30.05
-30.025
-30
-29.975
-29.95
-29.925
-29.9
-29.875
-29.85
-29.825
-29.8
-29.775
-29.75
-29.725
-29.7
-29.675
-29.65
-29.625
-29.6
-29.575
-29.55
-29.525
-29.5
-29.475
-29.45
-29.425
-29.4
-29.375
-29.35
-29.325
-29.3
-29.275
-29.25
-29.225
-29.2
-29.175
-29.15
-29.125
-29.1
-29.075
-29.05
-29.025
-29
-28.975
-28.95
-28.925
-28.9
-28.875
-28.85
-28.825
-28.8
-28.775
-28.75
-28.725
-28.7
-28.675
-28.65
-28.625
-28.6
-28.575
-28.55
-28.525
-28.5
-28.475
-28.45
-28.425
-28.4
-28.375
-28.35
-28.325
-28.3
-28.275
-28.25
-28.225
-28.2
-28.175
-28.15
-28.125
-28.1
-28.075
-28.05
-28.025
-28
-27.975
-27.95
-27.925
-27.9
-27.875
-27.85
-27.825
-27.8
-27.775
-27.75
-27.725
-27.7
-27.675
-27.65
-27.625
-27.6
-27.575
-27.55
-27.525
-27.5
-27.475
-27.45
-27.425
-27.4
-27.375
-27.35
-27.325
-27.3
-27.275
-27.25
-27.225
-27.2
-27.175
-27.15
-27.125
-27.1
-27.075
-27.05
-27.025
-27
-26.975
-26.95
-26.925
-26.9
-26.875
-26.85
-26.825
-26.8
-26.775
-26.75
-26.725
-26.7
-26.675
-26.65
-26.625
-26.6
-26.575
-26.55
-26.525
-26.5
-26.475
-26.45
-26.425
-26.4
-26.375
-26.35
-26.325
-26.3
-26.275
-26.25
-26.225
-26.2
-26.175
-26.15
-26.125
-26.1
-26.075
-26.05
-26.025
-26
-25.975
-25.95
-25.925
-25.9
-25.875
-25.85
-25.825
-25.8
-25.775
-25.75
-25.725
-25.7
-25.675
-25.65
-25.625
-25.6
-25.575
-25.55
-25.525
-25.5
-25.475
-25.45
-25.425
-25.4
-25.375
-25.35
-25.325
-25.3
-25.275
-25.25
-25.225
-25.2
-25.175
-25.15
-25.125
-25.1
-25.075
-25.05
-25.025
-25
-24.975
-24.95
-24.925
-24.9
-24.875
-24.85
-24.825
-24.8
-24.775
-24.75
-24.725
-24.7
-24.675
-24.65
-24.625
-24.6
-24.575
-24.55
-24.525
-24.5
-24.475
-24.45
-24.425
-24.4
-24.375
-24.35
-24.325
-24.3
-24.275
-24.25
-24.225
-24.2
-24.175
-24.15
-24.125
-24.1
-24.075
-24.05
-24.025
-24
-23.975
-23.95
-23.925
-23.9
-23.875
-23.85
-23.825
-23.8
-23.775
-23.75
-23.725
-23.7
-23.675
-23.65
-23.625
-23.6
-23.575
-23.55
-23.525
-23.5
-23.475
-23.45
-23.425
-23.4
-23.375
-23.35
-23.325
-23.3
-23.275
-23.25
-23.225
-23.2
-23.175
-23.15
-23.125
-23.1
-23.075
-23.05
-23.025
-23
-22.975
-22.95
-22.925
-22.9
-22.875
-22.85
-22.825
-22.8
-22.775
-22.75
-22.725
-22.7
-22.675
-22.65
-22.625
-22.6
-22.575
-22.55
-22.525
-22.5
-22.475
-22.45
-22.425
-22.4
-22.375
-22.35
-22.325
-22.3
-22.275
-22.25
-22.225
-22.2
-22.175
-22.15
-22.125
-22.1
-22.075
-22.05
-22.025
-22
-21.975
-21.95
-21.925
-21.9
-21.875
-21.85
-21.825
-21.8
-21.775
-21.75
-21.725
-21.7
-21.675
-21.65
-21.625
-21.6
-21.575
-21.55
-21.525
-21.5
-21.475
-21.45
-21.425
-21.4
-21.375
-21.35
-21.325
-21.3
-21.275
-21.25
-21.225
-21.2
-21.175
-21.15
-21.125
-21.1
-21.075
-21.05
-21.025
-21
-20.975
-20.95
-20.925
-20.9
-20.875
-20.85
-20.825
-20.8
-20.775
-20.75
-20.725
-20.7
-20.675
-20.65
-20.625
-20.6
-20.575
-20.55
-20.525
-20.5
-20.475
-20.45
-20.425
-20.4
-20.375
-20.35
-20.325
-20.3
-20.275
-20.25
-20.225
-20.2
-20.175
-20.15
-20.125
-20.1
-20.075
-20.05
-20.025
-20
VAR_LIST_END
BEGIN
-0.17481476,-0.088257477
-0.17584933,-0.087567583
-0.17020363,-0.091591775
-0.15966567,-0.083835587
-0.16008046,-0.083764784
-0.16598113,-0.085196488
-0.17427889,-0.09022478
-0.15807524,-0.069874428
-0.17873751,-0.085110947
-0.1683387,-0.068749666
-0.1746224,-0.079411745
-0.17438312,-0.082985826
-0.16057558,-0.074763626
-0.17265581,-0.075116076
-0.17650416,-0.087215044
-0.16308305,-0.079391681
-0.17306368,-0.09056738
-0.16928902,-0.095462181
-0.16255032,-0.070010103
-0.17261021,-0.087710164
-0.16684234,-0.07956595
-0.17929505,-0.076753132
-0.18419728,-0.078490078
-0.1670844,-0.083839528
-0.18214259,-0.085582204
-0.17170051,-0.082714878
-0.18159533,-0.067243516
-0.17770062,-0.077404141
-0.16894124,-0.092413798
-0.16704449,-0.078932904
-0.1748382,-0.078707002
-0.18296705,-0.07827244
-0.18772078,-0.081287399
-0.17236023,-0.10058074
-0.18444151,-0.079255566
-0.17638288,-0.074708141
-0.16875674,-0.07914377
-0.17582703,-0.075856715
-0.18075836,-0.076517045
-0.1542671,-0.07127744
-0.17887612,-0.082435116
-0.17076413,-0.083144173
-0.17258413,-0.077045351
-0.17750147,-0.088506281
-0.18184598,-0.079017557
-0.17429103,-0.084842376
-0.18458681,-0.082288049
-0.17125125,-0.074763879
-0.16763322,-0.085182466
-0.16477223,-0.065679073
-0.17621368,-0.084265806
-0.17548686,-0.076851316
-0.19496286,-0.084960058
-0.16776645,-0.087340266
-0.17785975,-0.069318451
-0.17035645,-0.073586546
-0.15876213,-0.069230847
-0.17075652,-0.072115883
-0.17056517,-0.089885272
-0.17346725,-0.084892586
-0.17290406,-0.066945784
-0.17902631,-0.074813403
-0.17226711,-0.07746651
-0.16369084,-0.087621443
-0.17421854,-0.075321153
-0.16729647,-0.075542673
-0.16514899,-0.085811079
-0.16547108,-0.076828681
-0.16140844,-0.08751604
-0.18582281,-0.094714589
-0.17050995,-0.089922614
-0.16152526,-0.0751037
-0.16185872,-0.087732457
-0.17746145,-0.077257834
-0.16421308,-0.099288292
-0.17438453,-0.082023934
-0.17597003,-0.073959067
-0.16738568,-0.092575572
-0.1649375,-0.07877434
-0.1524173,-0.078723565
-0.17920254,-0.091051497
-0.16660197,-0.08311142
-0.17549317,-0.092185214
-0.16930389,-0.08862333
-0.16447802,-0.074096389
-0.17886615,-0.075505033
-0.16054985,-0.081841819
-0.16277122,-0.081102572
-0.17542404,-0.079037152
-0.1763669,-0.081260517
-0.17099401,-0.079431981
-0.1791063,-0.067153484
-0.17334668,-0.076488115
-0.16553256,-0.084543496
-0.1737044,-0.076847576
-0.16028428,-0.080276072
-0.16808915,-0.086991005
-0.17250225,-0.098524764
-0.17373534,-0.088728428
-0.17541485,-0.083915114
-0.17668341,-0.082435437
-0.16237797,-0.082120322
-0.18437642,-0.088277012
-0.17130703,-0.085297346
-0.16523696,-0.080499455
-0.18440807,-0.090935424
-0.16613713,-0.070012398
-0.17260221,-0.093201064
-0.17119548,-0.076286189
-0.16252793,-0.072911322
-0.16855422,-0.077101715
-0.16970475,-0.091901563
-0.18254438,-0.076300174
-0.16339411,-0.081677668
-0.17282131,-0.093139671
-0.1652686,-0.084475227
-0.16820806,-0.080373272
-0.17247467,-0.073396325
-0.17185651,-0.080311865
-0.16920598,-0.083006628
-0.16257671,-0.092535734
-0.17857949,-0.075361446
-0.16826238,-0.085710749
-0.18328737,-0.08652816
-0.16721176,-0.075816453
-0.17424835,-0.084642626
-0.18785341,-0.076304398
-0.1738179,-0.095597409
-0.18068899,-0.090836495
-0.17094956,-0.079308368
-0.17559415,-0.083380915
-0.16865186,-0.08898586
-0.18142195,-0.075384684
-0.16300702,-0.079106741
-0.18262513,-0.082882993
-0.17940454,-0.080879658
-0.18048333,-0.079891749
-0.16591635,-0.090440601
-0.18008545,-0.07196404
-0.17788766,-0.084094033
-0.17641251,-0.086292818
-0.16808635,-0.08462476
-0.1744753,-0.086772315
-0.17824849,-0.073640771
-0.17259553,-0.082464866
-0.1711631,-0.075129077
-0.16132352,-0.079160973
-0.15852429,-0.08512798
-0.18497619,-0.081138842
-0.17842883,-0.082929648
-0.16388771,-0.075645372
-0.16651648,-0.086196803
-0.16892318,-0.079674229
-0.1671682,-0.078368194
-0.17326546,-0.082002051
-0.16636387,-0.080594249
-0.17198262,-0.078503706
-0.17587499,-0.0751068
-0.17008094,-0.066908501
-0.16951698,-0.089397736
-0.17400639,-0.078995243
-0.17288189,-0.083754562
-0.17334132,-0.080278516
-0.18566746,-0.091683924
-0.17808951,-0.077248968
-0.17497858,-0.072303891
-0.15988226,-0.08107096
-0.16966802,-0.085472517
-0.16261129,-0.077689148
-0.17189854,-0.082389131
-0.17946763,-0.082497478
-0.16169786,-0.08360482
-0.16848998,-0.083236612
-0.16927323,-0.074944429
-0.17204744,-0.074033305
-0.17234184,-0.091572665
-0.1747862,-0.081429429
-0.17924158,-0.080290876
-0.1641252,-0.097137511
-0.17128463,-0.080467783
-0.16795304,-0.091070756
-0.16651753,-0.082142152
-0.16613719,-0.076652355
-0.1680311,-0.085215591
-0.16162512,-0.083608143
-0.18061475,-0.083250396
-0.1681868,-0.085984439
-0.17224486,-0.083600596
-0.17458129,-0.0874153
-0.16952482,-0.081329912
-0.16400036,-0.085619688
-0.17780498,-0.090209372
-0.17048557,-0.082347356
-0.17140129,-0.085810229
-0.1717364,-0.084719025
-0.17643791,-0.082589529
-0.17528242,-0.072973266
-0.16264404,-0.082583278
-0.16421373,-0.078950785
-0.17247277,-0.080260724
-0.16659267,-0.081433892
-0.16305439,-0.066800013
-0.17279768,-0.083151966
-0.1803413,-0.085933007
-0.17441353,-0.074974842
-0.16731787,-0.082012959
-0.16387583,-0.080595203
-0.17588393,-0.080794767
-0.17695467,-0.082422718
-0.17335899,-0.079837196
-0.17132536,-0.078822397
-0.1718701,-0.083445229
-0.16593498,-0.081710167
-0.18038496,-0.081452221
-0.16747719,-0.070701756
-0.1804698,-0.090566628
-0.17157024,-0.083059281
-0.17916138,-0.081666395
-0.16822861,-0.084092252
-0.16946536,-0.080818385
-0.18491876,-0.071342222
-0.18294767,-0.080853648
-0.17911929,-0.084746778
-0.17015679,-0.071217351
-0.17875029,-0.082945786
-0.17816724,-0.078525007
-0.1687308,-0.075635396
-0.1811312,-0.088527262
-0.16677874,-0.084268801
-0.17326523,-0.089784786
-0.16903132,-0.081409596
-0.17531107,-0.082846276
-0.17022474,-0.081673518
-0.17995945,-0.080521494
-0.17804208,-0.09263812
-0.1773255,-0.078002438
-0.1833535,-0.079332843
-0.17212014,-0.082251556
-0.17487033,-0.080792002
-0.16901074,-0.086762629
-0.16884845,-0.082981028
-0.17633002,-0.084391795
-0.17271914,-0.086655118
-0.17348345,-0.078238331
-0.17194602,-0.075251512
-0.17112646,-0.081586681
-0.17458662,-0.083240926
-0.16985814,-0.084443055
-0.1821495,-0.083980739
-0.17390126,-0.077112831
-0.16894764,-0.083659574
-0.16888863,-0.087247565
-0.17148782,-0.082961246
-0.17455807,-0.076773524
-0.18167359,-0.08686015
-0.17442958,-0.078343272
-0.16988842,-0.077686504
-0.1723986,-0.084869929
-0.17138083,-0.088100769
-0.17784166,-0.084251858
-0.17065588,-0.081530027
-0.16518132,-0.089430355
-0.17109126,-0.084535353
-0.1799214,-0.072633363
-0.17651792,-0.088509604
-0.16672581,-0.079686947
-0.16978553,-0.074163362
-0.1756296,-0.081193149
-0.17133071,-0.083463401
-0.17737146,-0.087039247
-0.18448523,-0.076050699
-0.16995957,-0.089635551
-0.17369695,-0.083749682
-0.17214936,-0.085369058
-0.17338862,-0.079807401
-0.17777047,-0.082700513
-0.16714017,-0.085799366
-0.17019565,-0.074628301
-0.16620663,-0.075631015
-0.17215122,-0.083284929
-0.17693962,-0.087459765
-0.17345184,-0.080892809
-0.16880432,-0.085486859
-0.17500797,-0.092442781
-0.18299395,-0.085583456
-0.17406689,-0.087960735
-0.17531933,-0.086472169
-0.17495935,-0.080885954
-0.17236452,-0.087213546
-0.16392311,-0.084008262
-0.17535964,-0.081551693
-0.17647861,-0.079531714
-0.17990519,-0.083626084
-0.17406656,-0.084228784
-0.17746516,-0.08053045
-0.1778038,-0.082311265
-0.16496059,-0.086213343
-0.18348312,-0.075847812
-0.17443722,-0.080870517
-0.17185408,-0.081631757
-0.17989998,-0.077172123
-0.17236987,-0.078950822
-0.18073554,-0.086020283
-0.1770038,-0.079430535
-0.1760779,-0.084034003
-0.17258662,-0.077390328
-0.1727014,-0.081608735
-0.17814206,-0.083946295
-0.17146267,-0.083162457
-0.17872842,-0.080996826
-0.17230064,-0.08364258
-0.17474394,-0.08787372
-0.17092848,-0.085689843
-0.17597862,-0.08620353
-0.17785794,-0.078279719
-0.17882438,-0.079191968
-0.17133388,-0.079770014
-0.17885241,-0.08171992
-0.17545138,-0.068751387
-0.17252572,-0.078226157
-0.1678699,-0.08150994
-0.17196107,-0.088716343
-0.16854234,-0.079251498
-0.17035723,-0.079005338
-0.17075534,-0.078347459
-0.17340091,-0.081237562
-0.17090648,-0.082329452
-0.16951931,-0.085836425
-0.17337275,-0.086144954
-0.17079628,-0.091545768
-0.16983861,-0.081695944
-0.17772882,-0.085565038
-0.16725165,-0.084454261
-0.17250748,-0.086694948
-0.16457212,-0.078148805
-0.17019136,-0.086587064
-0.16983537,-0.080153324
-0.17496006,-0.079090759
-0.1776797,-0.084030569
-0.17243263,-0.077613004
-0.17518389,-0.081780247
-0.16895582,-0.08239574
-0.17483601,-0.082127236
-0.17850392,-0.085830346
-0.17577904,-0.079274662
-0.16608287,-0.082480386
-0.17492983,-0.075701654
-0.18205178,-0.081768624
-0.1692609,-0.080092452
-0.17511922,-0.080562733
-0.17329639,-0.086515635
-0.17631114,-0.081732228
-0.17465764,-0.084910288
-0.16459319,-0.083153971
-0.17566466,-0.07718315
-0.17664282,-0.079731651
-0.16777824,-0.091199122
-0.1726265,-0.083602332
-0.17562222,-0.079503283
-0.16776948,-0.081746005
-0.17073242,-0.080865353
-0.17023176,-0.079692677
-0.17336851,-0.081212081
-0.1814668,-0.085645981
-0.17368357,-0.081605084
-0.17339952,-0.078356288
-0.16909625,-0.08024364
-0.17224517,-0.08194118
-0.17049709,-0.080247976
-0.16844425,-0.079119436
-0.1736306,-0.079063267
-0.17004566,-0.085692875
-0.17318873,-0.087076321
-0.17327197,-0.08100953
-0.17540187,-0.080472514
-0.17282766,-0.08428438
-0.17019837,-0.081545748
-0.17003971,-0.078222796
-0.17326333,-0.083441503
-0.17001121,-0.082983777
-0.17135881,-0.086873673
-0.17539756,-0.077534765
-0.17215884,-0.079768158
-0.1701649,-0.07484585
-0.17366341,-0.079583853
-0.17418955,-0.084885947
-0.17630357,-0.082787335
-0.17633998,-0.079926781
-0.17387362,-0.085788094
-0.17756315,-0.07835377
-0.17018808,-0.075701587
-0.17382424,-0.083132103
-0.17833938,-0.08435753
-0.17671236,-0.080490731
-0.1736348,-0.087802149
-0.17171106,-0.084529839
-0.17387408,-0.079814196
-0.17109707,-0.080625176
-0.17552315,-0.080080748
-0.16730344,-0.081397921
-0.17439716,-0.080328181
-0.1807117,-0.085741989
-0.17179053,-0.082093306
-0.17630133,-0.088006683
-0.17400134,-0.083994694
-0.17038229,-0.085722901
-0.17102699,-0.084158979
-0.17014043,-0.084680691
-0.17065592,-0.079555325
-0.16717426,-0.077205025
-0.17234027,-0.082680143
-0.17456527,-0.083628148
-0.16797285,-0.083082929
-0.17933412,-0.084915467
-0.17056587,-0.083572231
-0.17804769,-0.084988028
-0.17218512,-0.084774114
-0.17339584,-0.084315576
-0.17618512,-0.083081208
-0.16555788,-0.079774611
-0.17346507,-0.084381551
-0.17066415,-0.090760715
-0.16702928,-0.085722245
-0.17218575,-0.084487125
-0.17556861,-0.080962971
-0.17018466,-0.078932382
-0.17128991,-0.076644219
-0.17107889,-0.078381948
-0.17337847,-0.081241503
-0.17924398,-0.082256161
-0.17354061,-0.082987539
-0.17756695,-0.08007782
-0.17210978,-0.082642429
-0.17363924,-0.078505017
-0.1717739,-0.081766598
-0.17126699,-0.086581498
-0.17315832,-0.080376349
-0.16802533,-0.080191068
-0.17074443,-0.079688393
-0.17235623,-0.078916326
-0.17060778,-0.076898828
-0.17513943,-0.082303606
-0.17052715,-0.083026975
-0.17384402,-0.081487201
-0.17617354,-0.084619537
-0.17406669,-0.086999521
-0.16593431,-0.080208838
-0.1737877,-0.081677899
-0.17477444,-0.078206003
-0.17170274,-0.081627183
-0.17197721,-0.084080346
-0.17344408,-0.084117249
-0.17046338,-0.084381044
-0.1693958,-0.082892701
-0.16987127,-0.08449503
-0.17172645,-0.081893086
-0.16888896,-0.082318835
-0.1706294,-0.085292958
-0.17102793,-0.080245465
-0.17063326,-0.079096347
-0.17120856,-0.079765275
-0.1713842,-0.085139893
-0.17061047,-0.081186876
-0.17015228,-0.083774015
-0.17501217,-0.084007949
-0.17177965,-0.084879659
-0.17437099,-0.08375594
-0.1748478,-0.079737313
-0.17471914,-0.082281828
-0.16953608,-0.079264909
-0.17368464,-0.085440785
-0.17176168,-0.080002271
-0.17007317,-0.081520706
-0.17102979,-0.085261725
-0.17437969,-0.084844992
-0.17228121,-0.08394669
-0.16917326,-0.082520328
-0.17103295,-0.080313027
-0.17232679,-0.083586402
-0.17485692,-0.085016578
-0.1690919,-0.086479522
-0.17724517,-0.076894276
-0.17174667,-0.087713405
-0.17462854,-0.080730714
-0.174512,-0.084343858
-0.17614676,-0.084318325
-0.17233971,-0.081613109
-0.17705324,-0.085076332
-0.1734418,-0.076735973
-0.17212985,-0.080923073
-0.17197327,-0.079471484
-0.17033559,-0.082217701
-0.17187239,-0.08346235
-0.17312238,-0.081402183
-0.17214811,-0.080623046
-0.17463818,-0.082847483
-0.17300044,-0.084752306
-0.17248395,-0.080850795
-0.17541187,-0.079861857
-0.17421286,-0.082589142
-0.17243147,-0.084308125
-0.17336607,-0.080736607
-0.17239967,-0.077682711
-0.17295188,-0.081697904
-0.17079262,-0.081379384
-0.17653534,-0.077934451
-0.17130934,-0.084306724
-0.17270023,-0.079962283
-0.17335674,-0.081698224
-0.17556451,-0.084932677
