CITIFILE A.01.01
!Agilent Technologies,N5230C,MY48100142,A.08.04.10
!Agilent N5230C: A.08.04.10
!Format: LogMag/Angle
!Date: Monday, August 24, 2020 11:35:18
NAME CH1_DATA
VAR Power MAG 801
DATA S11 DBANGLE
DATA S21 DBANGLE
DATA S12 DBANGLE
DATA S22 DBANGLE
VAR_LIST_BEGIN
-40
-39.975
-39.95
-39.925
-39.9
-39.875
-39.85
-39.825
-39.8
-39.775
-39.75
-39.725
-39.7
-39.675
-39.65
-39.625
-39.6
-39.575
-39.55
-39.525
-39.5
-39.475
-39.45
-39.425
-39.4
-39.375
-39.35
-39.325
-39.3
-39.275
-39.25
-39.225
-39.2
-39.175
-39.15
-39.125
-39.1
-39.075
-39.05
-39.025
-39
-38.975
-38.95
-38.925
-38.9
-38.875
-38.85
-38.825
-38.8
-38.775
-38.75
-38.725
-38.7
-38.675
-38.65
-38.625
-38.6
-38.575
-38.55
-38.525
-38.5
-38.475
-38.45
-38.425
-38.4
-38.375
-38.35
-38.325
-38.3
-38.275
-38.25
-38.225
-38.2
-38.175
-38.15
-38.125
-38.1
-38.075
-38.05
-38.025
-38
-37.975
-37.95
-37.925
-37.9
-37.875
-37.85
-37.825
-37.8
-37.775
-37.75
-37.725
-37.7
-37.675
-37.65
-37.625
-37.6
-37.575
-37.55
-37.525
-37.5
-37.475
-37.45
-37.425
-37.4
-37.375
-37.35
-37.325
-37.3
-37.275
-37.25
-37.225
-37.2
-37.175
-37.15
-37.125
-37.1
-37.075
-37.05
-37.025
-37
-36.975
-36.95
-36.925
-36.9
-36.875
-36.85
-36.825
-36.8
-36.775
-36.75
-36.725
-36.7
-36.675
-36.65
-36.625
-36.6
-36.575
-36.55
-36.525
-36.5
-36.475
-36.45
-36.425
-36.4
-36.375
-36.35
-36.325
-36.3
-36.275
-36.25
-36.225
-36.2
-36.175
-36.15
-36.125
-36.1
-36.075
-36.05
-36.025
-36
-35.975
-35.95
-35.925
-35.9
-35.875
-35.85
-35.825
-35.8
-35.775
-35.75
-35.725
-35.7
-35.675
-35.65
-35.625
-35.6
-35.575
-35.55
-35.525
-35.5
-35.475
-35.45
-35.425
-35.4
-35.375
-35.35
-35.325
-35.3
-35.275
-35.25
-35.225
-35.2
-35.175
-35.15
-35.125
-35.1
-35.075
-35.05
-35.025
-35
-34.975
-34.95
-34.925
-34.9
-34.875
-34.85
-34.825
-34.8
-34.775
-34.75
-34.725
-34.7
-34.675
-34.65
-34.625
-34.6
-34.575
-34.55
-34.525
-34.5
-34.475
-34.45
-34.425
-34.4
-34.375
-34.35
-34.325
-34.3
-34.275
-34.25
-34.225
-34.2
-34.175
-34.15
-34.125
-34.1
-34.075
-34.05
-34.025
-34
-33.975
-33.95
-33.925
-33.9
-33.875
-33.85
-33.825
-33.8
-33.775
-33.75
-33.725
-33.7
-33.675
-33.65
-33.625
-33.6
-33.575
-33.55
-33.525
-33.5
-33.475
-33.45
-33.425
-33.4
-33.375
-33.35
-33.325
-33.3
-33.275
-33.25
-33.225
-33.2
-33.175
-33.15
-33.125
-33.1
-33.075
-33.05
-33.025
-33
-32.975
-32.95
-32.925
-32.9
-32.875
-32.85
-32.825
-32.8
-32.775
-32.75
-32.725
-32.7
-32.675
-32.65
-32.625
-32.6
-32.575
-32.55
-32.525
-32.5
-32.475
-32.45
-32.425
-32.4
-32.375
-32.35
-32.325
-32.3
-32.275
-32.25
-32.225
-32.2
-32.175
-32.15
-32.125
-32.1
-32.075
-32.05
-32.025
-32
-31.975
-31.95
-31.925
-31.9
-31.875
-31.85
-31.825
-31.8
-31.775
-31.75
-31.725
-31.7
-31.675
-31.65
-31.625
-31.6
-31.575
-31.55
-31.525
-31.5
-31.475
-31.45
-31.425
-31.4
-31.375
-31.35
-31.325
-31.3
-31.275
-31.25
-31.225
-31.2
-31.175
-31.15
-31.125
-31.1
-31.075
-31.05
-31.025
-31
-30.975
-30.95
-30.925
-30.9
-30.875
-30.85
-30.825
-30.8
-30.775
-30.75
-30.725
-30.7
-30.675
-30.65
-30.625
-30.6
-30.575
-30.55
-30.525
-30.5
-30.475
-30.45
-30.425
-30.4
-30.375
-30.35
-30.325
-30.3
-30.275
-30.25
-30.225
-30.2
-30.175
-30.15
-30.125
-30.1
-30.075
-30.05
-30.025
-30
-29.975
-29.95
-29.925
-29.9
-29.875
-29.85
-29.825
-29.8
-29.775
-29.75
-29.725
-29.7
-29.675
-29.65
-29.625
-29.6
-29.575
-29.55
-29.525
-29.5
-29.475
-29.45
-29.425
-29.4
-29.375
-29.35
-29.325
-29.3
-29.275
-29.25
-29.225
-29.2
-29.175
-29.15
-29.125
-29.1
-29.075
-29.05
-29.025
-29
-28.975
-28.95
-28.925
-28.9
-28.875
-28.85
-28.825
-28.8
-28.775
-28.75
-28.725
-28.7
-28.675
-28.65
-28.625
-28.6
-28.575
-28.55
-28.525
-28.5
-28.475
-28.45
-28.425
-28.4
-28.375
-28.35
-28.325
-28.3
-28.275
-28.25
-28.225
-28.2
-28.175
-28.15
-28.125
-28.1
-28.075
-28.05
-28.025
-28
-27.975
-27.95
-27.925
-27.9
-27.875
-27.85
-27.825
-27.8
-27.775
-27.75
-27.725
-27.7
-27.675
-27.65
-27.625
-27.6
-27.575
-27.55
-27.525
-27.5
-27.475
-27.45
-27.425
-27.4
-27.375
-27.35
-27.325
-27.3
-27.275
-27.25
-27.225
-27.2
-27.175
-27.15
-27.125
-27.1
-27.075
-27.05
-27.025
-27
-26.975
-26.95
-26.925
-26.9
-26.875
-26.85
-26.825
-26.8
-26.775
-26.75
-26.725
-26.7
-26.675
-26.65
-26.625
-26.6
-26.575
-26.55
-26.525
-26.5
-26.475
-26.45
-26.425
-26.4
-26.375
-26.35
-26.325
-26.3
-26.275
-26.25
-26.225
-26.2
-26.175
-26.15
-26.125
-26.1
-26.075
-26.05
-26.025
-26
-25.975
-25.95
-25.925
-25.9
-25.875
-25.85
-25.825
-25.8
-25.775
-25.75
-25.725
-25.7
-25.675
-25.65
-25.625
-25.6
-25.575
-25.55
-25.525
-25.5
-25.475
-25.45
-25.425
-25.4
-25.375
-25.35
-25.325
-25.3
-25.275
-25.25
-25.225
-25.2
-25.175
-25.15
-25.125
-25.1
-25.075
-25.05
-25.025
-25
-24.975
-24.95
-24.925
-24.9
-24.875
-24.85
-24.825
-24.8
-24.775
-24.75
-24.725
-24.7
-24.675
-24.65
-24.625
-24.6
-24.575
-24.55
-24.525
-24.5
-24.475
-24.45
-24.425
-24.4
-24.375
-24.35
-24.325
-24.3
-24.275
-24.25
-24.225
-24.2
-24.175
-24.15
-24.125
-24.1
-24.075
-24.05
-24.025
-24
-23.975
-23.95
-23.925
-23.9
-23.875
-23.85
-23.825
-23.8
-23.775
-23.75
-23.725
-23.7
-23.675
-23.65
-23.625
-23.6
-23.575
-23.55
-23.525
-23.5
-23.475
-23.45
-23.425
-23.4
-23.375
-23.35
-23.325
-23.3
-23.275
-23.25
-23.225
-23.2
-23.175
-23.15
-23.125
-23.1
-23.075
-23.05
-23.025
-23
-22.975
-22.95
-22.925
-22.9
-22.875
-22.85
-22.825
-22.8
-22.775
-22.75
-22.725
-22.7
-22.675
-22.65
-22.625
-22.6
-22.575
-22.55
-22.525
-22.5
-22.475
-22.45
-22.425
-22.4
-22.375
-22.35
-22.325
-22.3
-22.275
-22.25
-22.225
-22.2
-22.175
-22.15
-22.125
-22.1
-22.075
-22.05
-22.025
-22
-21.975
-21.95
-21.925
-21.9
-21.875
-21.85
-21.825
-21.8
-21.775
-21.75
-21.725
-21.7
-21.675
-21.65
-21.625
-21.6
-21.575
-21.55
-21.525
-21.5
-21.475
-21.45
-21.425
-21.4
-21.375
-21.35
-21.325
-21.3
-21.275
-21.25
-21.225
-21.2
-21.175
-21.15
-21.125
-21.1
-21.075
-21.05
-21.025
-21
-20.975
-20.95
-20.925
-20.9
-20.875
-20.85
-20.825
-20.8
-20.775
-20.75
-20.725
-20.7
-20.675
-20.65
-20.625
-20.6
-20.575
-20.55
-20.525
-20.5
-20.475
-20.45
-20.425
-20.4
-20.375
-20.35
-20.325
-20.3
-20.275
-20.25
-20.225
-20.2
-20.175
-20.15
-20.125
-20.1
-20.075
-20.05
-20.025
-20
VAR_LIST_END
BEGIN
-14.981505,-159.18459
-14.944599,-159.07271
-14.98372,-161.32788
-15.450572,-159.63129
-14.710479,-158.51079
-15.187121,-157.2417
-14.869363,-160.19566
-15.275256,-161.53947
-14.912371,-159.26826
-15.144228,-158.88658
-15.074437,-157.4537
-15.056936,-157.72969
-15.127731,-159.03725
-14.867682,-159.93729
-14.960841,-161.10822
-15.023561,-159.79517
-15.107033,-157.52881
-14.504288,-159.2981
-14.680255,-160.67953
-14.988242,-159.84021
-14.806447,-159.06609
-14.856192,-159.81279
-14.777811,-161.66756
-15.037502,-157.2516
-14.849399,-160.96487
-15.00049,-162.25943
-15.056147,-160.69586
-14.897072,-159.63573
-15.273945,-161.93643
-15.023302,-160.30704
-14.708822,-158.69484
-14.677886,-160.07465
-14.949065,-158.03807
-15.214902,-156.28287
-15.201838,-157.70992
-14.819249,-156.79346
-14.614635,-158.66716
-15.018954,-158.61102
-14.972883,-157.43935
-15.12713,-155.93161
-15.02742,-159.57173
-14.901877,-161.28238
-15.174698,-160.34686
-15.113838,-158.14709
-15.147621,-158.71667
-15.251097,-160.40547
-14.679636,-159.51985
-15.198575,-158.19615
-14.795148,-160.99483
-15.123232,-160.3934
-14.968898,-157.16986
-15.204587,-156.91597
-14.872078,-158.68486
-15.228314,-159.66196
-15.032053,-158.69234
-15.182015,-158.22749
-15.089966,-161.64378
-14.844531,-160.82236
-15.052983,-161.15935
-15.122627,-158.83434
-15.119182,-158.30884
-14.864057,-159.77292
-15.005198,-160.21498
-15.304606,-156.38095
-14.869526,-158.83385
-14.900553,-162.92329
-15.366311,-159.10742
-14.802643,-158.13177
-15.339611,-158.84033
-14.995692,-159.85315
-14.987896,-159.02705
-15.138722,-158.17062
-14.797436,-156.10037
-14.890181,-160.23775
-15.052526,-162.24382
-15.026731,-158.96278
-14.720795,-160.39868
-15.053004,-158.45627
-15.128635,-159.42404
-14.733643,-157.83386
-14.587428,-158.09547
-14.913352,-159.05865
-15.078441,-158.11234
-15.086016,-158.76277
-14.840117,-158.26604
-14.971829,-158.20631
-14.886957,-160.20645
-14.825686,-156.6268
-14.839289,-158.81596
-15.174281,-161.02222
-14.845977,-157.0504
-14.855282,-157.91905
-14.985692,-158.01767
-15.191394,-163.12625
-15.039558,-160.21677
-15.127347,-156.78339
-14.897642,-158.65991
-14.875731,-158.55276
-14.950224,-161.49132
-15.18325,-161.06076
-15.235741,-160.57851
-15.480097,-159.47112
-14.982048,-158.31952
-15.267118,-160.10426
-15.118607,-162.10814
-14.823561,-160.76546
-14.73002,-160.07597
-15.337502,-161.02524
-14.770935,-160.02605
-15.144108,-156.59464
-15.516309,-159.6319
-15.082203,-157.58565
-14.629401,-158.0186
-15.220307,-159.20107
-15.325281,-157.29591
-15.308431,-159.4642
-15.277578,-161.00249
-14.767452,-161.13318
-15.248076,-158.76146
-14.951095,-161.15131
-15.006995,-157.17052
-15.121152,-157.01259
-15.193722,-160.21866
-15.04107,-159.00801
-15.016985,-158.21521
-14.989685,-159.09703
-14.929105,-158.52725
-14.905463,-158.42982
-15.081814,-161.10527
-14.897202,-159.90295
-14.90029,-161.17574
-15.127439,-159.20917
-14.817747,-159.95711
-15.162007,-157.77571
-15.149014,-157.95073
-15.341818,-161.58006
-15.275821,-161.36189
-15.264984,-160.58784
-14.542611,-160.64059
-14.821003,-158.70534
-14.838466,-160.65407
-15.092463,-158.02884
-15.128314,-157.75824
-15.117248,-159.11829
-15.13523,-159.5627
-14.902792,-158.99689
-15.016326,-157.06119
-15.125509,-159.64177
-15.104618,-157.61115
-14.810402,-158.2852
-15.245615,-157.7439
-14.929778,-159.25934
-14.952581,-156.67192
-15.212656,-158.26976
-14.942659,-159.67528
-15.241336,-159.84593
-15.414287,-157.73842
-15.097087,-159.50626
-15.268875,-160.39996
-15.161377,-160.95941
-15.094004,-161.54434
-15.178259,-159.20528
-15.23853,-160.02682
-15.222739,-160.39006
-14.964068,-160.17052
-14.829891,-160.28314
-15.259773,-157.11761
-14.864346,-157.68211
-15.175929,-160.44316
-14.940454,-159.28021
-14.780264,-161.56108
-15.148413,-158.30478
-14.869813,-160.10954
-15.15671,-159.22197
-14.899361,-158.8492
-15.010236,-158.42462
-15.080987,-158.73161
-14.868508,-159.7473
-15.053534,-159.25279
-15.068128,-157.50714
-15.255246,-161.45775
-14.866403,-158.02101
-14.977339,-160.66534
-14.956219,-159.40852
-14.994661,-159.69705
-15.052285,-159.44154
-15.25187,-160.82224
-15.148957,-159.14583
-14.804887,-159.56094
-15.119937,-159.72356
-15.061982,-160.4162
-15.093194,-159.0688
-15.136371,-157.81506
-15.353544,-161.80099
-14.672485,-159.87077
-15.012931,-159.95036
-14.986094,-158.82738
-15.30799,-159.22644
-15.124425,-160.66498
-14.936481,-160.34825
-15.007237,-158.92516
-15.020715,-160.09662
-15.19241,-157.90666
-14.977871,-157.66805
-15.107731,-158.11295
-14.77336,-159.06747
-15.270826,-158.79721
-15.133599,-157.67912
-15.18819,-159.39169
-15.165178,-161.88628
-15.042048,-159.50398
-15.106462,-158.70113
-15.094601,-158.44048
-15.053085,-157.45802
-15.308599,-159.08046
-15.133284,-159.06117
-14.801954,-160.85704
-15.407289,-159.14745
-15.043123,-158.11603
-15.146533,-158.37352
-14.992254,-158.1389
-15.385121,-159.03531
-15.04875,-157.95515
-15.185343,-156.67862
-15.301352,-158.53786
-15.078842,-159.66362
-15.004102,-161.06329
-15.279251,-158.4791
-15.205121,-158.49146
-15.195283,-159.15561
-15.167339,-158.79089
-14.946505,-159.37633
-14.983819,-158.93306
-15.020747,-158.87445
-14.866528,-160.01407
-14.776903,-158.82562
-14.893717,-157.57339
-15.034198,-158.67851
-15.054909,-158.17923
-15.195733,-159.90472
-15.003201,-159.19109
-14.831486,-159.02779
-15.162807,-157.68987
-14.982656,-158.04602
-14.96596,-159.95424
-15.161008,-159.66495
-14.844775,-159.37326
-15.071753,-158.31673
-15.079619,-160.29723
-15.036941,-159.6666
-15.280432,-159.24416
-15.188734,-157.17953
-15.127928,-159.73444
-15.071899,-158.67072
-15.270251,-157.44228
-14.903658,-159.09183
-15.215277,-158.29849
-15.093138,-157.64178
-15.087038,-158.91908
-15.052859,-158.29932
-14.957496,-159.8822
-15.059057,-159.2186
-15.160254,-159.98947
-15.120493,-158.77026
-15.073654,-160.5927
-15.079823,-159.87416
-15.313572,-157.69
-15.056606,-158.56445
-14.84074,-158.41817
-14.945597,-158.84778
-15.006494,-159.04654
-15.139379,-159.23132
-15.107589,-160.14453
-15.023423,-160.57053
-14.925919,-160.8102
-15.01495,-158.47163
-15.08844,-159.09348
-15.123116,-160.00529
-15.077971,-158.26483
-15.07509,-159.42699
-15.010239,-158.36362
-14.940146,-160.24107
-14.899632,-159.444
-15.128046,-159.09566
-15.08051,-158.94769
-15.023707,-158.76401
-15.169846,-157.96841
-15.10365,-158.70714
-15.043803,-160.18427
-15.141358,-159.53577
-15.125621,-160.35706
-15.157027,-159.08211
-14.892015,-159.15567
-15.02555,-158.31262
-14.957021,-160.21288
-15.130532,-159.53944
-15.13728,-158.09418
-15.017396,-159.69398
-15.308734,-158.62195
-15.043011,-159.49678
-15.228187,-158.52109
-15.177405,-159.28674
-15.172717,-159.21359
-14.914459,-158.6606
-15.23722,-159.90315
-15.155354,-159.44458
-15.27367,-159.74506
-15.208849,-158.41985
-14.947307,-159.41586
-15.158953,-159.59375
-14.914267,-159.95731
-15.17514,-159.77991
-15.079306,-157.7971
-15.048455,-158.73302
-14.958228,-159.59868
-15.078895,-159.89009
-15.251391,-160.34535
-15.07608,-158.73245
-15.029338,-159.60553
-15.080245,-159.16692
-15.24841,-159.27512
-15.087026,-159.46019
-15.086923,-158.50935
-14.8738,-159.92422
-15.006684,-159.8609
-15.048203,-159.06985
-15.015774,-158.48677
-15.024979,-161.0137
-15.188818,-159.50713
-15.213955,-158.88913
-15.16227,-157.77328
-15.222776,-159.59154
-14.984066,-159.26979
-15.075213,-159.3008
-15.011017,-159.59041
-15.208593,-159.4593
-15.048781,-159.22838
-15.192924,-159.77199
-15.11525,-159.28136
-14.963761,-159.29533
-15.016547,-158.90396
-15.07912,-159.80656
-14.845528,-159.09254
-15.053822,-160.20987
-14.936787,-158.7074
-15.012263,-158.43115
-15.113622,-159.33865
-15.177607,-158.59657
-15.182309,-159.33041
-15.059589,-157.72079
-15.049524,-159.43401
-15.028422,-158.81258
-15.080445,-158.8268
-14.900688,-158.25783
-15.053493,-159.14964
-15.093225,-159.6828
-15.014124,-159.30705
-14.997088,-159.55385
-15.088031,-157.10388
-14.943045,-158.1129
-15.123569,-160.31007
-15.042202,-157.6694
-14.968539,-158.59605
-15.029226,-159.96156
-14.93477,-158.81268
-15.223007,-159.0408
-14.95641,-157.82257
-15.23061,-159.69272
-15.170324,-159.93996
-15.005038,-158.14568
-15.05528,-159.89545
-14.973274,-159.20235
-14.935333,-158.52797
-14.977604,-159.26393
-15.036346,-158.70766
-14.924657,-158.22485
-15.072449,-159.51459
-15.078245,-158.61131
-15.029506,-158.76364
-15.058852,-159.82297
-15.142922,-158.61052
-15.166329,-158.36157
-15.008918,-158.67529
-15.122272,-159.00615
-14.970289,-158.88486
-14.961217,-158.46637
-15.001875,-158.83368
-15.020448,-159.57849
-15.076036,-159.3761
-15.076914,-158.61455
-14.897411,-158.91539
-15.096959,-158.4035
-14.882925,-159.2395
-15.151855,-158.75134
-15.020953,-158.88641
-15.050771,-159.24734
-15.048791,-158.72188
-15.10906,-158.50966
-15.072204,-159.80046
-15.043909,-159.35696
-14.976446,-159.21649
-14.888811,-158.96599
-15.080278,-158.84322
-14.846875,-159.65919
-15.036144,-160.09343
-15.122239,-158.59525
-15.198633,-158.49457
-15.090468,-159.73146
-15.029305,-159.50838
-15.272689,-158.00987
-15.024571,-158.79892
-14.986417,-160.07213
-15.065863,-159.54987
-15.142138,-159.10223
-14.986635,-158.2636
-14.999961,-158.78223
-15.177054,-158.3141
-14.917319,-159.31067
-15.113881,-159.12032
-14.978472,-159.2878
-15.121405,-160.38896
-15.143696,-159.81354
-15.055594,-159.45045
-14.977719,-159.37689
-15.195678,-159.63281
-15.088075,-158.62952
-15.178847,-158.62129
-14.917017,-158.56163
-14.968148,-160.5074
-15.090817,-159.07433
-15.009456,-159.91148
-14.818943,-158.93538
-15.060632,-159.77673
-15.096571,-159.56488
-15.029271,-159.31421
-15.276876,-159.35333
-14.991518,-158.40248
-14.995512,-158.20847
-14.967372,-159.62137
-15.090714,-159.1312
-15.043685,-158.96762
-15.012192,-159.03189
-15.043598,-158.54636
-15.080402,-159.22208
-15.073577,-159.09035
-15.099973,-159.13597
-15.136734,-159.95284
-15.029246,-158.46152
-15.096561,-159.91032
-15.072285,-159.32996
-15.080048,-159.21791
-15.024304,-159.82814
-15.16173,-159.53751
-15.115903,-159.56149
-15.188108,-159.44058
-15.040359,-158.84492
-15.145675,-159.62395
-15.011559,-159.10933
-15.036507,-158.81055
-15.134181,-159.60513
-15.042706,-158.77753
-15.079259,-158.64828
-14.983545,-159.04848
-14.992825,-158.92195
-14.962638,-158.43243
-15.178129,-159.18745
-14.919199,-158.96715
-15.102732,-159.2002
-14.93058,-159.09105
-15.040677,-158.96162
-15.078895,-159.09467
-14.961045,-159.21107
-15.026646,-159.79375
-15.133759,-159.10509
-15.098593,-159.41107
-14.923965,-158.89813
-15.016341,-158.3615
-15.07823,-158.47504
-14.90303,-159.51831
-15.105192,-159.30486
-15.069622,-159.45218
-15.093766,-159.70232
-15.037658,-158.67999
-15.035838,-159.4314
-15.115565,-158.74309
-15.058277,-159.63524
-15.024312,-159.6937
-15.071778,-160.23361
-14.995326,-159.59035
-14.941184,-158.96922
-15.099333,-159.21658
-14.986708,-159.2755
-15.156754,-159.96935
-15.212402,-158.41617
-15.074836,-158.9933
-15.047449,-159.00964
-15.044841,-159.5956
-15.165745,-158.99677
-15.152392,-158.63191
-15.043497,-159.88249
-14.971768,-159.1743
-14.926096,-158.6808
-15.001318,-158.46086
-15.119052,-159.38893
-15.071267,-159.12038
-14.997306,-159.4973
-14.993266,-159.25351
-15.117368,-158.99696
-15.047307,-158.33322
-15.043244,-159.54265
-15.18618,-158.98666
-15.133165,-159.26282
-14.996984,-158.96762
-15.081739,-158.95953
-15.048025,-159.80827
-15.049634,-159.0322
-15.061997,-158.83656
-15.203739,-159.41814
-15.102881,-159.84386
-15.120204,-159.58986
-15.078875,-158.6153
-15.102191,-159.21448
-15.058288,-158.86935
-15.190506,-158.70674
-15.074248,-159.19643
-15.031009,-159.6306
-15.068717,-158.91039
-15.082519,-159.55684
-15.059465,-159.36884
-15.146287,-159.20082
-15.075562,-158.95276
-15.060821,-159.36278
-15.023557,-159.76341
-15.111978,-158.81377
-15.016072,-158.42867
-14.948259,-159.58359
-14.938781,-159.42932
-14.921213,-159.32578
-15.014797,-159.2861
-15.024364,-159.15828
-15.055858,-159.34337
-15.197549,-159.54222
-15.081881,-159.42055
-15.093017,-159.1302
-15.053874,-159.07945
-15.096736,-158.98943
-15.01522,-159.70499
-15.002565,-158.93437
-15.048703,-159.53801
-15.095133,-159.78706
-15.08054,-158.95807
-15.039852,-159.31746
-15.132417,-159.19958
-15.039158,-159.28009
-15.0525,-159.31645
-15.095646,-159.74886
-15.051391,-159.06709
-15.081402,-159.45351
-15.094109,-159.27669
-15.162664,-159.74857
-15.034561,-159.26117
-15.043781,-158.89264
-15.071489,-159.66557
-15.004488,-159.76135
-15.007251,-159.4882
-15.047127,-159.08147
-15.056022,-158.53716
-14.96913,-159.31049
-15.084903,-159.24324
-15.074412,-159.66995
-15.10743,-158.76152
-15.085186,-159.04874
-15.049603,-159.453
-15.172537,-159.6609
-15.009077,-158.98692
-15.073033,-159.37355
