CITIFILE A.01.01
!Agilent Technologies,N5230C,MY48100142,A.08.04.10
!Agilent N5230C: A.08.04.10
!Format: LogMag/Angle
!Date: Wednesday, September 02, 2020 12:07:37
NAME CH1_DATA
VAR Power MAG 801
DATA S11 DBANGLE
DATA S21 DBANGLE
DATA S12 DBANGLE
DATA S22 DBANGLE
VAR_LIST_BEGIN
-40
-39.975
-39.95
-39.925
-39.9
-39.875
-39.85
-39.825
-39.8
-39.775
-39.75
-39.725
-39.7
-39.675
-39.65
-39.625
-39.6
-39.575
-39.55
-39.525
-39.5
-39.475
-39.45
-39.425
-39.4
-39.375
-39.35
-39.325
-39.3
-39.275
-39.25
-39.225
-39.2
-39.175
-39.15
-39.125
-39.1
-39.075
-39.05
-39.025
-39
-38.975
-38.95
-38.925
-38.9
-38.875
-38.85
-38.825
-38.8
-38.775
-38.75
-38.725
-38.7
-38.675
-38.65
-38.625
-38.6
-38.575
-38.55
-38.525
-38.5
-38.475
-38.45
-38.425
-38.4
-38.375
-38.35
-38.325
-38.3
-38.275
-38.25
-38.225
-38.2
-38.175
-38.15
-38.125
-38.1
-38.075
-38.05
-38.025
-38
-37.975
-37.95
-37.925
-37.9
-37.875
-37.85
-37.825
-37.8
-37.775
-37.75
-37.725
-37.7
-37.675
-37.65
-37.625
-37.6
-37.575
-37.55
-37.525
-37.5
-37.475
-37.45
-37.425
-37.4
-37.375
-37.35
-37.325
-37.3
-37.275
-37.25
-37.225
-37.2
-37.175
-37.15
-37.125
-37.1
-37.075
-37.05
-37.025
-37
-36.975
-36.95
-36.925
-36.9
-36.875
-36.85
-36.825
-36.8
-36.775
-36.75
-36.725
-36.7
-36.675
-36.65
-36.625
-36.6
-36.575
-36.55
-36.525
-36.5
-36.475
-36.45
-36.425
-36.4
-36.375
-36.35
-36.325
-36.3
-36.275
-36.25
-36.225
-36.2
-36.175
-36.15
-36.125
-36.1
-36.075
-36.05
-36.025
-36
-35.975
-35.95
-35.925
-35.9
-35.875
-35.85
-35.825
-35.8
-35.775
-35.75
-35.725
-35.7
-35.675
-35.65
-35.625
-35.6
-35.575
-35.55
-35.525
-35.5
-35.475
-35.45
-35.425
-35.4
-35.375
-35.35
-35.325
-35.3
-35.275
-35.25
-35.225
-35.2
-35.175
-35.15
-35.125
-35.1
-35.075
-35.05
-35.025
-35
-34.975
-34.95
-34.925
-34.9
-34.875
-34.85
-34.825
-34.8
-34.775
-34.75
-34.725
-34.7
-34.675
-34.65
-34.625
-34.6
-34.575
-34.55
-34.525
-34.5
-34.475
-34.45
-34.425
-34.4
-34.375
-34.35
-34.325
-34.3
-34.275
-34.25
-34.225
-34.2
-34.175
-34.15
-34.125
-34.1
-34.075
-34.05
-34.025
-34
-33.975
-33.95
-33.925
-33.9
-33.875
-33.85
-33.825
-33.8
-33.775
-33.75
-33.725
-33.7
-33.675
-33.65
-33.625
-33.6
-33.575
-33.55
-33.525
-33.5
-33.475
-33.45
-33.425
-33.4
-33.375
-33.35
-33.325
-33.3
-33.275
-33.25
-33.225
-33.2
-33.175
-33.15
-33.125
-33.1
-33.075
-33.05
-33.025
-33
-32.975
-32.95
-32.925
-32.9
-32.875
-32.85
-32.825
-32.8
-32.775
-32.75
-32.725
-32.7
-32.675
-32.65
-32.625
-32.6
-32.575
-32.55
-32.525
-32.5
-32.475
-32.45
-32.425
-32.4
-32.375
-32.35
-32.325
-32.3
-32.275
-32.25
-32.225
-32.2
-32.175
-32.15
-32.125
-32.1
-32.075
-32.05
-32.025
-32
-31.975
-31.95
-31.925
-31.9
-31.875
-31.85
-31.825
-31.8
-31.775
-31.75
-31.725
-31.7
-31.675
-31.65
-31.625
-31.6
-31.575
-31.55
-31.525
-31.5
-31.475
-31.45
-31.425
-31.4
-31.375
-31.35
-31.325
-31.3
-31.275
-31.25
-31.225
-31.2
-31.175
-31.15
-31.125
-31.1
-31.075
-31.05
-31.025
-31
-30.975
-30.95
-30.925
-30.9
-30.875
-30.85
-30.825
-30.8
-30.775
-30.75
-30.725
-30.7
-30.675
-30.65
-30.625
-30.6
-30.575
-30.55
-30.525
-30.5
-30.475
-30.45
-30.425
-30.4
-30.375
-30.35
-30.325
-30.3
-30.275
-30.25
-30.225
-30.2
-30.175
-30.15
-30.125
-30.1
-30.075
-30.05
-30.025
-30
-29.975
-29.95
-29.925
-29.9
-29.875
-29.85
-29.825
-29.8
-29.775
-29.75
-29.725
-29.7
-29.675
-29.65
-29.625
-29.6
-29.575
-29.55
-29.525
-29.5
-29.475
-29.45
-29.425
-29.4
-29.375
-29.35
-29.325
-29.3
-29.275
-29.25
-29.225
-29.2
-29.175
-29.15
-29.125
-29.1
-29.075
-29.05
-29.025
-29
-28.975
-28.95
-28.925
-28.9
-28.875
-28.85
-28.825
-28.8
-28.775
-28.75
-28.725
-28.7
-28.675
-28.65
-28.625
-28.6
-28.575
-28.55
-28.525
-28.5
-28.475
-28.45
-28.425
-28.4
-28.375
-28.35
-28.325
-28.3
-28.275
-28.25
-28.225
-28.2
-28.175
-28.15
-28.125
-28.1
-28.075
-28.05
-28.025
-28
-27.975
-27.95
-27.925
-27.9
-27.875
-27.85
-27.825
-27.8
-27.775
-27.75
-27.725
-27.7
-27.675
-27.65
-27.625
-27.6
-27.575
-27.55
-27.525
-27.5
-27.475
-27.45
-27.425
-27.4
-27.375
-27.35
-27.325
-27.3
-27.275
-27.25
-27.225
-27.2
-27.175
-27.15
-27.125
-27.1
-27.075
-27.05
-27.025
-27
-26.975
-26.95
-26.925
-26.9
-26.875
-26.85
-26.825
-26.8
-26.775
-26.75
-26.725
-26.7
-26.675
-26.65
-26.625
-26.6
-26.575
-26.55
-26.525
-26.5
-26.475
-26.45
-26.425
-26.4
-26.375
-26.35
-26.325
-26.3
-26.275
-26.25
-26.225
-26.2
-26.175
-26.15
-26.125
-26.1
-26.075
-26.05
-26.025
-26
-25.975
-25.95
-25.925
-25.9
-25.875
-25.85
-25.825
-25.8
-25.775
-25.75
-25.725
-25.7
-25.675
-25.65
-25.625
-25.6
-25.575
-25.55
-25.525
-25.5
-25.475
-25.45
-25.425
-25.4
-25.375
-25.35
-25.325
-25.3
-25.275
-25.25
-25.225
-25.2
-25.175
-25.15
-25.125
-25.1
-25.075
-25.05
-25.025
-25
-24.975
-24.95
-24.925
-24.9
-24.875
-24.85
-24.825
-24.8
-24.775
-24.75
-24.725
-24.7
-24.675
-24.65
-24.625
-24.6
-24.575
-24.55
-24.525
-24.5
-24.475
-24.45
-24.425
-24.4
-24.375
-24.35
-24.325
-24.3
-24.275
-24.25
-24.225
-24.2
-24.175
-24.15
-24.125
-24.1
-24.075
-24.05
-24.025
-24
-23.975
-23.95
-23.925
-23.9
-23.875
-23.85
-23.825
-23.8
-23.775
-23.75
-23.725
-23.7
-23.675
-23.65
-23.625
-23.6
-23.575
-23.55
-23.525
-23.5
-23.475
-23.45
-23.425
-23.4
-23.375
-23.35
-23.325
-23.3
-23.275
-23.25
-23.225
-23.2
-23.175
-23.15
-23.125
-23.1
-23.075
-23.05
-23.025
-23
-22.975
-22.95
-22.925
-22.9
-22.875
-22.85
-22.825
-22.8
-22.775
-22.75
-22.725
-22.7
-22.675
-22.65
-22.625
-22.6
-22.575
-22.55
-22.525
-22.5
-22.475
-22.45
-22.425
-22.4
-22.375
-22.35
-22.325
-22.3
-22.275
-22.25
-22.225
-22.2
-22.175
-22.15
-22.125
-22.1
-22.075
-22.05
-22.025
-22
-21.975
-21.95
-21.925
-21.9
-21.875
-21.85
-21.825
-21.8
-21.775
-21.75
-21.725
-21.7
-21.675
-21.65
-21.625
-21.6
-21.575
-21.55
-21.525
-21.5
-21.475
-21.45
-21.425
-21.4
-21.375
-21.35
-21.325
-21.3
-21.275
-21.25
-21.225
-21.2
-21.175
-21.15
-21.125
-21.1
-21.075
-21.05
-21.025
-21
-20.975
-20.95
-20.925
-20.9
-20.875
-20.85
-20.825
-20.8
-20.775
-20.75
-20.725
-20.7
-20.675
-20.65
-20.625
-20.6
-20.575
-20.55
-20.525
-20.5
-20.475
-20.45
-20.425
-20.4
-20.375
-20.35
-20.325
-20.3
-20.275
-20.25
-20.225
-20.2
-20.175
-20.15
-20.125
-20.1
-20.075
-20.05
-20.025
-20
VAR_LIST_END
BEGIN
-16.047619,-167.19298
-16.039185,-152.40118
-15.390819,-156.86508
-14.800564,-157.90616
-14.894044,-165.08875
-17.078178,-162.74138
-13.970645,-165.96056
-16.356728,-156.76994
-14.24824,-163.25809
-15.454768,-158.4399
-15.295883,-161.65471
-13.045317,-154.85764
-14.665897,-161.74919
-17.044935,-151.93895
-14.607368,-156.97885
-16.882004,-160.75346
-14.570763,-147.19482
-16.567755,-165.38998
-14.856864,-164.28473
-15.739073,-153.45428
-13.825629,-156.99936
-15.722889,-156.18839
-14.35789,-155.10695
-15.71639,-151.15291
-16.286877,-155.79562
-13.687088,-154.29335
-15.119836,-153.2146
-14.562518,-157.19487
-15.242494,-157.02219
-15.539533,-161.48898
-15.282599,-148.05975
-14.895365,-156.17992
-14.841846,-159.82655
-14.317322,-151.04509
-14.748292,-166.20287
-15.169145,-160.48676
-14.78781,-166.17729
-15.32863,-158.98958
-13.573827,-156.64929
-15.992556,-150.44456
-14.7899,-158.48488
-15.015526,-160.95799
-14.961912,-157.7404
-13.809406,-158.75214
-15.607242,-165.96158
-15.078858,-157.38429
-14.766761,-153.69824
-15.382207,-152.28745
-15.920672,-158.41425
-15.211702,-164.5145
-15.522939,-161.343
-14.097957,-158.75433
-15.286413,-159.63161
-14.387041,-154.51889
-14.937102,-155.46249
-15.06778,-165.64226
-16.643221,-157.91055
-13.889257,-157.91068
-14.706028,-158.95253
-14.593268,-157.3333
-13.869817,-166.41505
-16.328154,-159.43773
-14.05325,-152.48389
-15.1381,-165.09239
-15.274612,-151.13757
-16.410051,-161.64238
-16.04974,-156.63435
-15.671204,-155.7538
-16.03578,-159.20247
-14.950055,-155.85629
-15.481611,-164.4782
-14.222125,-164.58215
-15.304399,-162.604
-14.445834,-156.83685
-15.248575,-165.09331
-13.593707,-151.59663
-15.682961,-156.06859
-14.647908,-161.71622
-15.083028,-157.07884
-16.828104,-152.16458
-14.115673,-154.69151
-15.313214,-155.02997
-15.884115,-165.01463
-15.523904,-158.87975
-15.125085,-161.56746
-15.578365,-158.61398
-14.305017,-157.34236
-16.217411,-164.37904
-15.769897,-161.55972
-16.244078,-166.92644
-15.318408,-156.44572
-14.583937,-151.19801
-14.72999,-160.12796
-15.621693,-163.14589
-15.687115,-159.41821
-14.795361,-161.04889
-15.839515,-152.14867
-14.423784,-161.59367
-15.410167,-152.79871
-14.413817,-163.205
-14.018853,-162.57899
-13.741543,-157.23375
-16.356628,-159.28288
-16.132608,-161.74579
-15.183502,-160.24211
-14.822421,-160.98022
-14.277572,-153.73056
-16.691536,-162.70357
-15.108615,-158.90114
-15.077007,-168.07932
-13.881454,-160.94933
-14.472043,-154.75728
-14.491822,-162.23276
-15.084242,-157.24413
-14.035605,-159.42014
-15.860878,-165.7135
-15.249153,-162.02327
-14.964515,-161.6524
-15.944113,-157.07471
-14.814531,-156.3766
-14.877814,-157.03462
-15.141896,-157.65671
-14.371841,-159.30742
-16.020487,-152.6259
-14.791095,-159.52036
-14.922434,-158.58878
-17.082375,-159.61526
-15.705742,-156.218
-15.149526,-154.12138
-15.911347,-165.43321
-15.086449,-165.17432
-14.88399,-155.80882
-14.248395,-164.39607
-14.963891,-157.32095
-14.993032,-155.19356
-14.594917,-161.06166
-15.381866,-161.77277
-14.315098,-156.008
-14.75183,-154.35097
-15.054632,-158.04184
-16.122803,-157.56268
-15.444099,-158.45297
-14.217529,-162.90953
-14.807801,-161.85231
-15.237607,-154.93114
-15.829983,-156.4861
-15.154451,-156.02052
-16.652956,-159.32416
-14.6913,-157.48795
-14.944667,-159.88394
-14.97556,-164.52205
-14.808851,-163.45309
-14.899428,-154.26468
-14.098169,-159.61926
-15.636576,-155.19466
-15.236832,-167.46362
-14.841265,-160.10725
-15.166374,-161.74974
-15.100247,-164.03638
-15.998789,-159.28418
-15.280128,-159.60129
-14.999097,-158.49492
-14.911427,-165.52327
-14.679489,-161.66501
-15.28825,-161.12511
-14.92833,-157.93195
-15.633518,-158.39331
-15.655699,-159.96559
-14.514204,-155.89415
-14.43364,-159.65839
-15.221404,-164.7267
-14.681532,-156.10599
-14.634857,-171.28023
-14.679873,-157.56854
-15.062506,-161.22313
-15.094356,-161.14931
-15.539505,-160.6982
-14.774261,-159.35307
-15.521293,-159.01482
-15.792301,-162.88821
-14.045577,-161.61281
-15.565096,-158.77641
-15.432957,-162.6577
-15.162768,-161.94821
-14.994432,-158.17354
-15.723096,-153.99039
-14.483562,-157.18828
-14.640049,-159.10912
-15.018767,-154.30228
-16.312433,-158.20113
-15.411578,-154.46291
-14.901075,-162.15775
-15.678389,-157.02556
-14.103984,-162.45013
-13.905884,-159.54286
-14.571278,-155.7946
-15.438166,-156.93837
-14.343667,-157.75356
-15.304934,-157.55794
-13.651113,-157.72673
-14.080947,-154.47414
-14.856013,-154.37444
-14.93054,-163.92229
-15.04032,-158.12064
-14.885323,-160.59174
-14.064024,-157.96376
-14.428829,-156.83386
-14.658003,-158.5808
-15.324956,-155.6748
-15.696608,-161.0562
-15.136959,-158.29004
-15.517906,-159.27098
-15.462502,-159.21107
-14.354547,-156.63222
-14.715034,-161.03455
-15.274272,-162.98627
-15.224757,-159.39008
-15.537358,-158.04382
-16.475864,-162.44794
-15.729994,-159.55939
-15.490681,-160.0049
-15.247044,-165.11366
-14.931483,-152.81165
-14.967059,-168.38596
-15.630324,-158.16605
-15.262422,-156.4082
-14.831691,-158.12794
-15.169499,-159.67917
-14.67063,-155.65443
-14.371577,-158.06265
-14.805061,-160.25403
-15.514321,-153.4411
-15.514172,-156.95091
-15.427196,-152.01065
-14.627344,-160.97711
-15.067459,-160.27654
-14.565172,-161.54221
-14.701252,-159.21408
-15.251253,-154.05173
-15.17349,-159.18921
-14.595059,-158.78685
-15.506284,-156.98647
-15.560309,-153.60559
-14.681915,-156.50941
-15.157883,-160.35295
-15.025002,-157.75557
-14.904355,-160.37251
-15.311353,-160.85922
-15.191564,-158.7354
-15.422806,-155.61887
-14.702233,-161.22377
-14.986856,-162.22188
-15.086796,-156.79671
-14.745627,-159.54785
-14.48334,-158.16969
-15.376566,-160.64995
-14.583512,-158.72856
-14.303102,-160.2179
-15.024988,-158.65773
-14.594418,-153.00262
-15.287854,-164.86765
-15.205652,-155.63641
-14.946735,-159.95284
-15.53056,-159.05397
-15.119108,-158.95393
-15.221177,-156.47057
-15.226857,-156.48431
-14.794196,-159.83011
-14.642727,-158.36446
-14.957285,-160.74028
-15.036867,-156.68486
-14.140467,-159.10513
-15.731176,-157.59334
-15.326694,-161.90871
-14.760973,-162.31252
-15.526428,-159.0054
-15.172699,-160.17586
-15.703387,-156.66235
-15.135038,-158.24457
-14.984296,-158.64006
-15.366427,-154.12085
-14.281047,-158.3737
-14.938113,-158.47638
-15.630919,-158.98302
-15.039439,-161.03491
-15.073919,-158.47513
-15.444745,-156.27017
-15.432907,-155.74135
-15.32548,-159.75998
-14.944893,-157.10805
-14.881155,-159.57745
-15.205022,-158.01396
-15.301358,-159.68138
-15.103759,-159.80301
-15.241831,-154.34698
-14.853395,-160.95778
-15.554152,-163.17836
-14.654732,-156.60045
-14.163142,-154.53276
-14.514322,-160.85075
-15.185273,-164.02057
-15.3844,-156.87247
-15.362047,-157.98705
-15.525633,-161.38097
-14.644064,-157.11543
-14.773332,-156.33046
-14.42039,-156.72923
-15.005292,-155.19162
-15.914156,-160.9854
-15.268482,-156.64532
-14.734304,-161.88458
-15.17939,-155.96504
-14.710903,-158.02675
-14.515901,-155.63321
-15.459125,-157.77289
-15.678024,-162.30963
-14.881621,-157.70003
-14.893473,-159.23097
-14.747061,-161.05986
-14.659788,-158.1179
-14.728065,-158.2113
-15.317219,-160.84396
-15.159349,-158.43169
-15.123089,-161.51334
-14.774531,-161.19363
-15.006031,-160.38345
-15.866943,-164.55841
-15.169275,-159.4959
-14.879333,-161.08212
-14.969851,-156.03813
-14.394438,-158.65765
-14.336258,-158.67734
-15.823631,-157.36786
-14.769236,-160.51826
-14.714757,-158.04669
-14.963094,-159.16501
-15.299087,-158.60306
-15.112812,-161.46075
-15.410032,-157.95839
-14.960915,-157.86606
-15.097097,-158.36209
-14.852873,-155.6617
-15.588219,-158.51929
-15.605735,-156.75497
-15.508913,-158.6134
-15.067617,-156.30841
-14.40729,-155.01659
-14.728989,-160.79832
-15.124354,-158.85854
-15.30563,-160.52153
-15.320826,-161.1768
-15.154099,-160.33453
-15.139916,-157.42989
-14.470472,-155.24348
-15.521016,-159.21977
-14.9841,-159.72868
-14.944318,-156.7001
-15.251787,-158.09908
-15.63675,-159.91875
-15.260575,-156.86275
-15.178293,-157.96501
-15.056376,-159.2373
-15.300727,-159.69432
-14.98988,-158.77905
-14.927066,-155.91698
-15.005486,-157.96327
-15.024647,-156.71271
-15.28197,-157.84305
-14.611002,-160.41415
-15.038404,-156.37714
-15.17341,-157.57138
-14.78431,-159.5276
-15.385359,-160.55522
-15.460234,-159.00063
-14.468638,-157.67177
-15.454398,-157.26088
-15.537899,-159.51094
-14.938538,-158.18413
-15.206801,-160.1537
-15.069535,-159.34445
-15.077394,-161.55328
-14.890678,-159.94469
-14.813524,-154.8886
-14.954026,-157.62872
-15.067126,-157.26903
-14.650547,-155.50511
-14.922427,-159.84595
-15.626622,-158.18506
-14.886704,-160.26131
-14.383072,-157.64883
-14.818732,-156.63458
-15.591715,-159.1266
-14.96501,-157.23123
-14.861928,-155.47266
-14.61651,-156.8891
-15.170642,-160.97626
-14.732368,-159.78607
-14.742761,-160.84471
-15.17171,-161.4559
-14.920845,-161.29263
-14.902019,-158.01028
-14.634486,-160.58102
-15.03746,-157.33876
-14.82522,-160.58522
-14.447276,-159.12357
-15.517041,-160.46193
-15.049261,-159.33444
-15.107201,-157.94653
-15.133894,-159.56775
-15.336803,-159.54256
-14.637565,-157.54506
-14.444777,-158.36485
-15.024529,-153.89519
-14.91681,-156.33394
-15.022244,-159.68945
-15.385194,-160.35605
-15.358515,-160.08821
-14.805535,-158.58994
-14.887773,-157.26019
-14.927195,-159.60062
-14.932927,-155.2722
-15.565207,-158.60371
-14.791599,-157.82161
-15.346793,-157.33109
-15.058323,-159.44484
-14.951791,-163.99271
-14.764042,-157.96011
-15.605514,-159.34854
-14.980267,-162.66995
-15.015577,-157.0285
-15.262205,-156.74294
-14.91536,-159.07179
-15.143661,-159.19449
-14.757873,-157.09894
-14.705877,-159.80855
-15.345564,-162.84782
-14.631565,-156.9857
-15.020497,-158.1488
-15.225092,-160.36649
-14.945975,-159.80952
-15.0465,-158.56949
-14.859079,-156.26094
-15.263083,-155.75157
-14.716239,-156.73978
-14.90704,-159.20589
-14.884552,-159.23709
-14.90713,-159.13806
-14.815412,-160.60332
-15.287161,-157.48001
-14.814526,-159.15541
-14.596472,-157.2489
-15.202572,-156.9614
-14.976778,-158.63872
-14.665914,-157.40382
-14.969526,-161.75536
-14.784398,-161.10548
-14.961455,-158.8912
-14.903211,-156.41653
-15.098317,-160.04948
-15.13333,-157.302
-15.227515,-160.18433
-14.560108,-159.51532
-14.954329,-158.90482
-14.907239,-160.37778
-15.177126,-159.58435
-15.349188,-160.17934
-15.119431,-156.38596
-14.716505,-160.26871
-15.051919,-158.21439
-14.952116,-160.41852
-15.130698,-157.8689
-15.217929,-158.34337
-15.4333,-156.22685
-14.828093,-158.2569
-14.762484,-158.91202
-14.990609,-160.04031
-14.820245,-159.29179
-15.142219,-157.67661
-14.64378,-158.90826
-14.908916,-162.27078
-14.700901,-161.52991
-14.903192,-158.71138
-15.285942,-160.1331
-15.19693,-159.83887
-15.060058,-160.64241
-15.017248,-159.65884
-15.21175,-157.64415
-14.957224,-159.47842
-14.854788,-160.55804
-14.9855,-159.50916
-15.042776,-156.09406
-15.351123,-159.65041
-14.678803,-159.23653
-15.441673,-156.68671
-14.975582,-159.69328
-14.839654,-158.28349
-14.498536,-159.11879
-14.952394,-160.11011
-15.27868,-161.11922
-15.245264,-158.84962
-14.873767,-157.94513
-15.342415,-162.90645
-14.997381,-159.12685
-15.47403,-159.36772
-14.866325,-158.15247
-14.871245,-158.80469
-15.125928,-157.56381
-14.789295,-161.47238
-14.862182,-161.79793
-15.272657,-159.66719
-15.216623,-156.69014
-14.726507,-158.42412
-14.928247,-159.34529
-14.960361,-159.39325
-14.940557,-157.89992
-15.047729,-160.39781
-14.728753,-160.36096
-14.973489,-159.16545
-14.953698,-159.04855
-15.278064,-159.55493
-15.327572,-158.90268
-15.537288,-156.63629
-15.127618,-157.44241
-14.968576,-157.24263
-15.088908,-155.98917
-15.264548,-162.95398
-14.617312,-157.40483
-14.739114,-160.68887
-14.848703,-156.19446
-15.248144,-157.13112
-14.747372,-160.02316
-15.192311,-158.02448
-15.119827,-159.7867
-15.067627,-158.59654
-14.819399,-158.47401
-15.114794,-159.89024
-14.71553,-156.30292
-14.860826,-158.88725
-14.726359,-159.98058
-14.713498,-158.39793
-14.889589,-159.87869
-15.206417,-158.13615
-15.056238,-158.239
-15.004656,-159.1667
-14.738923,-158.24678
-14.999673,-159.06569
-15.078198,-157.21275
-14.876384,-160.43416
-15.078307,-157.3553
-14.855285,-157.8837
-15.030605,-156.12733
-14.909257,-159.22128
-15.304272,-157.63866
-15.11095,-158.36093
-15.117812,-158.13539
-15.37378,-158.1595
-15.17832,-159.62039
-14.893154,-157.35596
-14.977361,-159.65314
-14.970219,-160.80484
-15.108798,-158.63393
-14.74516,-157.57416
-14.9542,-160.65547
-14.918151,-160.35748
-14.964015,-161.4045
-15.100297,-160.55797
-14.812577,-157.93779
-15.206891,-160.19057
-15.054007,-157.59544
-15.079268,-158.47774
-14.926754,-157.43163
-15.021584,-159.12271
-15.168649,-159.18802
-14.821864,-157.59315
-15.144287,-159.00623
-15.238792,-159.2635
