CITIFILE A.01.01
!Agilent Technologies,N5230C,MY48100142,A.08.04.10
!Agilent N5230C: A.08.04.10
!Format: LogMag/Angle
!Date: Wednesday, February 19, 2020 18:55:53
NAME CH1_DATA
VAR Power MAG 801
DATA S11 DBANGLE
DATA S21 DBANGLE
DATA S12 DBANGLE
DATA S22 DBANGLE
VAR_LIST_BEGIN
-40
-39.975
-39.95
-39.925
-39.9
-39.875
-39.85
-39.825
-39.8
-39.775
-39.75
-39.725
-39.7
-39.675
-39.65
-39.625
-39.6
-39.575
-39.55
-39.525
-39.5
-39.475
-39.45
-39.425
-39.4
-39.375
-39.35
-39.325
-39.3
-39.275
-39.25
-39.225
-39.2
-39.175
-39.15
-39.125
-39.1
-39.075
-39.05
-39.025
-39
-38.975
-38.95
-38.925
-38.9
-38.875
-38.85
-38.825
-38.8
-38.775
-38.75
-38.725
-38.7
-38.675
-38.65
-38.625
-38.6
-38.575
-38.55
-38.525
-38.5
-38.475
-38.45
-38.425
-38.4
-38.375
-38.35
-38.325
-38.3
-38.275
-38.25
-38.225
-38.2
-38.175
-38.15
-38.125
-38.1
-38.075
-38.05
-38.025
-38
-37.975
-37.95
-37.925
-37.9
-37.875
-37.85
-37.825
-37.8
-37.775
-37.75
-37.725
-37.7
-37.675
-37.65
-37.625
-37.6
-37.575
-37.55
-37.525
-37.5
-37.475
-37.45
-37.425
-37.4
-37.375
-37.35
-37.325
-37.3
-37.275
-37.25
-37.225
-37.2
-37.175
-37.15
-37.125
-37.1
-37.075
-37.05
-37.025
-37
-36.975
-36.95
-36.925
-36.9
-36.875
-36.85
-36.825
-36.8
-36.775
-36.75
-36.725
-36.7
-36.675
-36.65
-36.625
-36.6
-36.575
-36.55
-36.525
-36.5
-36.475
-36.45
-36.425
-36.4
-36.375
-36.35
-36.325
-36.3
-36.275
-36.25
-36.225
-36.2
-36.175
-36.15
-36.125
-36.1
-36.075
-36.05
-36.025
-36
-35.975
-35.95
-35.925
-35.9
-35.875
-35.85
-35.825
-35.8
-35.775
-35.75
-35.725
-35.7
-35.675
-35.65
-35.625
-35.6
-35.575
-35.55
-35.525
-35.5
-35.475
-35.45
-35.425
-35.4
-35.375
-35.35
-35.325
-35.3
-35.275
-35.25
-35.225
-35.2
-35.175
-35.15
-35.125
-35.1
-35.075
-35.05
-35.025
-35
-34.975
-34.95
-34.925
-34.9
-34.875
-34.85
-34.825
-34.8
-34.775
-34.75
-34.725
-34.7
-34.675
-34.65
-34.625
-34.6
-34.575
-34.55
-34.525
-34.5
-34.475
-34.45
-34.425
-34.4
-34.375
-34.35
-34.325
-34.3
-34.275
-34.25
-34.225
-34.2
-34.175
-34.15
-34.125
-34.1
-34.075
-34.05
-34.025
-34
-33.975
-33.95
-33.925
-33.9
-33.875
-33.85
-33.825
-33.8
-33.775
-33.75
-33.725
-33.7
-33.675
-33.65
-33.625
-33.6
-33.575
-33.55
-33.525
-33.5
-33.475
-33.45
-33.425
-33.4
-33.375
-33.35
-33.325
-33.3
-33.275
-33.25
-33.225
-33.2
-33.175
-33.15
-33.125
-33.1
-33.075
-33.05
-33.025
-33
-32.975
-32.95
-32.925
-32.9
-32.875
-32.85
-32.825
-32.8
-32.775
-32.75
-32.725
-32.7
-32.675
-32.65
-32.625
-32.6
-32.575
-32.55
-32.525
-32.5
-32.475
-32.45
-32.425
-32.4
-32.375
-32.35
-32.325
-32.3
-32.275
-32.25
-32.225
-32.2
-32.175
-32.15
-32.125
-32.1
-32.075
-32.05
-32.025
-32
-31.975
-31.95
-31.925
-31.9
-31.875
-31.85
-31.825
-31.8
-31.775
-31.75
-31.725
-31.7
-31.675
-31.65
-31.625
-31.6
-31.575
-31.55
-31.525
-31.5
-31.475
-31.45
-31.425
-31.4
-31.375
-31.35
-31.325
-31.3
-31.275
-31.25
-31.225
-31.2
-31.175
-31.15
-31.125
-31.1
-31.075
-31.05
-31.025
-31
-30.975
-30.95
-30.925
-30.9
-30.875
-30.85
-30.825
-30.8
-30.775
-30.75
-30.725
-30.7
-30.675
-30.65
-30.625
-30.6
-30.575
-30.55
-30.525
-30.5
-30.475
-30.45
-30.425
-30.4
-30.375
-30.35
-30.325
-30.3
-30.275
-30.25
-30.225
-30.2
-30.175
-30.15
-30.125
-30.1
-30.075
-30.05
-30.025
-30
-29.975
-29.95
-29.925
-29.9
-29.875
-29.85
-29.825
-29.8
-29.775
-29.75
-29.725
-29.7
-29.675
-29.65
-29.625
-29.6
-29.575
-29.55
-29.525
-29.5
-29.475
-29.45
-29.425
-29.4
-29.375
-29.35
-29.325
-29.3
-29.275
-29.25
-29.225
-29.2
-29.175
-29.15
-29.125
-29.1
-29.075
-29.05
-29.025
-29
-28.975
-28.95
-28.925
-28.9
-28.875
-28.85
-28.825
-28.8
-28.775
-28.75
-28.725
-28.7
-28.675
-28.65
-28.625
-28.6
-28.575
-28.55
-28.525
-28.5
-28.475
-28.45
-28.425
-28.4
-28.375
-28.35
-28.325
-28.3
-28.275
-28.25
-28.225
-28.2
-28.175
-28.15
-28.125
-28.1
-28.075
-28.05
-28.025
-28
-27.975
-27.95
-27.925
-27.9
-27.875
-27.85
-27.825
-27.8
-27.775
-27.75
-27.725
-27.7
-27.675
-27.65
-27.625
-27.6
-27.575
-27.55
-27.525
-27.5
-27.475
-27.45
-27.425
-27.4
-27.375
-27.35
-27.325
-27.3
-27.275
-27.25
-27.225
-27.2
-27.175
-27.15
-27.125
-27.1
-27.075
-27.05
-27.025
-27
-26.975
-26.95
-26.925
-26.9
-26.875
-26.85
-26.825
-26.8
-26.775
-26.75
-26.725
-26.7
-26.675
-26.65
-26.625
-26.6
-26.575
-26.55
-26.525
-26.5
-26.475
-26.45
-26.425
-26.4
-26.375
-26.35
-26.325
-26.3
-26.275
-26.25
-26.225
-26.2
-26.175
-26.15
-26.125
-26.1
-26.075
-26.05
-26.025
-26
-25.975
-25.95
-25.925
-25.9
-25.875
-25.85
-25.825
-25.8
-25.775
-25.75
-25.725
-25.7
-25.675
-25.65
-25.625
-25.6
-25.575
-25.55
-25.525
-25.5
-25.475
-25.45
-25.425
-25.4
-25.375
-25.35
-25.325
-25.3
-25.275
-25.25
-25.225
-25.2
-25.175
-25.15
-25.125
-25.1
-25.075
-25.05
-25.025
-25
-24.975
-24.95
-24.925
-24.9
-24.875
-24.85
-24.825
-24.8
-24.775
-24.75
-24.725
-24.7
-24.675
-24.65
-24.625
-24.6
-24.575
-24.55
-24.525
-24.5
-24.475
-24.45
-24.425
-24.4
-24.375
-24.35
-24.325
-24.3
-24.275
-24.25
-24.225
-24.2
-24.175
-24.15
-24.125
-24.1
-24.075
-24.05
-24.025
-24
-23.975
-23.95
-23.925
-23.9
-23.875
-23.85
-23.825
-23.8
-23.775
-23.75
-23.725
-23.7
-23.675
-23.65
-23.625
-23.6
-23.575
-23.55
-23.525
-23.5
-23.475
-23.45
-23.425
-23.4
-23.375
-23.35
-23.325
-23.3
-23.275
-23.25
-23.225
-23.2
-23.175
-23.15
-23.125
-23.1
-23.075
-23.05
-23.025
-23
-22.975
-22.95
-22.925
-22.9
-22.875
-22.85
-22.825
-22.8
-22.775
-22.75
-22.725
-22.7
-22.675
-22.65
-22.625
-22.6
-22.575
-22.55
-22.525
-22.5
-22.475
-22.45
-22.425
-22.4
-22.375
-22.35
-22.325
-22.3
-22.275
-22.25
-22.225
-22.2
-22.175
-22.15
-22.125
-22.1
-22.075
-22.05
-22.025
-22
-21.975
-21.95
-21.925
-21.9
-21.875
-21.85
-21.825
-21.8
-21.775
-21.75
-21.725
-21.7
-21.675
-21.65
-21.625
-21.6
-21.575
-21.55
-21.525
-21.5
-21.475
-21.45
-21.425
-21.4
-21.375
-21.35
-21.325
-21.3
-21.275
-21.25
-21.225
-21.2
-21.175
-21.15
-21.125
-21.1
-21.075
-21.05
-21.025
-21
-20.975
-20.95
-20.925
-20.9
-20.875
-20.85
-20.825
-20.8
-20.775
-20.75
-20.725
-20.7
-20.675
-20.65
-20.625
-20.6
-20.575
-20.55
-20.525
-20.5
-20.475
-20.45
-20.425
-20.4
-20.375
-20.35
-20.325
-20.3
-20.275
-20.25
-20.225
-20.2
-20.175
-20.15
-20.125
-20.1
-20.075
-20.05
-20.025
-20
VAR_LIST_END
BEGIN
-13.319113,-159.40733
-15.590284,-160.09952
-16.43792,-159.67799
-14.64866,-165.14624
-15.70417,-160.04445
-17.119125,-155.51779
-14.928915,-161.55072
-16.239,-158.16797
-15.292484,-155.43707
-14.978749,-154.76764
-14.417015,-156.90057
-14.155397,-151.64108
-14.359121,-162.07518
-15.857709,-155.93832
-15.003249,-171.04326
-15.388699,-156.2256
-15.505177,-161.61198
-14.396216,-163.06537
-14.208351,-165.08339
-15.29276,-156.90392
-14.71485,-166.67926
-15.366897,-157.91441
-15.009631,-159.9949
-14.825351,-161.04318
-14.871904,-157.14951
-15.425138,-164.72449
-15.154728,-153.08676
-15.54564,-163.71471
-15.469652,-161.35669
-15.020365,-165.6562
-14.579399,-161.82663
-15.614089,-159.86093
-14.496364,-154.79486
-16.461773,-156.68298
-15.143695,-160.11089
-15.164863,-163.37544
-14.968981,-159.5687
-16.082409,-163.33263
-15.906045,-164.1198
-15.447671,-161.97688
-14.802452,-162.93591
-15.663149,-160.20172
-14.605345,-158.4548
-15.536674,-150.96686
-15.570282,-155.9653
-16.355223,-159.79454
-14.504343,-159.5892
-15.10817,-150.50365
-14.608484,-159.94214
-14.706882,-158.11359
-14.581599,-159.4288
-15.071889,-158.23067
-15.989003,-156.69128
-15.22973,-164.71574
-16.069525,-161.7618
-14.975787,-150.89307
-13.86726,-160.66705
-14.333889,-156.39059
-14.094796,-157.19911
-14.59762,-160.05356
-15.344303,-156.68491
-15.395324,-159.72305
-15.314152,-157.45897
-14.160033,-162.62558
-15.94826,-156.64322
-14.505892,-156.84828
-15.655283,-158.56335
-14.581125,-157.02856
-15.191955,-157.75089
-15.264335,-159.95584
-14.900249,-167.59587
-15.145416,-159.56325
-14.808044,-162.23442
-15.488604,-167.9202
-14.910742,-156.99532
-15.567772,-163.04607
-14.589199,-158.85417
-15.344176,-167.33098
-15.504953,-158.22252
-14.870085,-157.57993
-15.678052,-158.15331
-15.611044,-159.84212
-15.021756,-158.87778
-14.474428,-161.16925
-15.377034,-165.12146
-14.549212,-161.3559
-14.954596,-161.25484
-14.79225,-162.7084
-15.613362,-159.81631
-15.022359,-162.31349
-15.613009,-159.5777
-15.284971,-157.76196
-15.364621,-159.15273
-14.875503,-159.07724
-14.587334,-162.48872
-15.306756,-165.75476
-14.318826,-159.75395
-15.616749,-160.87885
-15.674676,-159.62106
-15.093326,-162.33354
-15.514476,-163.39618
-15.271102,-155.6629
-14.966399,-163.68301
-14.464745,-159.09799
-14.996298,-163.72006
-16.801157,-157.21318
-15.406922,-155.57848
-14.942067,-161.21182
-14.843657,-162.78978
-14.769095,-168.85536
-15.113069,-160.9558
-16.081915,-160.59845
-14.971572,-168.06488
-15.610898,-159.36223
-15.027064,-157.96364
-15.22769,-163.19092
-13.959424,-158.92909
-14.960045,-159.91139
-14.030331,-161.05049
-15.621483,-165.41559
-15.008504,-162.69337
-14.83921,-164.31087
-15.89426,-156.53368
-14.657409,-167.44897
-14.942796,-162.05357
-14.579856,-159.92976
-15.780627,-161.39059
-14.684218,-161.25359
-15.722328,-160.63187
-14.968599,-159.42978
-15.130388,-163.85277
-15.197353,-160.28441
-15.11926,-158.69405
-15.809618,-159.88632
-15.288485,-161.29547
-15.65428,-159.75941
-15.34956,-159.75674
-15.625876,-163.62219
-14.123631,-165.52214
-14.824812,-156.12529
-14.575191,-156.94038
-15.152476,-164.28862
-14.445501,-161.65623
-14.874983,-159.73752
-14.448847,-160.55396
-15.117378,-157.54988
-14.69304,-152.34946
-15.339543,-158.16251
-15.375198,-159.27042
-14.709082,-160.29721
-14.99521,-162.10504
-15.690142,-157.55856
-15.028032,-157.36781
-14.996962,-158.26941
-15.714009,-157.69989
-15.370711,-163.07147
-14.735429,-159.01036
-15.293915,-164.37424
-15.283643,-163.56581
-15.57785,-162.10939
-14.673986,-159.5817
-15.077404,-158.83983
-15.265496,-162.93469
-14.82251,-162.63332
-15.276987,-158.66205
-14.477216,-162.21712
-15.247569,-161.25891
-14.686248,-159.92821
-14.70049,-160.54054
-15.311089,-158.82243
-14.801979,-157.38193
-15.273611,-164.55193
-15.679597,-158.36893
-15.81747,-158.35603
-15.668363,-160.34164
-15.302726,-162.63487
-14.754351,-158.57445
-14.921132,-163.94859
-14.878322,-158.20827
-14.721713,-159.65189
-14.598058,-160.18658
-15.569258,-157.38673
-15.137702,-160.24173
-15.424557,-159.42046
-14.94015,-162.30722
-14.444167,-160.51862
-14.830672,-159.9493
-14.936528,-155.98193
-15.100666,-163.07327
-14.909001,-161.0827
-14.858079,-161.58302
-15.836413,-158.2626
-14.905524,-158.29663
-13.940296,-160.58783
-15.308096,-157.88724
-15.118981,-156.51468
-15.317876,-159.67921
-15.010678,-165.12163
-15.002268,-161.20984
-15.213283,-158.36685
-15.703908,-164.87628
-15.569024,-164.23238
-15.419624,-160.46658
-14.730627,-158.85918
-15.280238,-163.30093
-15.255054,-159.75131
-15.599745,-160.15823
-15.25161,-161.14499
-14.931948,-165.30603
-15.138133,-160.65973
-14.814,-157.63741
-14.690904,-158.04306
-15.72296,-165.02293
-15.580082,-161.82358
-15.079012,-157.92897
-15.015903,-159.62769
-15.26996,-158.07448
-14.90822,-161.76439
-15.409887,-160.70528
-14.935884,-158.4319
-15.546791,-160.42203
-14.899498,-155.4325
-15.141359,-161.19003
-14.985403,-156.01698
-14.927947,-160.70039
-14.818184,-162.10434
-14.820514,-158.8716
-14.957579,-156.66898
-15.189004,-159.12163
-15.388885,-163.44775
-14.700641,-163.69818
-14.14369,-163.66565
-15.185567,-158.35249
-15.107442,-156.37553
-14.801439,-162.28166
-15.64763,-155.80301
-14.307364,-162.78366
-14.991281,-165.89275
-14.680631,-159.72258
-14.475109,-158.56972
-14.594934,-160.59283
-16.023314,-161.17487
-15.849348,-159.26666
-14.902943,-158.84871
-15.170172,-160.34758
-15.711513,-160.4006
-15.359871,-161.85625
-14.8048,-160.55902
-14.920561,-159.73653
-14.354314,-161.27335
-14.701945,-159.19926
-15.109697,-161.46864
-15.399373,-162.42148
-15.013297,-162.55492
-15.148915,-158.6264
-14.994762,-162.98955
-14.480754,-161.30278
-14.588401,-158.8064
-14.89937,-158.07545
-15.628321,-162.29425
-14.84026,-163.25317
-14.808281,-162.21017
-14.768989,-163.11852
-15.023984,-159.67084
-15.221301,-155.74356
-15.393675,-159.73599
-15.45929,-159.75053
-14.876879,-158.89383
-15.189562,-160.78737
-15.493526,-165.51025
-14.764872,-159.58078
-14.548156,-160.13857
-15.169431,-163.86853
-15.108306,-160.99234
-14.267315,-160.25302
-15.521461,-159.4091
-15.221856,-158.77893
-14.953362,-159.97569
-14.676613,-158.64357
-15.505035,-162.90576
-15.501306,-158.14491
-15.110817,-156.08392
-14.91358,-160.18497
-14.686361,-160.5118
-14.806471,-164.37196
-14.736763,-163.44919
-15.699125,-158.24248
-14.736764,-161.40651
-15.070899,-161.64362
-15.154991,-162.04236
-15.248665,-161.45763
-15.408468,-160.43736
-15.059535,-160.50771
-14.667326,-159.82579
-14.974793,-161.96346
-14.892886,-161.63083
-15.046513,-159.57825
-15.317595,-160.51781
-15.031465,-158.67468
-15.388056,-156.61757
-15.175703,-159.57811
-15.505253,-160.18658
-15.379639,-159.68422
-15.100362,-157.74522
-15.618212,-161.62321
-15.617461,-160.59988
-14.994961,-160.5067
-14.970547,-159.87282
-14.40226,-158.87061
-14.884375,-157.79662
-14.804712,-159.67574
-14.314348,-162.45265
-15.35459,-157.23676
-14.817492,-161.62434
-14.700156,-162.28096
-15.409108,-161.07176
-14.970925,-160.33112
-14.976027,-160.97313
-15.030984,-162.12604
-15.081274,-161.20744
-15.498828,-157.70016
-14.727589,-159.91776
-15.278426,-161.16541
-15.034179,-162.75734
-15.247428,-160.43198
-15.143774,-159.48636
-15.562998,-161.29178
-15.372564,-157.97809
-15.189069,-164.37857
-15.154146,-161.7982
-15.126374,-158.5575
-14.997676,-159.4418
-14.953863,-157.93912
-14.811945,-159.50427
-15.250532,-161.60313
-14.830853,-163.27591
-14.87236,-162.01315
-15.763594,-160.63298
-15.038054,-161.22577
-15.170102,-160.65091
-15.181005,-162.91707
-15.514627,-160.72301
-15.063257,-161.67151
-15.427679,-162.1075
-14.746572,-160.1942
-15.23879,-163.09546
-14.804618,-161.48418
-14.88063,-159.62059
-15.345335,-161.46373
-14.597902,-163.15582
-15.179787,-158.79517
-15.628648,-161.54602
-15.215809,-160.56042
-15.149686,-162.23592
-14.902201,-161.04497
-15.153332,-160.75134
-15.233342,-161.117
-14.990377,-160.00551
-15.149773,-160.94792
-15.571769,-159.31369
-14.943377,-163.95074
-14.933122,-160.19052
-15.128899,-159.77951
-14.806841,-162.54338
-15.131767,-158.00581
-15.106634,-163.50438
-15.28833,-159.81339
-15.115494,-162.44475
-15.265373,-160.83299
-15.026474,-159.23448
-14.834715,-158.66368
-15.058175,-159.55835
-14.7693,-160.76268
-15.063729,-160.82761
-15.095093,-158.79237
-14.825155,-163.38472
-14.697643,-161.71225
-14.890438,-160.79776
-14.609468,-157.6042
-15.095903,-161.50638
-15.280872,-159.89
-15.090291,-162.33109
-14.496655,-161.37178
-15.303094,-158.75743
-15.064021,-159.9214
-14.893774,-159.79538
-15.200294,-159.75475
-15.031661,-161.72005
-15.359074,-163.12216
-15.16884,-160.77084
-14.832016,-159.35817
-15.023294,-160.18965
-15.077083,-160.25822
-14.979816,-159.29703
-15.173769,-160.74525
-15.366309,-159.12547
-15.416964,-161.24933
-15.25078,-161.27904
-15.063652,-159.92383
-14.900772,-161.52368
-15.145233,-161.37047
-15.591412,-158.43025
-15.091919,-161.26711
-14.968625,-158.89584
-15.08038,-161.33211
-15.053521,-159.29543
-15.109568,-159.55139
-14.895986,-159.09894
-14.961588,-160.17412
-15.205673,-160.73058
-15.227246,-159.81644
-15.277307,-160.47392
-15.072317,-159.56091
-14.665593,-159.6349
-15.434323,-159.7001
-14.746013,-159.28342
-14.845827,-160.311
-15.387946,-159.04102
-15.293246,-161.80295
-15.250632,-159.60951
-15.365068,-159.41791
-14.922245,-162.16595
-15.121168,-160.44597
-15.138512,-160.20399
-15.000401,-161.68034
-14.936729,-162.30586
-15.117629,-160.89467
-14.870032,-158.30347
-15.290514,-160.36273
-15.099212,-161.33379
-15.19141,-157.51274
-14.984366,-164.05171
-15.078047,-162.82335
-14.812117,-160.68846
-14.8642,-160.34756
-15.173637,-161.53664
-15.103289,-160.31894
-14.781926,-160.16409
-14.870134,-160.52165
-15.223103,-161.09549
-15.087493,-158.31447
-15.034825,-159.00366
-15.169826,-161.23596
-15.366826,-160.30109
-15.024683,-160.87817
-15.241673,-162.00729
-15.143258,-160.06265
-15.033825,-161.60049
-15.323323,-160.51923
-15.084027,-159.56238
-15.269504,-162.19637
-15.056618,-159.79361
-15.119884,-160.70175
-15.076643,-160.04108
-14.881875,-161.34044
-15.34964,-160.16075
-15.018497,-162.09604
-15.025768,-160.19162
-15.156684,-161.54973
-15.243759,-158.92973
-15.138689,-163.06514
-15.065083,-160.75719
-14.65004,-160.00591
-14.903821,-161.67155
-15.177741,-158.86061
-14.849046,-161.18489
-15.259602,-160.63785
-14.795395,-161.05403
-14.977449,-159.22981
-14.989607,-160.95282
-15.205334,-162.4501
-15.149763,-162.91678
-15.091923,-159.2066
-15.051955,-162.40224
-14.859633,-162.52168
-15.432069,-162.82092
-15.274841,-158.30916
-15.453338,-158.85262
-15.063687,-158.62463
-14.872174,-158.78664
-15.2324,-159.73103
-14.66891,-160.79982
-14.966131,-161.56265
-15.15102,-159.01781
-15.108793,-158.84105
-15.077498,-161.41322
-14.89956,-160.5986
-15.418218,-159.95244
-15.018874,-161.1763
-14.895594,-161.48312
-15.12012,-161.7399
-15.219195,-160.89709
-15.124527,-162.39742
-15.38636,-159.30177
-14.908325,-156.87469
-15.107205,-160.07898
-15.333601,-159.70937
-15.582266,-159.30125
-14.868545,-160.10025
-15.297723,-160.47194
-15.185201,-159.99095
-14.926384,-161.62675
-15.095764,-158.40768
-15.156254,-159.57596
-15.065464,-163.103
-15.168231,-160.26736
-14.963694,-160.15216
-15.247704,-163.07861
-15.193343,-160.52013
-14.901567,-160.07054
-14.725795,-162.03383
-14.845245,-159.84373
-15.056603,-159.79836
-15.095636,-159.83072
-15.081526,-160.32726
-15.035225,-159.44562
-15.034739,-160.77704
-15.415053,-160.02461
-15.181048,-160.95714
-14.937846,-161.77136
-15.21712,-159.83148
-14.9802,-160.79388
-14.961577,-162.08406
-15.113564,-160.53557
-14.968637,-160.59456
-15.164977,-158.25815
-15.078239,-161.03227
-14.959891,-160.19785
-15.199631,-160.53801
-15.016767,-159.35141
-15.08795,-158.7301
-15.152496,-159.7636
-14.965487,-160.94273
-15.353662,-160.21927
-15.279017,-161.49278
-15.056493,-160.68622
-15.201857,-160.03731
-14.75598,-160.2964
-15.204834,-160.57761
-15.093936,-159.77885
-15.155817,-160.82549
-15.158043,-159.93556
-15.066539,-161.34688
-15.235562,-160.21312
-14.868347,-161.51022
-15.238039,-159.47963
-14.91709,-160.05434
-15.172912,-160.489
-15.160362,-159.1893
-15.046561,-161.90079
-15.067957,-158.27219
-15.186576,-161.06975
-14.804796,-159.41562
-15.159728,-160.64752
-15.043004,-161.59241
-15.144805,-160.16304
-14.975511,-160.77077
-15.194965,-160.57881
-14.909645,-161.5237
-15.465868,-161.97131
-15.079442,-161.14835
-15.356125,-161.68805
-15.184611,-159.45534
-15.096356,-159.72234
-15.125005,-160.00963
-15.216089,-157.85895
-15.282701,-159.85077
-14.862057,-159.98384
-15.243818,-158.12402
-15.292242,-163.42247
-15.123714,-159.5294
-15.035326,-161.29836
-15.010988,-160.85562
-15.161036,-160.70671
-15.113025,-159.7041
-14.938664,-159.88731
