CITIFILE A.01.01
!Agilent Technologies,N5230C,MY48100142,A.08.04.10
!Agilent N5230C: A.08.04.10
!Format: LogMag/Angle
!Date: Wednesday, February 19, 2020 18:54:08
NAME CH1_DATA
VAR Power MAG 801
DATA S11 DBANGLE
DATA S21 DBANGLE
DATA S12 DBANGLE
DATA S22 DBANGLE
VAR_LIST_BEGIN
-40
-39.975
-39.95
-39.925
-39.9
-39.875
-39.85
-39.825
-39.8
-39.775
-39.75
-39.725
-39.7
-39.675
-39.65
-39.625
-39.6
-39.575
-39.55
-39.525
-39.5
-39.475
-39.45
-39.425
-39.4
-39.375
-39.35
-39.325
-39.3
-39.275
-39.25
-39.225
-39.2
-39.175
-39.15
-39.125
-39.1
-39.075
-39.05
-39.025
-39
-38.975
-38.95
-38.925
-38.9
-38.875
-38.85
-38.825
-38.8
-38.775
-38.75
-38.725
-38.7
-38.675
-38.65
-38.625
-38.6
-38.575
-38.55
-38.525
-38.5
-38.475
-38.45
-38.425
-38.4
-38.375
-38.35
-38.325
-38.3
-38.275
-38.25
-38.225
-38.2
-38.175
-38.15
-38.125
-38.1
-38.075
-38.05
-38.025
-38
-37.975
-37.95
-37.925
-37.9
-37.875
-37.85
-37.825
-37.8
-37.775
-37.75
-37.725
-37.7
-37.675
-37.65
-37.625
-37.6
-37.575
-37.55
-37.525
-37.5
-37.475
-37.45
-37.425
-37.4
-37.375
-37.35
-37.325
-37.3
-37.275
-37.25
-37.225
-37.2
-37.175
-37.15
-37.125
-37.1
-37.075
-37.05
-37.025
-37
-36.975
-36.95
-36.925
-36.9
-36.875
-36.85
-36.825
-36.8
-36.775
-36.75
-36.725
-36.7
-36.675
-36.65
-36.625
-36.6
-36.575
-36.55
-36.525
-36.5
-36.475
-36.45
-36.425
-36.4
-36.375
-36.35
-36.325
-36.3
-36.275
-36.25
-36.225
-36.2
-36.175
-36.15
-36.125
-36.1
-36.075
-36.05
-36.025
-36
-35.975
-35.95
-35.925
-35.9
-35.875
-35.85
-35.825
-35.8
-35.775
-35.75
-35.725
-35.7
-35.675
-35.65
-35.625
-35.6
-35.575
-35.55
-35.525
-35.5
-35.475
-35.45
-35.425
-35.4
-35.375
-35.35
-35.325
-35.3
-35.275
-35.25
-35.225
-35.2
-35.175
-35.15
-35.125
-35.1
-35.075
-35.05
-35.025
-35
-34.975
-34.95
-34.925
-34.9
-34.875
-34.85
-34.825
-34.8
-34.775
-34.75
-34.725
-34.7
-34.675
-34.65
-34.625
-34.6
-34.575
-34.55
-34.525
-34.5
-34.475
-34.45
-34.425
-34.4
-34.375
-34.35
-34.325
-34.3
-34.275
-34.25
-34.225
-34.2
-34.175
-34.15
-34.125
-34.1
-34.075
-34.05
-34.025
-34
-33.975
-33.95
-33.925
-33.9
-33.875
-33.85
-33.825
-33.8
-33.775
-33.75
-33.725
-33.7
-33.675
-33.65
-33.625
-33.6
-33.575
-33.55
-33.525
-33.5
-33.475
-33.45
-33.425
-33.4
-33.375
-33.35
-33.325
-33.3
-33.275
-33.25
-33.225
-33.2
-33.175
-33.15
-33.125
-33.1
-33.075
-33.05
-33.025
-33
-32.975
-32.95
-32.925
-32.9
-32.875
-32.85
-32.825
-32.8
-32.775
-32.75
-32.725
-32.7
-32.675
-32.65
-32.625
-32.6
-32.575
-32.55
-32.525
-32.5
-32.475
-32.45
-32.425
-32.4
-32.375
-32.35
-32.325
-32.3
-32.275
-32.25
-32.225
-32.2
-32.175
-32.15
-32.125
-32.1
-32.075
-32.05
-32.025
-32
-31.975
-31.95
-31.925
-31.9
-31.875
-31.85
-31.825
-31.8
-31.775
-31.75
-31.725
-31.7
-31.675
-31.65
-31.625
-31.6
-31.575
-31.55
-31.525
-31.5
-31.475
-31.45
-31.425
-31.4
-31.375
-31.35
-31.325
-31.3
-31.275
-31.25
-31.225
-31.2
-31.175
-31.15
-31.125
-31.1
-31.075
-31.05
-31.025
-31
-30.975
-30.95
-30.925
-30.9
-30.875
-30.85
-30.825
-30.8
-30.775
-30.75
-30.725
-30.7
-30.675
-30.65
-30.625
-30.6
-30.575
-30.55
-30.525
-30.5
-30.475
-30.45
-30.425
-30.4
-30.375
-30.35
-30.325
-30.3
-30.275
-30.25
-30.225
-30.2
-30.175
-30.15
-30.125
-30.1
-30.075
-30.05
-30.025
-30
-29.975
-29.95
-29.925
-29.9
-29.875
-29.85
-29.825
-29.8
-29.775
-29.75
-29.725
-29.7
-29.675
-29.65
-29.625
-29.6
-29.575
-29.55
-29.525
-29.5
-29.475
-29.45
-29.425
-29.4
-29.375
-29.35
-29.325
-29.3
-29.275
-29.25
-29.225
-29.2
-29.175
-29.15
-29.125
-29.1
-29.075
-29.05
-29.025
-29
-28.975
-28.95
-28.925
-28.9
-28.875
-28.85
-28.825
-28.8
-28.775
-28.75
-28.725
-28.7
-28.675
-28.65
-28.625
-28.6
-28.575
-28.55
-28.525
-28.5
-28.475
-28.45
-28.425
-28.4
-28.375
-28.35
-28.325
-28.3
-28.275
-28.25
-28.225
-28.2
-28.175
-28.15
-28.125
-28.1
-28.075
-28.05
-28.025
-28
-27.975
-27.95
-27.925
-27.9
-27.875
-27.85
-27.825
-27.8
-27.775
-27.75
-27.725
-27.7
-27.675
-27.65
-27.625
-27.6
-27.575
-27.55
-27.525
-27.5
-27.475
-27.45
-27.425
-27.4
-27.375
-27.35
-27.325
-27.3
-27.275
-27.25
-27.225
-27.2
-27.175
-27.15
-27.125
-27.1
-27.075
-27.05
-27.025
-27
-26.975
-26.95
-26.925
-26.9
-26.875
-26.85
-26.825
-26.8
-26.775
-26.75
-26.725
-26.7
-26.675
-26.65
-26.625
-26.6
-26.575
-26.55
-26.525
-26.5
-26.475
-26.45
-26.425
-26.4
-26.375
-26.35
-26.325
-26.3
-26.275
-26.25
-26.225
-26.2
-26.175
-26.15
-26.125
-26.1
-26.075
-26.05
-26.025
-26
-25.975
-25.95
-25.925
-25.9
-25.875
-25.85
-25.825
-25.8
-25.775
-25.75
-25.725
-25.7
-25.675
-25.65
-25.625
-25.6
-25.575
-25.55
-25.525
-25.5
-25.475
-25.45
-25.425
-25.4
-25.375
-25.35
-25.325
-25.3
-25.275
-25.25
-25.225
-25.2
-25.175
-25.15
-25.125
-25.1
-25.075
-25.05
-25.025
-25
-24.975
-24.95
-24.925
-24.9
-24.875
-24.85
-24.825
-24.8
-24.775
-24.75
-24.725
-24.7
-24.675
-24.65
-24.625
-24.6
-24.575
-24.55
-24.525
-24.5
-24.475
-24.45
-24.425
-24.4
-24.375
-24.35
-24.325
-24.3
-24.275
-24.25
-24.225
-24.2
-24.175
-24.15
-24.125
-24.1
-24.075
-24.05
-24.025
-24
-23.975
-23.95
-23.925
-23.9
-23.875
-23.85
-23.825
-23.8
-23.775
-23.75
-23.725
-23.7
-23.675
-23.65
-23.625
-23.6
-23.575
-23.55
-23.525
-23.5
-23.475
-23.45
-23.425
-23.4
-23.375
-23.35
-23.325
-23.3
-23.275
-23.25
-23.225
-23.2
-23.175
-23.15
-23.125
-23.1
-23.075
-23.05
-23.025
-23
-22.975
-22.95
-22.925
-22.9
-22.875
-22.85
-22.825
-22.8
-22.775
-22.75
-22.725
-22.7
-22.675
-22.65
-22.625
-22.6
-22.575
-22.55
-22.525
-22.5
-22.475
-22.45
-22.425
-22.4
-22.375
-22.35
-22.325
-22.3
-22.275
-22.25
-22.225
-22.2
-22.175
-22.15
-22.125
-22.1
-22.075
-22.05
-22.025
-22
-21.975
-21.95
-21.925
-21.9
-21.875
-21.85
-21.825
-21.8
-21.775
-21.75
-21.725
-21.7
-21.675
-21.65
-21.625
-21.6
-21.575
-21.55
-21.525
-21.5
-21.475
-21.45
-21.425
-21.4
-21.375
-21.35
-21.325
-21.3
-21.275
-21.25
-21.225
-21.2
-21.175
-21.15
-21.125
-21.1
-21.075
-21.05
-21.025
-21
-20.975
-20.95
-20.925
-20.9
-20.875
-20.85
-20.825
-20.8
-20.775
-20.75
-20.725
-20.7
-20.675
-20.65
-20.625
-20.6
-20.575
-20.55
-20.525
-20.5
-20.475
-20.45
-20.425
-20.4
-20.375
-20.35
-20.325
-20.3
-20.275
-20.25
-20.225
-20.2
-20.175
-20.15
-20.125
-20.1
-20.075
-20.05
-20.025
-20
VAR_LIST_END
BEGIN
-15.462698,-160.35556
-14.572776,-161.87996
-15.606774,-156.04472
-14.84726,-160.85501
-14.774645,-162.58218
-15.115753,-159.96213
-14.952059,-162.83131
-14.655836,-160.33348
-15.045462,-159.05034
-15.030495,-159.34662
-14.922312,-159.72305
-14.917785,-160.60895
-14.916783,-159.53728
-15.017632,-157.41791
-15.685271,-162.64885
-14.588487,-157.93033
-15.408922,-160.52615
-15.317119,-157.50459
-15.51662,-157.11441
-15.336929,-158.43034
-14.829664,-157.4671
-15.050121,-161.71443
-14.707715,-159.06905
-14.995521,-156.96989
-14.517493,-164.25491
-15.149382,-159.14661
-14.958887,-161.33632
-15.08597,-160.56935
-14.974766,-158.29303
-15.050097,-163.88933
-15.10356,-158.69008
-15.490331,-161.7709
-15.102467,-159.228
-15.169631,-162.1456
-15.412645,-161.45177
-15.2226,-161.5782
-14.497082,-163.18132
-15.024343,-159.33984
-15.811562,-155.453
-15.406699,-158.57675
-14.811322,-161.18825
-15.640893,-161.56152
-15.175442,-161.02789
-15.152669,-162.33664
-14.851514,-159.77423
-15.202643,-157.92804
-15.037458,-158.6407
-15.056731,-160.06975
-14.843312,-159.31543
-15.102458,-161.30113
-15.296804,-159.91522
-15.228056,-157.78989
-15.088547,-160.58218
-15.036332,-154.76271
-15.020086,-162.12305
-15.214457,-162.48424
-14.691415,-163.25003
-15.466617,-157.49496
-14.967448,-160.66377
-14.964403,-159.84169
-15.290766,-160.12869
-14.865294,-160.99297
-15.105865,-162.38889
-15.634575,-161.15883
-14.612306,-161.79128
-14.736858,-161.28896
-14.802495,-163.23863
-14.602948,-159.7899
-14.881846,-164.2708
-15.210263,-163.09573
-15.339276,-158.57648
-15.255569,-158.54694
-15.165402,-161.59003
-15.037071,-161.84985
-15.19881,-161.46416
-14.964317,-161.9209
-15.197681,-162.42432
-15.075144,-160.85417
-15.252275,-161.36647
-15.026135,-159.81839
-14.508993,-158.97694
-15.215409,-161.87238
-15.023997,-161.06287
-15.056408,-161.32417
-14.965594,-159.87996
-14.892772,-159.05473
-15.515099,-158.82098
-15.289223,-160.69601
-15.193446,-162.08368
-14.880293,-162.62686
-14.978446,-161.21716
-14.890436,-158.63666
-15.047729,-159.87984
-15.178519,-161.70201
-14.967695,-157.74429
-14.91001,-159.0464
-15.04498,-162.59143
-14.913488,-160.08441
-15.091665,-160.38673
-15.152995,-159.87706
-15.451758,-158.52922
-15.089172,-161.72739
-15.214055,-163.2787
-14.665336,-161.96564
-15.450141,-162.58199
-15.228604,-161.56213
-15.166882,-158.40938
-14.874291,-159.47655
-15.003461,-161.64861
-15.105388,-160.32616
-14.961109,-160.75351
-15.615801,-159.85875
-14.846103,-159.69006
-15.064892,-157.85814
-15.467031,-163.65974
-15.283587,-160.04285
-15.244987,-160.95944
-15.093029,-162.44458
-15.445113,-161.41939
-15.390179,-163.45099
-14.465378,-159.03477
-14.858457,-160.9147
-15.614541,-158.84972
-14.917686,-161.17078
-14.870979,-160.85596
-14.935142,-159.56776
-15.120153,-161.18402
-15.128069,-161.61079
-14.622488,-160.42793
-15.27606,-161.13223
-15.085506,-161.88225
-14.762506,-160.91632
-14.863808,-159.94774
-15.184151,-159.59042
-14.745384,-161.07036
-15.042721,-162.36552
-15.159573,-162.36763
-15.504214,-161.79878
-15.087716,-163.1347
-14.94335,-161.08324
-15.063855,-159.19302
-14.805863,-162.70453
-15.4351,-159.30472
-15.011342,-158.59508
-14.953589,-160.4892
-15.100028,-160.97188
-14.978597,-158.64595
-15.160887,-157.80872
-14.683178,-160.28056
-14.996902,-161.03915
-14.966258,-160.73856
-14.651688,-158.6179
-14.846654,-161.46536
-15.461005,-161.67821
-15.027402,-158.82771
-14.698057,-159.19061
-14.826605,-160.02817
-15.182817,-162.40163
-15.079294,-159.74887
-14.729209,-161.1804
-14.905044,-159.27664
-15.508068,-161.33162
-15.455985,-159.12868
-14.960842,-158.75745
-15.313068,-161.15016
-15.575602,-160.83572
-14.980692,-162.19865
-14.870042,-158.82355
-15.47209,-158.89125
-14.627808,-161.96024
-14.955603,-160.88014
-15.041304,-157.86818
-15.119452,-159.25302
-14.923317,-161.74039
-15.130004,-159.44803
-14.915098,-159.24715
-14.952063,-160.26854
-15.008131,-158.82207
-15.334623,-160.73029
-15.085863,-162.74094
-15.472051,-159.24489
-14.908624,-161.04247
-14.897998,-161.20026
-15.203655,-161.62292
-15.310302,-160.15965
-14.996365,-163.12506
-14.873625,-161.15089
-15.260798,-161.19458
-14.734399,-158.98796
-14.974437,-160.75243
-15.025229,-158.42958
-14.98751,-160.13618
-15.228381,-161.28325
-15.060886,-159.06566
-15.199809,-160.49236
-14.876053,-162.62395
-15.099298,-162.30661
-15.12716,-159.94122
-15.246469,-161.83018
-15.102812,-160.95926
-14.96239,-162.30304
-15.352909,-161.56422
-15.111773,-161.06549
-15.253053,-159.84547
-15.152293,-160.01588
-15.159666,-157.84787
-14.890892,-163.51978
-15.332771,-161.68253
-14.856321,-159.37857
-14.611433,-161.42545
-15.596369,-162.33617
-15.514818,-160.86763
-14.738692,-159.97302
-15.168063,-159.09074
-14.832828,-161.09203
-15.039996,-161.53566
-15.465103,-161.16492
-15.14179,-160.71309
-14.970097,-158.72917
-15.344514,-161.10661
-15.159434,-161.48952
-14.854598,-161.44043
-15.026869,-162.47246
-15.253369,-160.5558
-15.192972,-157.85707
-15.386976,-157.68378
-14.843439,-160.85339
-15.180142,-157.17542
-14.86436,-161.61342
-15.309115,-160.3876
-15.110267,-159.36855
-14.937505,-160.88312
-15.083325,-162.3905
-15.53523,-161.68643
-14.97209,-159.45384
-14.853962,-160.42059
-15.248906,-161.87375
-15.126726,-160.30281
-15.14094,-160.54944
-15.253063,-161.82175
-15.049389,-158.08922
-15.159759,-160.58246
-14.913169,-160.9048
-15.500131,-159.70245
-14.895772,-162.60577
-14.785049,-161.41531
-14.999124,-161.97127
-15.419253,-163.40126
-14.830347,-161.09372
-15.127801,-161.84132
-15.116813,-162.97432
-14.959702,-159.94589
-15.09349,-161.12997
-14.889484,-159.31157
-14.766834,-161.15205
-14.819387,-160.02473
-15.004269,-160.94933
-14.951837,-162.74681
-15.005662,-159.13104
-15.141565,-161.78526
-15.085745,-161.32336
-15.167216,-160.95053
-15.016849,-159.76074
-15.001162,-160.50676
-15.048382,-162.56496
-14.957145,-163.2124
-15.207823,-161.27423
-15.12516,-158.61719
-14.630736,-159.05336
-15.239975,-160.64201
-14.882474,-160.85292
-15.140098,-160.34706
-15.195199,-160.21756
-14.78946,-162.61282
-15.037198,-159.6109
-15.267956,-160.41245
-15.282145,-159.9549
-15.150343,-160.16925
-15.201165,-161.02498
-15.054511,-158.31195
-15.125911,-159.67061
-15.251391,-161.11586
-14.842363,-160.33113
-15.345439,-161.11194
-15.00754,-159.63618
-15.12715,-159.41364
-15.211081,-161.00494
-15.173343,-160.19865
-15.166131,-161.12486
-14.740364,-159.41977
-14.988554,-160.25772
-15.230607,-161.32721
-15.010477,-160.49672
-15.331199,-159.74045
-15.112628,-161.72565
-15.317603,-159.73505
-15.290727,-161.11974
-14.855393,-160.64989
-15.26995,-160.94727
-15.063579,-159.60808
-14.825154,-158.87357
-15.1418,-161.63597
-14.936419,-159.6958
-15.005604,-161.05879
-14.954926,-161.64323
-15.017064,-160.8934
-15.053131,-161.09088
-15.173154,-160.72371
-14.952025,-159.24821
-15.240417,-158.49989
-14.829835,-161.27119
-15.232561,-159.78972
-14.771451,-161.15538
-14.980358,-160.70749
-14.959419,-160.37657
-15.150616,-161.90857
-15.257396,-159.69966
-15.280366,-160.95706
-15.148429,-161.14441
-15.264716,-162.40889
-15.093478,-159.65213
-15.170618,-161.09009
-15.074555,-161.27666
-14.932171,-161.01451
-15.019257,-160.6221
-15.498755,-160.10194
-14.89129,-161.35684
-14.851077,-159.60416
-14.979979,-159.09286
-15.106166,-161.18124
-15.111139,-159.68909
-15.249841,-159.40326
-15.206071,-160.36571
-15.066824,-161.31531
-15.056168,-160.28552
-14.909442,-160.05965
-15.144231,-159.86304
-15.201121,-160.02
-15.151152,-161.43886
-15.329993,-161.15308
-14.972057,-160.90025
-15.165651,-159.86612
-14.994602,-159.81358
-14.867416,-161.49461
-15.223465,-161.91217
-15.226183,-160.56271
-14.765919,-159.44556
-14.792295,-160.3302
-15.265107,-163.28391
-15.106309,-161.69604
-15.019877,-162.03683
-15.102492,-162.18594
-15.171923,-159.82742
-15.17461,-161.487
-15.035754,-160.37267
-14.998605,-160.65524
-15.069839,-161.82439
-15.00305,-159.88072
-15.021863,-161.13531
-15.030395,-160.27802
-14.883274,-158.283
-14.925746,-160.13605
-14.903239,-160.94339
-15.110306,-159.3452
-15.151451,-162.38574
-14.93863,-161.52644
-14.926067,-160.68767
-15.127539,-160.14587
-14.854253,-160.70102
-15.116096,-160.99272
-15.119614,-161.34122
-15.074043,-160.38043
-14.967539,-162.63345
-14.823818,-159.67746
-14.932671,-160.98917
-14.884671,-162.3712
-15.048419,-159.94144
-14.979003,-160.40042
-15.207595,-159.8562
-14.950097,-159.18047
-15.124413,-161.34663
-15.13835,-159.43669
-15.125852,-159.85548
-14.898184,-160.35709
-15.236207,-160.12209
-14.969753,-161.53075
-15.169982,-159.91522
-15.298958,-159.51646
-14.953361,-160.75056
-15.144455,-160.93849
-15.03243,-160.22272
-15.048332,-159.9935
-14.955933,-159.5323
-15.097546,-159.86435
-15.062531,-160.26538
-15.192944,-160.37482
-15.068462,-160.15604
-14.91757,-160.11023
-15.143432,-158.70694
-15.140396,-159.95
-15.27234,-161.17668
-15.065342,-161.63393
-15.0559,-159.24054
-14.918945,-160.81512
-15.026733,-161.82196
-15.02858,-161.19249
-15.001812,-161.02985
-15.237881,-160.60033
-15.248748,-161.62123
-14.997382,-161.19208
-15.147692,-160.55484
-15.042323,-159.18341
-14.991282,-160.48975
-14.991613,-159.93796
-15.137698,-159.71538
-15.129481,-160.71861
-14.999678,-160.75861
-15.180527,-160.14784
-14.929621,-160.37384
-15.020814,-160.77231
-15.290348,-161.02948
-15.200755,-160.40915
-15.229579,-159.62386
-15.276953,-160.04904
-14.89451,-161.20343
-15.063434,-160.56032
-15.048366,-159.43903
-15.01117,-161.52209
-15.119534,-160.72021
-15.052336,-161.18068
-14.970511,-160.40897
-14.817013,-159.48788
-14.987453,-161.43271
-15.203028,-160.90155
-15.07128,-160.3116
-15.091,-159.46237
-14.988709,-160.86665
-14.922925,-160.09828
-15.038152,-160.00826
-15.044504,-159.99052
-15.056454,-159.98189
-15.072684,-160.19052
-14.981626,-161.50803
-15.107699,-160.56857
-15.100429,-160.2641
-14.863805,-161.14069
-14.986804,-161.20543
-15.156972,-161.90614
-14.896678,-160.60947
-14.990509,-158.58633
-15.1188,-159.46304
-15.015615,-160.54823
-14.992946,-160.153
-15.321166,-160.39542
-15.041477,-160.47351
-15.009522,-160.05707
-14.928242,-160.18489
-15.194189,-160.82579
-14.994878,-161.07477
-15.019695,-161.05205
-15.176478,-160.57182
-15.119928,-161.23163
-14.944603,-161.08537
-15.172716,-159.63327
-15.120106,-159.78296
-15.087018,-160.99989
-15.320224,-162.18445
-15.259338,-160.01926
-14.944809,-160.6272
-14.965429,-159.95787
-14.957956,-160.01772
-15.059562,-161.22957
-15.015182,-160.74405
-15.103872,-161.05406
-15.092726,-160.03908
-15.059608,-161.20445
-15.054194,-160.53551
-15.256886,-161.79547
-15.003776,-160.73643
-15.135604,-161.0966
-14.965526,-159.21954
-15.340197,-159.87245
-15.191173,-161.01035
-15.197711,-159.87849
-15.123228,-161.56772
-15.101994,-160.61684
-14.990904,-160.65938
-15.01524,-159.3597
-15.168186,-161.19803
-15.03144,-160.83554
-14.921369,-159.40092
-15.062789,-161.367
-14.977922,-159.93462
-14.964926,-161.53517
-15.035151,-160.39647
-15.122307,-160.28908
-15.223101,-160.23811
-15.014238,-159.47745
-14.952241,-160.33228
-14.980027,-161.12201
-14.932608,-159.98776
-15.223244,-161.11792
-15.112444,-160.38097
-15.196587,-159.52808
-15.078597,-159.53882
-15.218259,-160.55103
-15.034577,-159.89481
-15.247286,-159.8875
-15.177034,-160.87166
-15.007525,-160.31145
-14.896359,-159.46231
-15.121731,-160.57587
-15.084219,-159.98108
-15.130248,-160.0182
-14.997368,-160.50237
-14.977278,-159.95189
-15.028942,-161.1669
-15.042014,-160.04512
-15.043197,-161.78276
-15.090592,-159.16515
-15.094007,-161.4538
-15.056564,-161.10606
-15.095585,-160.5051
-14.996994,-160.95804
-15.013494,-160.51495
-15.030269,-161.06602
-14.997196,-160.34283
-15.096906,-159.30887
-14.98309,-160.15039
-15.044936,-160.76865
-15.201047,-161.25963
-15.142834,-160.88074
-15.126587,-161.48111
-15.226449,-159.99786
-14.970711,-160.57956
-14.955527,-160.50595
-15.064857,-160.88368
-14.949569,-160.99013
-14.971417,-159.63596
-15.012532,-161.39525
-15.114834,-161.41119
-15.017105,-160.54608
-15.09272,-159.67149
-15.033546,-160.43042
-15.17044,-160.46318
-14.989496,-159.99275
-15.029837,-159.30611
-15.060196,-160.40256
-15.147301,-159.92709
-15.276724,-161.81238
-15.043438,-160.15907
-15.044523,-159.35283
-15.094836,-161.07909
-15.077995,-160.3114
-15.171032,-160.73888
-14.983183,-160.34711
-14.982442,-160.90948
-15.101313,-162.07051
-14.966122,-161.75945
-14.969458,-160.91823
-15.117498,-161.53758
-14.98962,-160.77345
-14.848108,-160.42972
-15.001497,-159.58849
-15.167015,-160.57237
-15.125299,-161.51065
-14.965372,-160.9986
-15.056849,-160.21693
-15.010077,-159.98712
-15.19486,-160.17265
-15.036508,-160.74576
-15.055846,-160.57687
-15.035241,-160.39363
-14.993898,-160.60681
-14.965569,-160.07854
