CITIFILE A.01.01
!Agilent Technologies,N5230C,MY48100142,A.08.04.10
!Agilent N5230C: A.08.04.10
!Format: LogMag/Angle
!Date: Friday, March 06, 2020 12:20:43
NAME CH1_DATA
VAR Power MAG 801
DATA S11 DBANGLE
DATA S21 DBANGLE
DATA S12 DBANGLE
DATA S22 DBANGLE
VAR_LIST_BEGIN
-40
-39.975
-39.95
-39.925
-39.9
-39.875
-39.85
-39.825
-39.8
-39.775
-39.75
-39.725
-39.7
-39.675
-39.65
-39.625
-39.6
-39.575
-39.55
-39.525
-39.5
-39.475
-39.45
-39.425
-39.4
-39.375
-39.35
-39.325
-39.3
-39.275
-39.25
-39.225
-39.2
-39.175
-39.15
-39.125
-39.1
-39.075
-39.05
-39.025
-39
-38.975
-38.95
-38.925
-38.9
-38.875
-38.85
-38.825
-38.8
-38.775
-38.75
-38.725
-38.7
-38.675
-38.65
-38.625
-38.6
-38.575
-38.55
-38.525
-38.5
-38.475
-38.45
-38.425
-38.4
-38.375
-38.35
-38.325
-38.3
-38.275
-38.25
-38.225
-38.2
-38.175
-38.15
-38.125
-38.1
-38.075
-38.05
-38.025
-38
-37.975
-37.95
-37.925
-37.9
-37.875
-37.85
-37.825
-37.8
-37.775
-37.75
-37.725
-37.7
-37.675
-37.65
-37.625
-37.6
-37.575
-37.55
-37.525
-37.5
-37.475
-37.45
-37.425
-37.4
-37.375
-37.35
-37.325
-37.3
-37.275
-37.25
-37.225
-37.2
-37.175
-37.15
-37.125
-37.1
-37.075
-37.05
-37.025
-37
-36.975
-36.95
-36.925
-36.9
-36.875
-36.85
-36.825
-36.8
-36.775
-36.75
-36.725
-36.7
-36.675
-36.65
-36.625
-36.6
-36.575
-36.55
-36.525
-36.5
-36.475
-36.45
-36.425
-36.4
-36.375
-36.35
-36.325
-36.3
-36.275
-36.25
-36.225
-36.2
-36.175
-36.15
-36.125
-36.1
-36.075
-36.05
-36.025
-36
-35.975
-35.95
-35.925
-35.9
-35.875
-35.85
-35.825
-35.8
-35.775
-35.75
-35.725
-35.7
-35.675
-35.65
-35.625
-35.6
-35.575
-35.55
-35.525
-35.5
-35.475
-35.45
-35.425
-35.4
-35.375
-35.35
-35.325
-35.3
-35.275
-35.25
-35.225
-35.2
-35.175
-35.15
-35.125
-35.1
-35.075
-35.05
-35.025
-35
-34.975
-34.95
-34.925
-34.9
-34.875
-34.85
-34.825
-34.8
-34.775
-34.75
-34.725
-34.7
-34.675
-34.65
-34.625
-34.6
-34.575
-34.55
-34.525
-34.5
-34.475
-34.45
-34.425
-34.4
-34.375
-34.35
-34.325
-34.3
-34.275
-34.25
-34.225
-34.2
-34.175
-34.15
-34.125
-34.1
-34.075
-34.05
-34.025
-34
-33.975
-33.95
-33.925
-33.9
-33.875
-33.85
-33.825
-33.8
-33.775
-33.75
-33.725
-33.7
-33.675
-33.65
-33.625
-33.6
-33.575
-33.55
-33.525
-33.5
-33.475
-33.45
-33.425
-33.4
-33.375
-33.35
-33.325
-33.3
-33.275
-33.25
-33.225
-33.2
-33.175
-33.15
-33.125
-33.1
-33.075
-33.05
-33.025
-33
-32.975
-32.95
-32.925
-32.9
-32.875
-32.85
-32.825
-32.8
-32.775
-32.75
-32.725
-32.7
-32.675
-32.65
-32.625
-32.6
-32.575
-32.55
-32.525
-32.5
-32.475
-32.45
-32.425
-32.4
-32.375
-32.35
-32.325
-32.3
-32.275
-32.25
-32.225
-32.2
-32.175
-32.15
-32.125
-32.1
-32.075
-32.05
-32.025
-32
-31.975
-31.95
-31.925
-31.9
-31.875
-31.85
-31.825
-31.8
-31.775
-31.75
-31.725
-31.7
-31.675
-31.65
-31.625
-31.6
-31.575
-31.55
-31.525
-31.5
-31.475
-31.45
-31.425
-31.4
-31.375
-31.35
-31.325
-31.3
-31.275
-31.25
-31.225
-31.2
-31.175
-31.15
-31.125
-31.1
-31.075
-31.05
-31.025
-31
-30.975
-30.95
-30.925
-30.9
-30.875
-30.85
-30.825
-30.8
-30.775
-30.75
-30.725
-30.7
-30.675
-30.65
-30.625
-30.6
-30.575
-30.55
-30.525
-30.5
-30.475
-30.45
-30.425
-30.4
-30.375
-30.35
-30.325
-30.3
-30.275
-30.25
-30.225
-30.2
-30.175
-30.15
-30.125
-30.1
-30.075
-30.05
-30.025
-30
-29.975
-29.95
-29.925
-29.9
-29.875
-29.85
-29.825
-29.8
-29.775
-29.75
-29.725
-29.7
-29.675
-29.65
-29.625
-29.6
-29.575
-29.55
-29.525
-29.5
-29.475
-29.45
-29.425
-29.4
-29.375
-29.35
-29.325
-29.3
-29.275
-29.25
-29.225
-29.2
-29.175
-29.15
-29.125
-29.1
-29.075
-29.05
-29.025
-29
-28.975
-28.95
-28.925
-28.9
-28.875
-28.85
-28.825
-28.8
-28.775
-28.75
-28.725
-28.7
-28.675
-28.65
-28.625
-28.6
-28.575
-28.55
-28.525
-28.5
-28.475
-28.45
-28.425
-28.4
-28.375
-28.35
-28.325
-28.3
-28.275
-28.25
-28.225
-28.2
-28.175
-28.15
-28.125
-28.1
-28.075
-28.05
-28.025
-28
-27.975
-27.95
-27.925
-27.9
-27.875
-27.85
-27.825
-27.8
-27.775
-27.75
-27.725
-27.7
-27.675
-27.65
-27.625
-27.6
-27.575
-27.55
-27.525
-27.5
-27.475
-27.45
-27.425
-27.4
-27.375
-27.35
-27.325
-27.3
-27.275
-27.25
-27.225
-27.2
-27.175
-27.15
-27.125
-27.1
-27.075
-27.05
-27.025
-27
-26.975
-26.95
-26.925
-26.9
-26.875
-26.85
-26.825
-26.8
-26.775
-26.75
-26.725
-26.7
-26.675
-26.65
-26.625
-26.6
-26.575
-26.55
-26.525
-26.5
-26.475
-26.45
-26.425
-26.4
-26.375
-26.35
-26.325
-26.3
-26.275
-26.25
-26.225
-26.2
-26.175
-26.15
-26.125
-26.1
-26.075
-26.05
-26.025
-26
-25.975
-25.95
-25.925
-25.9
-25.875
-25.85
-25.825
-25.8
-25.775
-25.75
-25.725
-25.7
-25.675
-25.65
-25.625
-25.6
-25.575
-25.55
-25.525
-25.5
-25.475
-25.45
-25.425
-25.4
-25.375
-25.35
-25.325
-25.3
-25.275
-25.25
-25.225
-25.2
-25.175
-25.15
-25.125
-25.1
-25.075
-25.05
-25.025
-25
-24.975
-24.95
-24.925
-24.9
-24.875
-24.85
-24.825
-24.8
-24.775
-24.75
-24.725
-24.7
-24.675
-24.65
-24.625
-24.6
-24.575
-24.55
-24.525
-24.5
-24.475
-24.45
-24.425
-24.4
-24.375
-24.35
-24.325
-24.3
-24.275
-24.25
-24.225
-24.2
-24.175
-24.15
-24.125
-24.1
-24.075
-24.05
-24.025
-24
-23.975
-23.95
-23.925
-23.9
-23.875
-23.85
-23.825
-23.8
-23.775
-23.75
-23.725
-23.7
-23.675
-23.65
-23.625
-23.6
-23.575
-23.55
-23.525
-23.5
-23.475
-23.45
-23.425
-23.4
-23.375
-23.35
-23.325
-23.3
-23.275
-23.25
-23.225
-23.2
-23.175
-23.15
-23.125
-23.1
-23.075
-23.05
-23.025
-23
-22.975
-22.95
-22.925
-22.9
-22.875
-22.85
-22.825
-22.8
-22.775
-22.75
-22.725
-22.7
-22.675
-22.65
-22.625
-22.6
-22.575
-22.55
-22.525
-22.5
-22.475
-22.45
-22.425
-22.4
-22.375
-22.35
-22.325
-22.3
-22.275
-22.25
-22.225
-22.2
-22.175
-22.15
-22.125
-22.1
-22.075
-22.05
-22.025
-22
-21.975
-21.95
-21.925
-21.9
-21.875
-21.85
-21.825
-21.8
-21.775
-21.75
-21.725
-21.7
-21.675
-21.65
-21.625
-21.6
-21.575
-21.55
-21.525
-21.5
-21.475
-21.45
-21.425
-21.4
-21.375
-21.35
-21.325
-21.3
-21.275
-21.25
-21.225
-21.2
-21.175
-21.15
-21.125
-21.1
-21.075
-21.05
-21.025
-21
-20.975
-20.95
-20.925
-20.9
-20.875
-20.85
-20.825
-20.8
-20.775
-20.75
-20.725
-20.7
-20.675
-20.65
-20.625
-20.6
-20.575
-20.55
-20.525
-20.5
-20.475
-20.45
-20.425
-20.4
-20.375
-20.35
-20.325
-20.3
-20.275
-20.25
-20.225
-20.2
-20.175
-20.15
-20.125
-20.1
-20.075
-20.05
-20.025
-20
VAR_LIST_END
BEGIN
-13.911918,-163.21346
-14.624392,-156.67332
-14.638905,-160.20172
-15.767705,-164.06528
-15.338136,-169.21039
-15.60517,-158.41748
-15.544426,-164.05878
-14.321992,-159.51657
-15.565682,-160.49255
-14.553637,-159.57739
-15.405928,-158.47282
-14.99,-158.42058
-15.096125,-168.601
-15.342191,-161.85332
-14.406975,-161.899
-15.185122,-163.17725
-16.023323,-161.83687
-15.507582,-163.10281
-15.699757,-160.27724
-14.228446,-165.56091
-14.664798,-159.02617
-15.500914,-163.8432
-14.742892,-162.07901
-15.306978,-164.1281
-14.879584,-167.5995
-14.829841,-163.55966
-15.315747,-167.30002
-15.543817,-160.55183
-14.78804,-165.83324
-15.288568,-161.04752
-14.666265,-159.48024
-13.71217,-158.32132
-16.162357,-154.41473
-15.260516,-159.23093
-14.249938,-159.28308
-14.325471,-164.74213
-15.295492,-165.27866
-14.498263,-163.895
-16.038601,-158.85344
-14.476799,-163.83757
-14.433076,-160.80397
-15.614685,-163.38235
-15.646259,-162.30817
-15.268502,-166.13025
-15.731979,-159.89319
-15.591841,-156.94252
-14.21946,-164.21761
-15.172353,-162.87564
-14.625069,-157.77921
-15.144608,-165.60576
-15.106137,-161.01567
-14.405026,-165.03954
-15.474198,-157.02457
-14.965347,-165.85959
-15.43318,-156.10649
-15.739271,-159.5535
-15.065609,-159.50929
-14.1696,-164.8317
-14.912462,-166.51358
-14.685893,-163.95978
-15.98784,-153.27351
-15.719769,-161.74838
-14.068886,-167.72998
-14.538404,-159.60805
-15.17126,-158.62949
-14.60687,-157.64047
-14.871171,-154.65324
-14.553375,-165.28458
-15.21569,-163.20319
-13.968042,-166.84352
-14.601628,-158.70029
-15.301338,-160.24757
-14.369231,-160.76605
-14.321514,-161.67812
-14.508341,-155.29521
-15.20543,-168.16991
-14.108978,-160.32843
-14.471654,-165.19368
-15.057797,-162.03462
-15.355069,-162.51848
-15.542923,-162.22971
-15.008401,-163.37567
-16.133141,-156.79652
-15.093369,-157.52747
-15.691958,-166.47958
-14.724777,-161.67064
-14.427621,-156.99478
-16.040867,-158.76897
-14.576224,-159.59445
-14.720446,-165.45306
-15.905951,-157.70769
-15.065829,-160.93402
-15.571679,-163.83827
-14.491985,-161.34543
-15.47088,-163.86874
-15.806676,-160.30447
-15.412739,-161.02367
-14.619412,-158.57704
-14.719277,-159.91331
-15.654855,-160.02739
-15.111949,-157.99583
-14.610039,-159.44437
-15.612185,-162.88283
-15.004056,-160.24236
-14.612688,-166.72722
-15.263596,-162.32204
-14.548173,-161.311
-14.823586,-161.41634
-14.837182,-164.3602
-14.946999,-162.63579
-14.688795,-159.7713
-15.352976,-161.2697
-14.746161,-161.42867
-15.901465,-160.83861
-14.936448,-163.08733
-15.657859,-163.35135
-14.81256,-159.24304
-15.46586,-159.41953
-14.720399,-160.57941
-14.445385,-154.73788
-14.691868,-163.65088
-15.381168,-156.35652
-14.552571,-161.68472
-14.707361,-161.69138
-15.463389,-160.40712
-14.902482,-163.13432
-15.746443,-157.37218
-15.447765,-162.16763
-16.005369,-160.06015
-14.928356,-165.00142
-15.123387,-158.87639
-14.545155,-162.55226
-14.967467,-157.45148
-14.391162,-158.18594
-14.817611,-161.76846
-14.669577,-162.06371
-14.800669,-163.36362
-14.356072,-161.24875
-15.07868,-157.68652
-15.183481,-164.49429
-15.399087,-161.93716
-15.018982,-160.17647
-14.81462,-162.40639
-14.855926,-154.89262
-15.305239,-158.60623
-15.825686,-160.39059
-15.285307,-162.91759
-15.265987,-162.18556
-15.454767,-158.41336
-15.182209,-163.92203
-15.696928,-164.05659
-15.390236,-161.00874
-14.143256,-161.16626
-15.067088,-162.8511
-14.993002,-159.7007
-14.732411,-164.5981
-14.642726,-158.54745
-14.551194,-160.00746
-15.427917,-164.39473
-14.751509,-166.39667
-14.68143,-164.4998
-14.808676,-166.67307
-15.427097,-160.23424
-14.847445,-159.49159
-15.578031,-157.64432
-14.901236,-160.78131
-15.656298,-163.91245
-14.798407,-165.33711
-14.922034,-162.48865
-15.227841,-159.87102
-15.038141,-156.68503
-14.551998,-166.6915
-15.109853,-156.92564
-15.001728,-156.3963
-15.513576,-158.89156
-15.602336,-166.37544
-15.068766,-160.53194
-14.695976,-163.29256
-14.485767,-163.01068
-15.398101,-162.24147
-15.321315,-163.34328
-14.790956,-158.74506
-14.817368,-162.92079
-15.188536,-161.63074
-14.937801,-155.75885
-16.445669,-162.8131
-15.285029,-165.98947
-16.041811,-161.89807
-15.328821,-159.13597
-14.54135,-160.57811
-15.203885,-162.2146
-15.540297,-160.25615
-14.906392,-164.99284
-14.508706,-163.48499
-15.291649,-161.46751
-15.453771,-163.76494
-14.732487,-161.61536
-15.11487,-164.26729
-15.425592,-161.6674
-14.784964,-165.94966
-15.072092,-161.32997
-14.957538,-160.9324
-15.319762,-161.31789
-15.106004,-161.32831
-15.434049,-160.51968
-14.822162,-161.12215
-15.076235,-162.16684
-15.590008,-157.14011
-14.430199,-159.12764
-14.884829,-162.64685
-14.845445,-159.10385
-14.80116,-164.75337
-15.07508,-160.08676
-15.109044,-162.44305
-15.536279,-159.6329
-15.977715,-164.25665
-14.526979,-164.36366
-15.240706,-161.06628
-15.203261,-155.32832
-15.044908,-159.35094
-15.129153,-162.78539
-14.972179,-161.06371
-14.862993,-163.47284
-15.183584,-164.04724
-15.175411,-159.88315
-15.234533,-164.28333
-15.219881,-160.21399
-14.571694,-164.05309
-15.114643,-162.95694
-15.452151,-161.9101
-15.712327,-158.84937
-15.066018,-160.77635
-15.038581,-160.85008
-14.936491,-166.11365
-15.070116,-160.68753
-14.617907,-161.94997
-14.746204,-156.16991
-14.162227,-163.02814
-15.139753,-164.37331
-15.344145,-162.02406
-15.535625,-161.4733
-14.656917,-161.52962
-14.391277,-163.1403
-14.754178,-160.00523
-15.369341,-161.68268
-14.934855,-157.12778
-14.684184,-161.21651
-14.631924,-161.06657
-15.629824,-161.77502
-15.328945,-159.43793
-15.019738,-165.32243
-15.361416,-159.59712
-15.237675,-161.33311
-15.140253,-162.69246
-14.282662,-163.25066
-15.027192,-163.42525
-14.722468,-164.66928
-15.507667,-165.98088
-15.763124,-160.18442
-15.046072,-163.40321
-15.30187,-156.26457
-15.06078,-158.57379
-15.181048,-164.7263
-15.22508,-162.4216
-15.880816,-164.94664
-15.110743,-160.11308
-14.566135,-156.94928
-14.835103,-163.4023
-14.77041,-159.10635
-15.76715,-162.48013
-14.537545,-161.29503
-14.464466,-162.69211
-14.984834,-157.76553
-14.832409,-159.2384
-15.044943,-156.25911
-14.974885,-163.27548
-14.744566,-160.49806
-15.033206,-165.36688
-14.867735,-160.32437
-15.740551,-160.98036
-15.048856,-160.97971
-15.018503,-161.84671
-15.380033,-159.53828
-14.714251,-157.96428
-14.242373,-158.7585
-14.585652,-159.41409
-15.129657,-160.18733
-14.928497,-163.95409
-15.044946,-161.19264
-14.457342,-159.4082
-15.666006,-160.29477
-14.866722,-164.17072
-15.500175,-163.04398
-15.06593,-159.42914
-15.299114,-160.87732
-15.723971,-161.30067
-15.413317,-165.42694
-15.121253,-161.75322
-14.902464,-160.00975
-14.923882,-161.38873
-14.878042,-163.22217
-14.867799,-162.78694
-14.964183,-159.86276
-15.031375,-164.46695
-15.245131,-159.92451
-14.88093,-159.31801
-15.362913,-160.85786
-15.344155,-161.00403
-14.872844,-157.99007
-15.288415,-160.50208
-15.193202,-160.02806
-15.027203,-157.94472
-15.385003,-160.9035
-15.614966,-158.85495
-14.923117,-163.15602
-15.365646,-159.12122
-15.292283,-163.66757
-15.212068,-162.17305
-15.056394,-161.66409
-15.430133,-158.89149
-14.99933,-160.65259
-14.703878,-160.73267
-14.885986,-163.72647
-15.720357,-161.98158
-14.745095,-158.96472
-15.365017,-159.05956
-14.510894,-161.95329
-14.978436,-163.58081
-15.09804,-162.35229
-15.456909,-159.7088
-15.066476,-158.92799
-15.233112,-161.13617
-15.102585,-164.33676
-15.066525,-163.54367
-14.773834,-163.07486
-15.127207,-163.32649
-15.074332,-164.49997
-14.971544,-159.92876
-14.828534,-164.13254
-15.344221,-162.29372
-15.036385,-162.02852
-14.884147,-160.90425
-15.204988,-159.72789
-15.509915,-161.86752
-15.014818,-161.38725
-14.999665,-162.46371
-15.145068,-163.40816
-14.951724,-163.19502
-14.728925,-160.14139
-14.741013,-160.67665
-15.271298,-162.42812
-15.322958,-158.86797
-14.745248,-161.68927
-15.156006,-161.8119
-14.684704,-160.04778
-14.90389,-157.67949
-15.277439,-160.55292
-14.834725,-162.05768
-14.889168,-161.46935
-15.206151,-161.43231
-15.130135,-158.24414
-15.178537,-161.55818
-15.067757,-161.09758
-14.927239,-162.36395
-14.902527,-163.89238
-15.228974,-163.09735
-15.035756,-159.53178
-14.965302,-160.62761
-14.743931,-159.73302
-15.283447,-160.99101
-15.106336,-160.87039
-15.577512,-162.59267
-15.115324,-161.91667
-14.946252,-163.0174
-15.044741,-162.71468
-15.071748,-160.53918
-15.088175,-160.99406
-14.976644,-162.19167
-15.096433,-159.73271
-14.786601,-163.58856
-15.131236,-160.08853
-14.731747,-162.84752
-15.070231,-159.59058
-15.551987,-160.56589
-15.43105,-161.5034
-14.814927,-159.70918
-14.861219,-159.27319
-14.796164,-160.77505
-15.017181,-163.46692
-14.859133,-162.9664
-14.447629,-162.01654
-15.048207,-160.72092
-15.117443,-163.12572
-14.803046,-159.63528
-14.821403,-163.47295
-15.127138,-161.83534
-15.048079,-162.46596
-15.437799,-162.82637
-15.400284,-159.12682
-14.963857,-162.73894
-14.787905,-160.36017
-15.701778,-161.11154
-15.208996,-161.0854
-14.991845,-161.10681
-14.947438,-162.91646
-15.087183,-163.02382
-15.096396,-159.27658
-14.602131,-161.81181
-15.137464,-164.24826
-15.083808,-163.31216
-15.187876,-159.72476
-15.148522,-160.29123
-14.94419,-161.90598
-15.170421,-160.62181
-14.692876,-161.23659
-15.132375,-162.78705
-15.13689,-158.57275
-15.179518,-163.71606
-15.362518,-159.9278
-15.484577,-162.35782
-15.098412,-161.24815
-14.978278,-164.16235
-14.741138,-161.39204
-14.975796,-161.51027
-14.744227,-161.19298
-14.8708,-162.51875
-14.834929,-161.41469
-14.970545,-163.14606
-15.177029,-159.75815
-14.713321,-161.37671
-14.849153,-160.3923
-15.111677,-160.72339
-15.357458,-164.55464
-15.199971,-160.48221
-15.280807,-160.06499
-14.896544,-160.04008
-14.819146,-163.16269
-14.826915,-162.06148
-14.976912,-161.51715
-15.307681,-161.91591
-15.02595,-162.32814
-14.872279,-160.4852
-14.842128,-159.90797
-15.067875,-161.69875
-15.234508,-159.75493
-15.162117,-160.9758
-15.331785,-163.22885
-15.10318,-164.26143
-14.892922,-160.75648
-15.134185,-160.69284
-14.967642,-162.82965
-15.161345,-162.4583
-14.941674,-161.60703
-15.291526,-160.08136
-15.116137,-161.30009
-15.10328,-161.91219
-15.33618,-159.39365
-15.131599,-162.72064
-15.280865,-160.38382
-15.266392,-161.2648
-15.098686,-160.91585
-14.892388,-162.13531
-15.145354,-163.5717
-14.961136,-160.6463
-15.519859,-162.09024
-15.138548,-162.86809
-15.18185,-162.24985
-15.163193,-161.21921
-15.003518,-161.82381
-14.902212,-162.74164
-14.789792,-161.00964
-15.13789,-161.20422
-14.950962,-159.68346
-15.200503,-161.76694
-15.280762,-162.65437
-14.970623,-159.31395
-15.133264,-158.66002
-15.429653,-158.79854
-15.208516,-162.00496
-15.216282,-161.37471
-14.892207,-163.11864
-15.171634,-159.79378
-15.058795,-163.97804
-15.12532,-161.69928
-15.133076,-163.00114
-15.095037,-159.42456
-15.342225,-162.97353
-15.128325,-162.10539
-15.036762,-160.50301
-15.116009,-161.13802
-15.049358,-162.69199
-15.485642,-160.07378
-15.273252,-162.59955
-15.17833,-159.54417
-15.160541,-163.21074
-15.190506,-162.17683
-15.363497,-162.4872
-15.252566,-161.84636
-14.807262,-161.0293
-14.870842,-159.58937
-15.130514,-161.19679
-14.981204,-163.12437
-15.048843,-160.19316
-15.216791,-162.49243
-15.195002,-161.12898
-15.065847,-163.58415
-15.267206,-161.10521
-14.856758,-161.11185
-15.090816,-161.43613
-15.006544,-160.29761
-15.023702,-160.29065
-15.080535,-161.74844
-15.26688,-162.09854
-15.071678,-162.94724
-15.568978,-161.09518
-15.275063,-162.80342
-15.16165,-162.41187
-15.019549,-161.8662
-15.090778,-161.57077
-15.0318,-162.14847
-15.07669,-161.67508
-15.083559,-161.88062
-15.132866,-161.70956
-14.913613,-160.5643
-15.152916,-161.74933
-14.924823,-159.57079
-14.978374,-162.21062
-14.899996,-161.32808
-15.00657,-163.05716
-15.043499,-162.55643
-14.849966,-161.16313
-15.082303,-161.54308
-15.097394,-162.89137
-15.17954,-161.41351
-15.046702,-159.70256
-15.083079,-162.22504
-15.097006,-161.41228
-15.413948,-162.26216
-14.962009,-161.30266
-15.089606,-160.12651
-15.021077,-161.17863
-15.258176,-162.40625
-15.186246,-162.12981
-15.204806,-161.06348
-15.330142,-160.61414
-15.175336,-162.52377
-15.223274,-161.97499
-15.14369,-161.43933
-15.012815,-163.07835
-15.211672,-163.10048
-15.190019,-161.62489
-14.77345,-161.68266
-14.981258,-161.31567
-15.115438,-161.9073
-14.99765,-162.33224
-14.893569,-162.09105
-15.096394,-161.3063
-15.151681,-161.47644
-14.945265,-161.67966
-15.041858,-160.98048
-14.959908,-159.88231
-14.885978,-161.42534
-15.385175,-160.52502
-15.13002,-162.79697
-15.228283,-161.1136
-14.941598,-162.60472
-15.149168,-163.63332
-14.966164,-161.91942
-14.98846,-161.28275
-14.952311,-161.8499
-14.963274,-160.87233
-15.319797,-161.74715
-15.267546,-159.86118
-15.129344,-161.17268
-15.237985,-162.045
-15.125812,-161.16354
