CITIFILE A.01.01
!Agilent Technologies,N5230C,MY48100142,A.08.04.10
!Agilent N5230C: A.08.04.10
!Format: LogMag/Angle
!Date: Friday, March 06, 2020 12:22:03
NAME CH1_DATA
VAR Power MAG 801
DATA S11 DBANGLE
DATA S21 DBANGLE
DATA S12 DBANGLE
DATA S22 DBANGLE
VAR_LIST_BEGIN
-40
-39.975
-39.95
-39.925
-39.9
-39.875
-39.85
-39.825
-39.8
-39.775
-39.75
-39.725
-39.7
-39.675
-39.65
-39.625
-39.6
-39.575
-39.55
-39.525
-39.5
-39.475
-39.45
-39.425
-39.4
-39.375
-39.35
-39.325
-39.3
-39.275
-39.25
-39.225
-39.2
-39.175
-39.15
-39.125
-39.1
-39.075
-39.05
-39.025
-39
-38.975
-38.95
-38.925
-38.9
-38.875
-38.85
-38.825
-38.8
-38.775
-38.75
-38.725
-38.7
-38.675
-38.65
-38.625
-38.6
-38.575
-38.55
-38.525
-38.5
-38.475
-38.45
-38.425
-38.4
-38.375
-38.35
-38.325
-38.3
-38.275
-38.25
-38.225
-38.2
-38.175
-38.15
-38.125
-38.1
-38.075
-38.05
-38.025
-38
-37.975
-37.95
-37.925
-37.9
-37.875
-37.85
-37.825
-37.8
-37.775
-37.75
-37.725
-37.7
-37.675
-37.65
-37.625
-37.6
-37.575
-37.55
-37.525
-37.5
-37.475
-37.45
-37.425
-37.4
-37.375
-37.35
-37.325
-37.3
-37.275
-37.25
-37.225
-37.2
-37.175
-37.15
-37.125
-37.1
-37.075
-37.05
-37.025
-37
-36.975
-36.95
-36.925
-36.9
-36.875
-36.85
-36.825
-36.8
-36.775
-36.75
-36.725
-36.7
-36.675
-36.65
-36.625
-36.6
-36.575
-36.55
-36.525
-36.5
-36.475
-36.45
-36.425
-36.4
-36.375
-36.35
-36.325
-36.3
-36.275
-36.25
-36.225
-36.2
-36.175
-36.15
-36.125
-36.1
-36.075
-36.05
-36.025
-36
-35.975
-35.95
-35.925
-35.9
-35.875
-35.85
-35.825
-35.8
-35.775
-35.75
-35.725
-35.7
-35.675
-35.65
-35.625
-35.6
-35.575
-35.55
-35.525
-35.5
-35.475
-35.45
-35.425
-35.4
-35.375
-35.35
-35.325
-35.3
-35.275
-35.25
-35.225
-35.2
-35.175
-35.15
-35.125
-35.1
-35.075
-35.05
-35.025
-35
-34.975
-34.95
-34.925
-34.9
-34.875
-34.85
-34.825
-34.8
-34.775
-34.75
-34.725
-34.7
-34.675
-34.65
-34.625
-34.6
-34.575
-34.55
-34.525
-34.5
-34.475
-34.45
-34.425
-34.4
-34.375
-34.35
-34.325
-34.3
-34.275
-34.25
-34.225
-34.2
-34.175
-34.15
-34.125
-34.1
-34.075
-34.05
-34.025
-34
-33.975
-33.95
-33.925
-33.9
-33.875
-33.85
-33.825
-33.8
-33.775
-33.75
-33.725
-33.7
-33.675
-33.65
-33.625
-33.6
-33.575
-33.55
-33.525
-33.5
-33.475
-33.45
-33.425
-33.4
-33.375
-33.35
-33.325
-33.3
-33.275
-33.25
-33.225
-33.2
-33.175
-33.15
-33.125
-33.1
-33.075
-33.05
-33.025
-33
-32.975
-32.95
-32.925
-32.9
-32.875
-32.85
-32.825
-32.8
-32.775
-32.75
-32.725
-32.7
-32.675
-32.65
-32.625
-32.6
-32.575
-32.55
-32.525
-32.5
-32.475
-32.45
-32.425
-32.4
-32.375
-32.35
-32.325
-32.3
-32.275
-32.25
-32.225
-32.2
-32.175
-32.15
-32.125
-32.1
-32.075
-32.05
-32.025
-32
-31.975
-31.95
-31.925
-31.9
-31.875
-31.85
-31.825
-31.8
-31.775
-31.75
-31.725
-31.7
-31.675
-31.65
-31.625
-31.6
-31.575
-31.55
-31.525
-31.5
-31.475
-31.45
-31.425
-31.4
-31.375
-31.35
-31.325
-31.3
-31.275
-31.25
-31.225
-31.2
-31.175
-31.15
-31.125
-31.1
-31.075
-31.05
-31.025
-31
-30.975
-30.95
-30.925
-30.9
-30.875
-30.85
-30.825
-30.8
-30.775
-30.75
-30.725
-30.7
-30.675
-30.65
-30.625
-30.6
-30.575
-30.55
-30.525
-30.5
-30.475
-30.45
-30.425
-30.4
-30.375
-30.35
-30.325
-30.3
-30.275
-30.25
-30.225
-30.2
-30.175
-30.15
-30.125
-30.1
-30.075
-30.05
-30.025
-30
-29.975
-29.95
-29.925
-29.9
-29.875
-29.85
-29.825
-29.8
-29.775
-29.75
-29.725
-29.7
-29.675
-29.65
-29.625
-29.6
-29.575
-29.55
-29.525
-29.5
-29.475
-29.45
-29.425
-29.4
-29.375
-29.35
-29.325
-29.3
-29.275
-29.25
-29.225
-29.2
-29.175
-29.15
-29.125
-29.1
-29.075
-29.05
-29.025
-29
-28.975
-28.95
-28.925
-28.9
-28.875
-28.85
-28.825
-28.8
-28.775
-28.75
-28.725
-28.7
-28.675
-28.65
-28.625
-28.6
-28.575
-28.55
-28.525
-28.5
-28.475
-28.45
-28.425
-28.4
-28.375
-28.35
-28.325
-28.3
-28.275
-28.25
-28.225
-28.2
-28.175
-28.15
-28.125
-28.1
-28.075
-28.05
-28.025
-28
-27.975
-27.95
-27.925
-27.9
-27.875
-27.85
-27.825
-27.8
-27.775
-27.75
-27.725
-27.7
-27.675
-27.65
-27.625
-27.6
-27.575
-27.55
-27.525
-27.5
-27.475
-27.45
-27.425
-27.4
-27.375
-27.35
-27.325
-27.3
-27.275
-27.25
-27.225
-27.2
-27.175
-27.15
-27.125
-27.1
-27.075
-27.05
-27.025
-27
-26.975
-26.95
-26.925
-26.9
-26.875
-26.85
-26.825
-26.8
-26.775
-26.75
-26.725
-26.7
-26.675
-26.65
-26.625
-26.6
-26.575
-26.55
-26.525
-26.5
-26.475
-26.45
-26.425
-26.4
-26.375
-26.35
-26.325
-26.3
-26.275
-26.25
-26.225
-26.2
-26.175
-26.15
-26.125
-26.1
-26.075
-26.05
-26.025
-26
-25.975
-25.95
-25.925
-25.9
-25.875
-25.85
-25.825
-25.8
-25.775
-25.75
-25.725
-25.7
-25.675
-25.65
-25.625
-25.6
-25.575
-25.55
-25.525
-25.5
-25.475
-25.45
-25.425
-25.4
-25.375
-25.35
-25.325
-25.3
-25.275
-25.25
-25.225
-25.2
-25.175
-25.15
-25.125
-25.1
-25.075
-25.05
-25.025
-25
-24.975
-24.95
-24.925
-24.9
-24.875
-24.85
-24.825
-24.8
-24.775
-24.75
-24.725
-24.7
-24.675
-24.65
-24.625
-24.6
-24.575
-24.55
-24.525
-24.5
-24.475
-24.45
-24.425
-24.4
-24.375
-24.35
-24.325
-24.3
-24.275
-24.25
-24.225
-24.2
-24.175
-24.15
-24.125
-24.1
-24.075
-24.05
-24.025
-24
-23.975
-23.95
-23.925
-23.9
-23.875
-23.85
-23.825
-23.8
-23.775
-23.75
-23.725
-23.7
-23.675
-23.65
-23.625
-23.6
-23.575
-23.55
-23.525
-23.5
-23.475
-23.45
-23.425
-23.4
-23.375
-23.35
-23.325
-23.3
-23.275
-23.25
-23.225
-23.2
-23.175
-23.15
-23.125
-23.1
-23.075
-23.05
-23.025
-23
-22.975
-22.95
-22.925
-22.9
-22.875
-22.85
-22.825
-22.8
-22.775
-22.75
-22.725
-22.7
-22.675
-22.65
-22.625
-22.6
-22.575
-22.55
-22.525
-22.5
-22.475
-22.45
-22.425
-22.4
-22.375
-22.35
-22.325
-22.3
-22.275
-22.25
-22.225
-22.2
-22.175
-22.15
-22.125
-22.1
-22.075
-22.05
-22.025
-22
-21.975
-21.95
-21.925
-21.9
-21.875
-21.85
-21.825
-21.8
-21.775
-21.75
-21.725
-21.7
-21.675
-21.65
-21.625
-21.6
-21.575
-21.55
-21.525
-21.5
-21.475
-21.45
-21.425
-21.4
-21.375
-21.35
-21.325
-21.3
-21.275
-21.25
-21.225
-21.2
-21.175
-21.15
-21.125
-21.1
-21.075
-21.05
-21.025
-21
-20.975
-20.95
-20.925
-20.9
-20.875
-20.85
-20.825
-20.8
-20.775
-20.75
-20.725
-20.7
-20.675
-20.65
-20.625
-20.6
-20.575
-20.55
-20.525
-20.5
-20.475
-20.45
-20.425
-20.4
-20.375
-20.35
-20.325
-20.3
-20.275
-20.25
-20.225
-20.2
-20.175
-20.15
-20.125
-20.1
-20.075
-20.05
-20.025
-20
VAR_LIST_END
BEGIN
-15.564852,-161.28842
-14.534265,-161.8831
-16.167084,-159.90759
-14.832313,-157.38368
-15.794753,-161.12535
-16.254147,-159.70711
-14.846585,-163.65463
-16.048008,-168.02817
-15.861674,-156.05371
-14.818456,-160.09709
-15.618885,-167.41882
-14.59979,-159.34958
-14.910191,-165.13879
-14.889076,-167.21478
-14.441756,-166.85622
-14.51598,-163.18231
-15.046241,-165.59009
-15.927162,-161.73029
-15.62218,-159.5401
-14.479534,-164.16188
-14.547863,-166.37685
-15.056398,-162.50017
-15.193052,-162.08414
-15.682802,-155.14023
-15.77405,-159.06116
-14.306546,-166.12238
-16.410669,-162.2838
-15.009317,-160.52843
-15.400599,-158.38684
-15.011624,-161.30658
-15.190127,-162.6069
-15.244216,-160.08612
-14.751452,-169.09467
-14.614025,-155.55621
-15.591627,-156.18983
-16.100075,-160.8752
-15.023422,-161.79861
-15.246308,-155.00169
-14.565059,-160.43094
-14.901613,-157.19542
-15.807895,-161.90642
-15.047632,-158.67084
-14.319057,-161.58015
-15.37588,-165.61954
-15.009441,-165.64601
-15.027313,-160.78995
-15.323212,-162.16241
-15.358418,-158.55255
-14.484228,-165.43738
-15.359422,-154.89192
-15.441464,-166.23914
-14.946374,-162.26514
-16.017817,-159.25244
-15.267242,-162.13049
-15.206551,-160.72946
-15.156393,-161.46501
-15.316568,-157.42981
-15.804494,-166.79582
-15.10634,-162.59917
-14.787598,-158.92459
-15.806993,-160.57515
-15.64354,-154.73627
-14.473625,-165.84062
-14.658867,-160.32671
-14.887364,-159.50705
-14.790488,-158.80429
-14.886746,-159.1815
-14.416218,-158.60191
-15.327301,-159.35487
-15.250141,-160.32359
-14.868762,-155.57277
-15.047929,-162.09045
-15.992438,-163.4464
-15.187584,-160.39551
-14.834601,-165.62157
-14.758309,-162.77277
-15.267283,-159.11526
-15.117019,-164.52171
-15.014611,-159.13271
-14.933554,-162.44992
-15.650824,-161.86896
-15.677804,-167.20557
-15.121351,-156.23708
-14.883246,-162.26189
-15.285903,-159.70088
-14.92312,-161.82321
-15.615272,-168.10541
-15.027945,-166.05618
-15.424757,-162.05014
-14.800117,-163.27795
-14.831057,-163.86398
-15.333457,-166.82529
-14.897135,-159.00488
-15.602842,-159.92407
-15.63415,-164.47432
-14.556006,-157.67719
-14.401909,-162.4407
-14.903539,-163.405
-14.894623,-165.68463
-14.64585,-160.06805
-14.770401,-160.72871
-14.905998,-158.16461
-14.622154,-154.31093
-15.240073,-162.27919
-15.156395,-165.96014
-15.291388,-164.90921
-14.49633,-160.82568
-15.806513,-159.91811
-14.946176,-156.97427
-14.593568,-165.45932
-15.15809,-163.03769
-14.369462,-165.6814
-14.566187,-163.67348
-15.410316,-162.80653
-15.483225,-161.21782
-14.518649,-161.98325
-15.229335,-160.66275
-15.108401,-158.61438
-15.278519,-161.83421
-15.077206,-158.18637
-14.959569,-163.41325
-14.528057,-162.74063
-15.15757,-161.17377
-14.509412,-155.48808
-15.322363,-157.96646
-15.373562,-158.96854
-14.636045,-163.5536
-14.538241,-161.75017
-14.767983,-160.69792
-15.391423,-160.00348
-15.087378,-164.47693
-14.80407,-161.42535
-15.340817,-159.20851
-15.218762,-156.005
-15.23801,-161.13835
-15.059088,-163.81519
-14.400386,-163.33026
-14.770679,-163.34375
-15.421392,-160.82385
-14.89189,-165.51712
-15.374005,-161.62964
-15.235847,-160.19543
-15.487853,-161.43552
-15.379807,-160.68568
-14.559114,-162.14726
-15.489526,-161.16357
-14.752101,-164.80957
-14.757213,-160.4765
-15.43659,-159.75813
-15.032986,-165.33606
-15.505264,-160.41653
-14.872537,-164.48883
-15.300227,-161.05643
-14.431893,-158.37953
-15.041976,-164.57898
-15.246383,-164.15492
-14.698536,-159.31459
-15.379026,-162.21718
-14.218043,-161.4214
-15.162755,-162.0112
-14.798294,-163.56624
-14.931783,-159.36868
-15.352864,-160.65976
-14.025515,-160.95723
-14.723114,-159.6712
-15.457841,-161.17728
-14.989651,-160.76479
-15.013553,-160.78513
-15.09237,-160.20358
-14.982022,-159.96339
-15.525747,-161.93251
-15.007085,-160.40312
-15.00587,-160.61221
-15.099507,-159.14366
-15.04023,-158.46976
-15.299542,-164.05283
-15.637735,-165.16379
-15.646738,-163.57576
-14.728946,-157.34386
-14.477929,-161.76184
-14.928377,-162.34854
-15.00055,-163.42607
-15.030945,-163.16696
-15.864668,-163.08862
-14.479,-162.97456
-14.881886,-161.85349
-15.25775,-162.16646
-14.741043,-158.06805
-15.495581,-158.18898
-15.178382,-163.25771
-15.944074,-157.68344
-14.833975,-162.68977
-14.965487,-159.11349
-15.494093,-158.84024
-16.320215,-160.72563
-15.546174,-155.88173
-15.397092,-161.61508
-15.377118,-161.77924
-14.937833,-160.07491
-14.867456,-158.42046
-14.947351,-158.56613
-14.959781,-165.5321
-15.562058,-162.38672
-15.030736,-162.8853
-15.363933,-155.38583
-14.913992,-161.53488
-15.170726,-162.27733
-14.977523,-160.36002
-14.637362,-162.05653
-15.158518,-161.21764
-15.532166,-162.43599
-15.392603,-158.7282
-15.105604,-162.32639
-14.603879,-164.60274
-14.91515,-160.07764
-14.852495,-158.14706
-15.054598,-160.93193
-14.659399,-163.97188
-14.561611,-161.04413
-15.380999,-162.51591
-15.07441,-161.87302
-14.943457,-160.96155
-14.637576,-162.80055
-14.866265,-158.00053
-15.335786,-165.25157
-15.044583,-161.32452
-14.841632,-162.25398
-15.491694,-158.58253
-15.732304,-159.68373
-14.555813,-161.75533
-14.59664,-158.39426
-15.0043,-163.72459
-15.026633,-163.27357
-14.814147,-158.87793
-15.048158,-160.44002
-15.675666,-157.57124
-15.021866,-162.20474
-15.16207,-163.57907
-14.766553,-162.36948
-15.398769,-158.99315
-14.769423,-159.61499
-14.948403,-160.88878
-15.21609,-160.36798
-15.31145,-163.61288
-15.192316,-158.95229
-15.210843,-161.90283
-15.326555,-157.18587
-14.886597,-166.33315
-15.178054,-159.0619
-15.047253,-161.35837
-15.586328,-164.33968
-14.924524,-164.88341
-15.182231,-165.33473
-15.114256,-159.86163
-14.835712,-160.1976
-15.060336,-160.4579
-15.149276,-159.56517
-15.52817,-160.72009
-15.299822,-161.09309
-15.023384,-159.00629
-15.037533,-163.10562
-15.148449,-161.93872
-15.369883,-163.1283
-15.446817,-157.2821
-15.291418,-160.79324
-15.061685,-162.3322
-14.896096,-160.6149
-14.732441,-161.22499
-14.70158,-162.82254
-14.698427,-162.83217
-15.085069,-161.91359
-15.094576,-161.53113
-14.552812,-160.33211
-14.877068,-165.42006
-15.286374,-162.22142
-15.108076,-162.80476
-15.379762,-162.44505
-15.061961,-162.46246
-14.729239,-163.36909
-14.906164,-159.80678
-14.840102,-160.84363
-14.768855,-163.26492
-15.573357,-159.02254
-15.100555,-160.13289
-14.889223,-157.79362
-14.399501,-162.82109
-14.934818,-159.81271
-14.535249,-163.97479
-15.14558,-160.49492
-14.716452,-163.29889
-15.142517,-162.89784
-15.51389,-161.05429
-14.636103,-164.44212
-15.121698,-162.88937
-15.269277,-162.73541
-14.930425,-161.23051
-14.687288,-162.8076
-14.624739,-164.23399
-15.105825,-162.66599
-14.805793,-161.86714
-15.330529,-163.0836
-14.698668,-164.87413
-15.115212,-161.99028
-15.415962,-164.55013
-14.932392,-159.56926
-14.938229,-163.48824
-14.977932,-156.46951
-15.114754,-159.05826
-14.627603,-164.66348
-15.116823,-162.04703
-15.333961,-161.45406
-15.129363,-160.00101
-15.072799,-160.43422
-14.94075,-162.91782
-15.079867,-163.77357
-15.058655,-162.57443
-14.982179,-163.49879
-14.897151,-160.92828
-14.977194,-159.54416
-14.891612,-160.37219
-14.910053,-163.42603
-14.932484,-163.17749
-14.944153,-159.64468
-15.144677,-161.11038
-14.922067,-160.09113
-14.68465,-161.78815
-15.007842,-163.19434
-14.89329,-161.9297
-14.805741,-164.68538
-15.206088,-159.44003
-15.087028,-161.24443
-14.898726,-162.29333
-15.117272,-162.83694
-14.791451,-163.35861
-15.286736,-160.33655
-14.783663,-162.03882
-15.188502,-161.44629
-14.970515,-160.4886
-14.867726,-161.35873
-15.295753,-161.11604
-15.134546,-162.10233
-15.416062,-162.93944
-15.457067,-161.84592
-15.486399,-160.40222
-14.77073,-160.38689
-15.18078,-160.87961
-14.921823,-161.37851
-15.056198,-161.74988
-15.16073,-162.66898
-14.974583,-161.33145
-14.817883,-159.6833
-15.178113,-162.42062
-14.648971,-162.86932
-15.113856,-162.02185
-15.232797,-160.23753
-15.466054,-161.11057
-14.951444,-162.11371
-14.606559,-161.29305
-15.096307,-161.71057
-14.77175,-161.3587
-15.097306,-159.91985
-14.754161,-158.6217
-15.112584,-161.62408
-15.053213,-160.83984
-15.043967,-159.46103
-14.949668,-159.27414
-15.169449,-164.06546
-15.114446,-163.4473
-15.163082,-158.73586
-15.173194,-163.83713
-15.024881,-162.71815
-15.087011,-163.56171
-14.873554,-161.9061
-14.965401,-162.58055
-15.108801,-162.06964
-15.209382,-160.86539
-15.053708,-162.62444
-14.951803,-159.89214
-15.15643,-161.04022
-15.105394,-160.37521
-15.220444,-160.90952
-15.165935,-160.21233
-15.414365,-162.46303
-15.289045,-162.18391
-15.155337,-160.94435
-14.946768,-159.98561
-15.138687,-161.83321
-15.017993,-159.61729
-15.277378,-162.23441
-15.15048,-160.89104
-14.98816,-161.18231
-15.540545,-158.9799
-15.372859,-160.45413
-14.796509,-160.5491
-14.81805,-160.7206
-15.133357,-162.22549
-15.057564,-159.60326
-15.006045,-161.5038
-15.330114,-162.71176
-15.353672,-160.39569
-14.820386,-161.05704
-15.182814,-163.75708
-15.251876,-163.11424
-15.194246,-162.80075
-14.920533,-160.95804
-15.390775,-162.79855
-15.193848,-162.83208
-15.407583,-158.47099
-15.14983,-161.58449
-14.899142,-161.782
-15.257233,-161.7446
-15.183549,-162.97314
-15.198208,-162.50412
-14.777073,-161.50873
-15.080661,-160.77835
-15.140847,-161.60994
-15.247665,-161.18719
-14.969689,-163.40463
-14.839097,-160.94244
-15.135187,-162.60533
-14.861663,-163.26573
-15.111041,-162.63985
-15.071184,-161.71057
-14.925111,-161.8757
-15.19089,-162.21655
-15.313246,-162.35443
-15.356709,-159.70917
-15.219371,-159.19412
-14.986919,-162.91011
-15.373701,-162.87875
-15.027118,-161.02136
-15.063622,-163.02429
-14.810186,-161.2951
-15.215353,-161.94215
-15.026215,-163.25591
-15.134566,-163.38123
-14.677046,-160.87836
-15.107373,-163.55345
-15.231493,-161.61081
-14.904461,-160.83809
-14.941082,-160.83104
-14.998308,-162.29729
-14.924402,-160.97539
-14.939297,-160.99672
-14.982011,-161.89088
-15.032223,-160.46175
-15.179766,-162.43826
-15.168786,-162.14494
-14.804907,-161.27139
-14.823028,-161.37112
-15.094239,-161.43568
-14.981989,-160.76378
-15.181261,-160.61887
-15.023788,-163.54552
-15.148166,-160.68893
-15.126048,-163.41666
-15.149432,-160.4088
-14.882674,-162.28018
-15.226137,-162.85503
-15.002725,-162.24681
-14.793023,-161.77896
-14.998347,-159.60472
-15.03812,-160.26414
-15.277904,-160.5714
-14.945295,-159.48114
-15.00283,-163.06245
-15.201002,-161.04021
-14.989552,-161.23039
-14.861612,-161.40244
-15.475329,-161.60168
-15.188126,-160.08168
-15.076488,-160.5513
-15.445186,-160.08989
-14.943508,-160.16916
-15.131601,-162.09175
-14.993293,-162.10902
-15.046721,-162.12312
-15.272905,-162.88887
-15.096499,-160.54539
-15.16526,-161.12637
-15.168393,-161.20203
-14.969964,-161.26927
-14.844331,-161.75687
-15.041396,-161.85109
-15.03414,-162.33588
-15.183916,-161.26147
-15.069281,-161.37965
-15.049383,-160.80147
-15.03108,-161.96164
-14.915945,-161.26282
-15.019008,-160.98346
-15.237711,-161.57486
-14.8676,-161.18321
-15.063488,-161.59572
-15.134662,-162.1104
-14.989302,-160.43967
-15.056185,-160.39757
-15.306294,-158.83621
-15.116977,-162.95189
-15.087025,-162.3436
-14.85962,-160.82382
-14.949869,-160.75056
-15.09536,-160.6156
-15.301224,-161.08899
-14.896009,-162.11055
-14.875608,-161.41452
-15.170072,-161.63579
-15.187275,-161.22166
-14.949275,-162.19087
-15.268618,-160.43787
-15.27329,-160.6394
-15.037416,-161.21805
-15.063298,-161.67921
-14.818722,-160.48445
-15.123566,-161.25597
-15.101965,-161.38655
-15.104925,-163.06773
-14.968102,-159.79419
-15.180928,-162.02179
-15.049509,-160.27084
-15.046498,-162.01877
-15.217762,-161.97916
-15.008806,-161.52548
-14.831183,-159.86613
-15.068727,-161.39354
-14.92728,-161.82713
-14.789485,-160.95753
-14.834751,-162.63766
-15.112698,-161.77954
-15.037406,-159.91344
-14.98717,-162.68677
-15.046209,-163.22409
-15.020245,-161.81035
-14.942308,-162.4334
-15.15925,-161.68977
-15.148453,-161.95633
-14.952553,-159.86452
-15.020925,-161.342
-14.87435,-163.66415
-15.172174,-161.7094
-15.173423,-161.96722
-14.776003,-163.035
-15.127172,-162.81822
-14.9674,-162.46136
-15.079393,-160.03191
-14.809644,-160.15157
-15.149644,-160.86124
-14.862672,-160.66968
-15.039061,-160.90837
-15.140549,-162.26242
-15.116761,-160.20316
-15.074511,-159.31474
-15.031841,-162.04063
-14.763935,-160.5695
-15.04124,-160.27461
-14.979136,-161.73581
-15.135795,-161.6384
-15.173208,-161.5874
-15.050545,-161.86066
-14.889511,-160.54623
-14.88765,-162.12119
-14.766079,-161.95631
-15.198213,-160.70444
-15.020754,-161.31337
-15.071802,-162.45377
-14.917523,-160.99641
-15.213426,-161.37276
-15.145794,-162.25534
-15.060824,-160.66063
-15.138681,-162.57559
-14.892376,-160.48727
-14.9811,-161.08566
-15.327129,-161.46088
-15.068638,-162.03279
-14.952933,-161.75006
-15.023528,-161.58505
