CITIFILE A.01.01
!Agilent Technologies,N5230C,MY48100142,A.08.04.10
!Agilent N5230C: A.08.04.10
!Format: LogMag/Angle
!Date: Monday, August 24, 2020 15:49:12
NAME CH1_DATA
VAR Power MAG 801
DATA S11 DBANGLE
DATA S21 DBANGLE
DATA S12 DBANGLE
DATA S22 DBANGLE
VAR_LIST_BEGIN
-40
-39.975
-39.95
-39.925
-39.9
-39.875
-39.85
-39.825
-39.8
-39.775
-39.75
-39.725
-39.7
-39.675
-39.65
-39.625
-39.6
-39.575
-39.55
-39.525
-39.5
-39.475
-39.45
-39.425
-39.4
-39.375
-39.35
-39.325
-39.3
-39.275
-39.25
-39.225
-39.2
-39.175
-39.15
-39.125
-39.1
-39.075
-39.05
-39.025
-39
-38.975
-38.95
-38.925
-38.9
-38.875
-38.85
-38.825
-38.8
-38.775
-38.75
-38.725
-38.7
-38.675
-38.65
-38.625
-38.6
-38.575
-38.55
-38.525
-38.5
-38.475
-38.45
-38.425
-38.4
-38.375
-38.35
-38.325
-38.3
-38.275
-38.25
-38.225
-38.2
-38.175
-38.15
-38.125
-38.1
-38.075
-38.05
-38.025
-38
-37.975
-37.95
-37.925
-37.9
-37.875
-37.85
-37.825
-37.8
-37.775
-37.75
-37.725
-37.7
-37.675
-37.65
-37.625
-37.6
-37.575
-37.55
-37.525
-37.5
-37.475
-37.45
-37.425
-37.4
-37.375
-37.35
-37.325
-37.3
-37.275
-37.25
-37.225
-37.2
-37.175
-37.15
-37.125
-37.1
-37.075
-37.05
-37.025
-37
-36.975
-36.95
-36.925
-36.9
-36.875
-36.85
-36.825
-36.8
-36.775
-36.75
-36.725
-36.7
-36.675
-36.65
-36.625
-36.6
-36.575
-36.55
-36.525
-36.5
-36.475
-36.45
-36.425
-36.4
-36.375
-36.35
-36.325
-36.3
-36.275
-36.25
-36.225
-36.2
-36.175
-36.15
-36.125
-36.1
-36.075
-36.05
-36.025
-36
-35.975
-35.95
-35.925
-35.9
-35.875
-35.85
-35.825
-35.8
-35.775
-35.75
-35.725
-35.7
-35.675
-35.65
-35.625
-35.6
-35.575
-35.55
-35.525
-35.5
-35.475
-35.45
-35.425
-35.4
-35.375
-35.35
-35.325
-35.3
-35.275
-35.25
-35.225
-35.2
-35.175
-35.15
-35.125
-35.1
-35.075
-35.05
-35.025
-35
-34.975
-34.95
-34.925
-34.9
-34.875
-34.85
-34.825
-34.8
-34.775
-34.75
-34.725
-34.7
-34.675
-34.65
-34.625
-34.6
-34.575
-34.55
-34.525
-34.5
-34.475
-34.45
-34.425
-34.4
-34.375
-34.35
-34.325
-34.3
-34.275
-34.25
-34.225
-34.2
-34.175
-34.15
-34.125
-34.1
-34.075
-34.05
-34.025
-34
-33.975
-33.95
-33.925
-33.9
-33.875
-33.85
-33.825
-33.8
-33.775
-33.75
-33.725
-33.7
-33.675
-33.65
-33.625
-33.6
-33.575
-33.55
-33.525
-33.5
-33.475
-33.45
-33.425
-33.4
-33.375
-33.35
-33.325
-33.3
-33.275
-33.25
-33.225
-33.2
-33.175
-33.15
-33.125
-33.1
-33.075
-33.05
-33.025
-33
-32.975
-32.95
-32.925
-32.9
-32.875
-32.85
-32.825
-32.8
-32.775
-32.75
-32.725
-32.7
-32.675
-32.65
-32.625
-32.6
-32.575
-32.55
-32.525
-32.5
-32.475
-32.45
-32.425
-32.4
-32.375
-32.35
-32.325
-32.3
-32.275
-32.25
-32.225
-32.2
-32.175
-32.15
-32.125
-32.1
-32.075
-32.05
-32.025
-32
-31.975
-31.95
-31.925
-31.9
-31.875
-31.85
-31.825
-31.8
-31.775
-31.75
-31.725
-31.7
-31.675
-31.65
-31.625
-31.6
-31.575
-31.55
-31.525
-31.5
-31.475
-31.45
-31.425
-31.4
-31.375
-31.35
-31.325
-31.3
-31.275
-31.25
-31.225
-31.2
-31.175
-31.15
-31.125
-31.1
-31.075
-31.05
-31.025
-31
-30.975
-30.95
-30.925
-30.9
-30.875
-30.85
-30.825
-30.8
-30.775
-30.75
-30.725
-30.7
-30.675
-30.65
-30.625
-30.6
-30.575
-30.55
-30.525
-30.5
-30.475
-30.45
-30.425
-30.4
-30.375
-30.35
-30.325
-30.3
-30.275
-30.25
-30.225
-30.2
-30.175
-30.15
-30.125
-30.1
-30.075
-30.05
-30.025
-30
-29.975
-29.95
-29.925
-29.9
-29.875
-29.85
-29.825
-29.8
-29.775
-29.75
-29.725
-29.7
-29.675
-29.65
-29.625
-29.6
-29.575
-29.55
-29.525
-29.5
-29.475
-29.45
-29.425
-29.4
-29.375
-29.35
-29.325
-29.3
-29.275
-29.25
-29.225
-29.2
-29.175
-29.15
-29.125
-29.1
-29.075
-29.05
-29.025
-29
-28.975
-28.95
-28.925
-28.9
-28.875
-28.85
-28.825
-28.8
-28.775
-28.75
-28.725
-28.7
-28.675
-28.65
-28.625
-28.6
-28.575
-28.55
-28.525
-28.5
-28.475
-28.45
-28.425
-28.4
-28.375
-28.35
-28.325
-28.3
-28.275
-28.25
-28.225
-28.2
-28.175
-28.15
-28.125
-28.1
-28.075
-28.05
-28.025
-28
-27.975
-27.95
-27.925
-27.9
-27.875
-27.85
-27.825
-27.8
-27.775
-27.75
-27.725
-27.7
-27.675
-27.65
-27.625
-27.6
-27.575
-27.55
-27.525
-27.5
-27.475
-27.45
-27.425
-27.4
-27.375
-27.35
-27.325
-27.3
-27.275
-27.25
-27.225
-27.2
-27.175
-27.15
-27.125
-27.1
-27.075
-27.05
-27.025
-27
-26.975
-26.95
-26.925
-26.9
-26.875
-26.85
-26.825
-26.8
-26.775
-26.75
-26.725
-26.7
-26.675
-26.65
-26.625
-26.6
-26.575
-26.55
-26.525
-26.5
-26.475
-26.45
-26.425
-26.4
-26.375
-26.35
-26.325
-26.3
-26.275
-26.25
-26.225
-26.2
-26.175
-26.15
-26.125
-26.1
-26.075
-26.05
-26.025
-26
-25.975
-25.95
-25.925
-25.9
-25.875
-25.85
-25.825
-25.8
-25.775
-25.75
-25.725
-25.7
-25.675
-25.65
-25.625
-25.6
-25.575
-25.55
-25.525
-25.5
-25.475
-25.45
-25.425
-25.4
-25.375
-25.35
-25.325
-25.3
-25.275
-25.25
-25.225
-25.2
-25.175
-25.15
-25.125
-25.1
-25.075
-25.05
-25.025
-25
-24.975
-24.95
-24.925
-24.9
-24.875
-24.85
-24.825
-24.8
-24.775
-24.75
-24.725
-24.7
-24.675
-24.65
-24.625
-24.6
-24.575
-24.55
-24.525
-24.5
-24.475
-24.45
-24.425
-24.4
-24.375
-24.35
-24.325
-24.3
-24.275
-24.25
-24.225
-24.2
-24.175
-24.15
-24.125
-24.1
-24.075
-24.05
-24.025
-24
-23.975
-23.95
-23.925
-23.9
-23.875
-23.85
-23.825
-23.8
-23.775
-23.75
-23.725
-23.7
-23.675
-23.65
-23.625
-23.6
-23.575
-23.55
-23.525
-23.5
-23.475
-23.45
-23.425
-23.4
-23.375
-23.35
-23.325
-23.3
-23.275
-23.25
-23.225
-23.2
-23.175
-23.15
-23.125
-23.1
-23.075
-23.05
-23.025
-23
-22.975
-22.95
-22.925
-22.9
-22.875
-22.85
-22.825
-22.8
-22.775
-22.75
-22.725
-22.7
-22.675
-22.65
-22.625
-22.6
-22.575
-22.55
-22.525
-22.5
-22.475
-22.45
-22.425
-22.4
-22.375
-22.35
-22.325
-22.3
-22.275
-22.25
-22.225
-22.2
-22.175
-22.15
-22.125
-22.1
-22.075
-22.05
-22.025
-22
-21.975
-21.95
-21.925
-21.9
-21.875
-21.85
-21.825
-21.8
-21.775
-21.75
-21.725
-21.7
-21.675
-21.65
-21.625
-21.6
-21.575
-21.55
-21.525
-21.5
-21.475
-21.45
-21.425
-21.4
-21.375
-21.35
-21.325
-21.3
-21.275
-21.25
-21.225
-21.2
-21.175
-21.15
-21.125
-21.1
-21.075
-21.05
-21.025
-21
-20.975
-20.95
-20.925
-20.9
-20.875
-20.85
-20.825
-20.8
-20.775
-20.75
-20.725
-20.7
-20.675
-20.65
-20.625
-20.6
-20.575
-20.55
-20.525
-20.5
-20.475
-20.45
-20.425
-20.4
-20.375
-20.35
-20.325
-20.3
-20.275
-20.25
-20.225
-20.2
-20.175
-20.15
-20.125
-20.1
-20.075
-20.05
-20.025
-20
VAR_LIST_END
BEGIN
-15.251077,-157.74963
-15.031585,-158.97249
-15.189638,-159.69638
-14.89988,-155.41466
-15.052855,-157.19841
-14.839992,-158.60381
-15.217945,-156.45419
-15.11413,-158.75206
-15.029621,-157.67551
-15.086255,-158.7205
-14.666348,-155.90245
-15.212701,-158.01399
-14.920668,-158.4292
-15.184573,-159.77135
-14.989212,-160.62924
-14.84637,-156.10043
-14.982533,-157.84302
-14.958252,-158.2905
-15.094478,-158.41313
-15.227724,-159.30222
-15.246109,-159.6602
-15.0534,-160.43973
-15.377418,-159.89476
-15.128958,-159.20525
-15.36238,-158.30659
-15.050389,-161.00824
-15.015175,-156.88042
-14.705062,-158.09386
-15.052016,-159.28925
-14.967166,-160.39374
-15.24067,-159.05888
-14.836463,-158.72363
-14.763443,-160.08269
-15.180649,-159.16658
-15.185448,-159.55296
-14.884179,-159.93922
-14.995644,-157.53929
-15.08136,-157.42809
-14.930189,-156.66905
-14.909102,-159.52467
-14.673693,-157.95358
-15.107643,-158.50671
-15.369387,-159.81654
-15.41833,-157.25444
-14.895888,-157.78888
-14.944101,-158.67882
-15.138257,-159.13197
-14.920753,-158.92671
-15.020413,-158.56805
-15.170623,-159.53534
-14.873695,-155.98743
-14.992843,-160.04123
-15.003591,-156.58885
-15.361659,-158.74533
-15.127573,-159.16225
-15.055696,-158.1944
-15.309901,-158.05948
-14.840366,-157.83284
-14.943402,-158.89526
-15.329635,-159.51274
-14.911671,-157.34161
-14.808794,-159.18556
-15.146763,-157.89389
-15.077689,-158.53017
-14.728327,-157.91325
-14.833187,-159.37723
-15.456787,-158.86928
-15.07777,-156.70966
-15.145368,-159.08002
-15.159204,-159.30269
-14.983018,-157.76978
-15.211151,-158.0184
-14.968301,-158.78192
-15.187939,-158.75072
-15.274211,-159.2616
-15.3127,-157.39359
-15.009801,-156.48055
-15.14538,-160.3662
-15.328547,-159.35353
-15.254639,-159.11081
-15.079919,-158.46063
-14.757492,-158.3517
-15.106331,-156.70204
-15.143625,-159.13387
-14.827824,-159.25108
-15.183648,-158.42496
-15.04043,-158.69037
-15.240434,-156.44907
-14.98071,-158.72635
-15.293442,-157.5244
-14.795204,-159.76028
-15.016889,-158.24849
-14.945714,-157.59094
-14.966188,-157.92757
-14.783904,-157.85992
-15.350361,-158.99202
-15.051652,-159.63631
-15.058042,-157.31665
-14.996766,-157.31065
-14.967603,-157.98557
-15.094774,-158.39116
-15.13598,-158.48618
-15.071404,-158.66841
-15.066138,-157.84483
-15.115936,-158.19145
-15.020143,-159.51329
-15.043289,-155.83412
-15.155396,-157.03575
-15.175407,-158.17346
-15.136417,-157.31905
-14.881868,-157.37082
-15.091379,-158.88387
-14.981428,-158.3125
-15.083359,-156.44041
-15.13467,-159.74191
-15.152016,-157.60185
-14.922326,-158.66064
-15.357238,-158.60245
-14.946289,-159.33095
-15.451528,-159.61824
-15.148851,-158.41805
-14.926928,-156.8428
-15.164657,-158.09209
-15.056245,-158.48212
-15.072463,-157.13048
-15.08616,-157.48419
-14.974749,-159.67482
-15.145466,-158.10216
-14.948684,-158.34189
-15.078367,-157.37848
-15.078178,-159.04808
-15.201391,-156.47368
-15.119133,-159.07478
-15.015592,-159.51918
-15.019091,-158.52628
-14.93384,-158.38455
-15.216228,-156.88728
-14.845178,-158.27496
-15.005296,-157.73177
-14.979323,-157.8725
-15.171804,-159.48529
-15.205919,-158.3161
-15.063289,-157.70876
-15.247952,-159.14365
-14.797021,-158.40337
-15.039997,-157.99493
-14.885584,-159.14963
-15.346883,-159.7646
-15.235307,-157.66798
-15.10026,-157.14862
-15.064525,-158.56548
-15.205776,-158.24214
-15.168046,-158.39771
-14.835435,-159.80089
-15.422357,-159.55241
-15.264812,-157.2618
-14.96769,-158.74512
-15.316872,-156.12982
-15.010424,-158.83701
-14.892004,-160.16197
-15.136588,-157.24219
-15.040236,-158.69
-15.04601,-157.73888
-14.936451,-159.30963
-15.116038,-158.94011
-14.940685,-160.53749
-14.975191,-157.3549
-15.157927,-159.19958
-15.122334,-158.64793
-15.086808,-160.18217
-15.256787,-160.42491
-15.165594,-159.99089
-15.065892,-159.30365
-14.998331,-157.98546
-15.348507,-158.22823
-15.203471,-157.08762
-15.131946,-158.90633
-15.343286,-158.58189
-15.042081,-157.68312
-15.029022,-156.76906
-15.260655,-158.72893
-15.063333,-156.37987
-15.172917,-158.38083
-15.022364,-159.57149
-14.961915,-158.34769
-14.960019,-160.16789
-14.913343,-159.02617
-15.190994,-158.43434
-15.19055,-157.42279
-14.966244,-157.8904
-15.182793,-158.20715
-15.064025,-156.66972
-15.068719,-157.16464
-15.014485,-157.97998
-15.245499,-158.22867
-15.421168,-159.64787
-14.980604,-157.83614
-15.157089,-157.47575
-15.260069,-158.5304
-15.14386,-158.85558
-15.312595,-156.60864
-15.060612,-158.87399
-14.997606,-157.66501
-15.022595,-157.81319
-14.930825,-157.88579
-14.948617,-158.41211
-15.183906,-157.4438
-14.939479,-159.89957
-15.006125,-158.78223
-14.765079,-156.47168
-15.098586,-159.03572
-14.853747,-158.32362
-14.955768,-158.66739
-14.964445,-159.70853
-15.178272,-158.74556
-15.094061,-158.03528
-14.980724,-157.9558
-15.354903,-157.96912
-15.078331,-158.32216
-15.089215,-159.07297
-15.154386,-157.80208
-14.970943,-157.06889
-15.05375,-158.69807
-14.939767,-158.37347
-15.302799,-157.37141
-15.341309,-158.85159
-15.146792,-159.12706
-14.973714,-157.59929
-15.227731,-158.4738
-15.114816,-157.93507
-14.988565,-158.8625
-14.967738,-156.95308
-15.220078,-158.81996
-15.155675,-157.84938
-15.157328,-158.44849
-15.167801,-159.54945
-15.271022,-158.49382
-15.146901,-158.78607
-14.947761,-158.64561
-15.147508,-158.94687
-15.000656,-158.31618
-14.969474,-156.91727
-15.087411,-158.84843
-15.09858,-158.94395
-14.918454,-157.51979
-15.096598,-157.642
-15.214987,-159.11284
-15.024063,-158.10419
-14.879144,-158.72847
-15.270543,-158.66327
-15.097387,-159.26569
-15.14745,-158.60938
-14.933191,-157.52081
-14.888008,-158.54143
-15.052803,-158.25342
-15.110919,-158.48061
-14.931292,-158.21935
-15.064831,-158.45958
-15.080909,-158.32207
-15.141558,-157.11392
-15.161597,-159.25789
-15.128624,-159.27496
-15.276484,-157.51773
-14.958705,-157.45522
-15.147879,-158.96342
-15.23424,-159.46672
-15.149356,-158.61295
-15.21368,-157.90126
-15.228187,-157.90813
-15.111703,-157.74315
-15.139595,-158.49179
-15.000673,-158.71359
-15.092447,-157.50586
-15.059191,-158.69925
-15.149834,-159.08197
-14.92687,-157.91077
-15.113238,-159.11391
-14.926611,-158.92284
-15.303863,-158.61818
-15.119089,-159.47807
-15.198659,-157.52602
-15.010948,-158.49226
-15.294037,-158.34335
-14.960526,-159.022
-15.271165,-159.08273
-15.069537,-157.99333
-15.098884,-158.38371
-15.060616,-157.74911
-14.99899,-158.23245
-15.018281,-158.95323
-15.080928,-158.02094
-15.118747,-157.86824
-14.825113,-159.42754
-15.06226,-158.27068
-14.897159,-158.49223
-14.96361,-158.11201
-15.112887,-158.54823
-15.044314,-158.98665
-15.059818,-158.71553
-15.129352,-158.3278
-15.269367,-158.39075
-15.039555,-159.34222
-14.996866,-158.46126
-14.971967,-157.57603
-14.902177,-158.34311
-15.312909,-157.60985
-15.021494,-158.28781
-15.291095,-158.50584
-15.085695,-158.56331
-15.206363,-158.84543
-15.233079,-158.45824
-14.994072,-159.01631
-15.020395,-158.49199
-15.102116,-158.03242
-15.0668,-158.37454
-15.262408,-157.46155
-15.030334,-159.69507
-15.184142,-157.88655
-14.989773,-157.98904
-15.078977,-158.62791
-15.18371,-158.03542
-15.188367,-158.60167
-14.966312,-157.62492
-15.077868,-158.22098
-15.032141,-158.54327
-15.039343,-159.36357
-15.048561,-157.88272
-15.051642,-159.10535
-14.989248,-158.80241
-15.277444,-159.09666
-14.991264,-158.41566
-15.016716,-158.67624
-15.421185,-158.63048
-15.055879,-158.65482
-15.120231,-159.12033
-15.08616,-158.35098
-14.916072,-157.94083
-15.06554,-158.24783
-15.139544,-157.78122
-15.011777,-158.12941
-15.002475,-159.5014
-15.081927,-157.76453
-15.15384,-157.68068
-14.973829,-159.67239
-15.107756,-160.43831
-15.160583,-158.93187
-14.986074,-157.62325
-14.968224,-158.05394
-15.106975,-158.91023
-15.167792,-158.47595
-15.081489,-158.27751
-15.107769,-158.64955
-15.053038,-158.95567
-15.058317,-158.80766
-15.16742,-158.5218
-15.061733,-158.64154
-15.175029,-158.2
-15.201534,-158.72517
-15.046567,-158.802
-14.940632,-156.83672
-15.180349,-157.97995
-15.047578,-158.07774
-15.016035,-158.39688
-15.03597,-158.57851
-15.051216,-159.03957
-15.091224,-158.4424
-15.12876,-158.7538
-15.163862,-158.33102
-15.042997,-157.48383
-15.162915,-158.50636
-15.070357,-158.16817
-15.087356,-158.01445
-15.044236,-158.53496
-15.096961,-158.81619
-15.055044,-157.49136
-15.114237,-157.97522
-15.152749,-158.17992
-15.021217,-158.75114
-14.977395,-158.68503
-15.1036,-158.77344
-15.158252,-158.85146
-15.03216,-157.91876
-15.06022,-159.20326
-15.105793,-158.32587
-15.119208,-158.659
-15.209751,-158.28313
-15.111663,-158.87366
-14.973835,-158.61758
-14.913114,-158.6913
-15.099675,-158.44049
-15.082929,-158.15199
-14.982096,-159.15762
-15.160667,-158.20102
-15.029107,-158.1046
-15.250928,-158.75359
-14.985246,-158.37978
-15.166088,-157.85976
-15.064802,-158.40103
-15.103129,-158.45212
-14.969067,-158.0549
-15.150615,-158.13245
-14.977361,-159.11096
-15.164997,-159.26495
-15.016523,-157.94041
-15.063442,-158.12761
-15.126719,-158.6617
-15.085248,-158.7818
-15.036178,-158.73615
-14.924744,-158.58696
-15.204998,-158.80283
-15.11182,-157.18913
-15.103303,-158.08327
-15.130996,-157.80872
-14.96952,-158.20358
-14.954143,-159.11481
-15.007782,-158.33136
-15.105117,-159.09169
-15.051311,-158.72766
-15.059251,-158.49898
-15.028169,-159.14445
-15.048417,-157.56369
-15.016909,-158.1615
-15.110766,-157.77171
-15.095475,-158.72639
-15.109392,-158.25317
-15.139505,-158.47516
-15.015932,-158.49272
-15.049199,-158.13707
-15.103169,-158.4595
-15.116133,-157.8855
-15.162749,-158.74635
-15.012607,-158.18311
-15.194046,-157.75323
-14.963112,-159.09439
-15.086789,-157.57935
-15.068727,-157.52069
-15.01957,-157.88072
-15.044761,-159.02969
-15.085764,-158.26353
-14.983456,-158.43266
-15.030983,-158.14656
-14.982848,-158.30464
-15.137978,-158.12207
-15.067543,-158.8508
-15.005907,-158.23216
-15.090031,-158.27338
-15.165482,-158.2959
-14.978877,-158.58537
-14.949961,-158.61583
-15.123168,-158.4077
-15.12168,-158.62212
-15.068924,-158.30791
-15.035792,-158.98535
-15.041547,-157.54512
-15.134521,-158.4483
-15.062407,-158.04375
-14.977919,-159.06825
-14.992314,-158.91174
-15.071547,-158.15402
-15.056489,-157.21318
-15.092151,-157.89305
-15.098706,-158.19035
-15.01647,-158.2803
-15.117793,-158.93977
-15.112791,-158.48982
-15.125286,-158.59792
-15.057277,-158.38377
-15.043132,-158.59483
-14.942012,-158.23434
-14.988948,-158.19592
-14.938361,-157.80519
-15.056459,-157.74202
-14.989482,-159.19489
-14.983806,-158.34093
-14.988617,-158.29906
-15.095194,-158.30283
-15.18236,-158.5675
-14.993425,-158.49905
-15.050487,-158.10695
-15.137786,-158.21983
-15.079448,-158.9745
-15.048259,-157.83858
-15.036353,-158.47627
-15.099861,-158.2572
-15.038938,-158.4174
-15.093325,-158.241
-15.149273,-158.45375
-15.059765,-158.00316
-15.04678,-158.19145
-15.084866,-157.58127
-15.171165,-158.86705
-14.879378,-158.67297
-14.96774,-158.16876
-15.06349,-158.39902
-15.080635,-158.2923
-14.896214,-157.96844
-14.998041,-158.97739
-15.113465,-158.72026
-15.036444,-158.40514
-15.147506,-157.96671
-15.045214,-158.39656
-15.049437,-158.58676
-15.054438,-158.87628
-15.035566,-158.0211
-15.062257,-158.78098
-15.031055,-159.08252
-15.11299,-158.12962
-15.009529,-157.97583
-15.0044,-157.78568
-15.03,-158.91232
-15.07313,-158.25743
-15.061748,-158.03296
-15.082098,-158.93718
-15.198832,-158.67818
-15.170188,-158.77122
-15.06575,-158.19553
-15.134402,-158.15381
-15.124637,-158.2191
-15.023061,-158.34428
-14.971973,-158.39816
-15.047328,-158.45161
-14.966656,-158.83575
-15.050435,-158.42902
-15.05945,-158.20691
-14.994221,-158.22662
-15.026807,-158.03641
-15.051993,-158.46126
-15.074909,-158.0587
-15.060858,-158.19461
-15.112552,-158.31761
-15.075131,-158.63231
-15.103537,-159.14569
-15.060856,-157.97105
-15.013905,-157.93361
-15.005032,-158.4839
-15.017789,-157.77251
-15.059896,-158.81776
-15.014637,-158.18047
-15.068513,-157.81302
-15.070662,-157.72269
-15.045182,-157.91565
-15.09702,-158.23578
-15.123673,-158.2041
-15.100228,-158.00504
-15.090737,-158.31163
-15.110879,-158.61694
-15.153028,-157.87267
-15.200233,-158.33476
-15.039063,-158.33208
-15.068503,-158.97029
-15.066136,-158.56599
-15.11196,-158.99577
-15.107365,-158.38629
-15.03646,-158.438
-15.055802,-158.46367
-15.07393,-158.1308
-15.067399,-158.58441
-15.095392,-158.67061
-15.066877,-158.65317
-15.154731,-158.02605
-15.160106,-158.35968
-15.028642,-157.76474
-15.034928,-158.83504
-15.103809,-158.51445
-15.08821,-157.92989
-15.148164,-158.28877
-15.145061,-158.44794
-15.007912,-158.5565
-15.053379,-158.04604
-15.068091,-158.28201
-15.043346,-158.39389
-15.100685,-158.37628
-15.013843,-158.29196
-15.077254,-157.72862
-15.019395,-158.71765
-15.083281,-158.73317
-15.147742,-158.61865
